! Created Thu Apr 22 17:24:07 2021
! List of port names and net name(s): example Port n = <port_name> <net_name1> <net_name2> ...
! Port 1 = P1 P3 gnd! 
! Port 2 = P2 N__0 gnd! 
! Port 3 = P3 P3 P7 
! Port 4 = P4 N__0 P8 
# hz S ri R 50
! 4 Port Network Data from data block
! freq  reS11  imS11  reS12  imS12  reS13  imS13  reS14  imS14  
!       reS21  imS21  reS22  imS22  reS23  imS23  reS24  imS24  
!       reS31  imS31  reS32  imS32  reS33  imS33  reS34  imS34  
!       reS41  imS41  reS42  imS42  reS43  imS43  reS44  imS44  
!     
                 0    0.000217886473     5.16860468e-08     1.75565576e-05    -1.93636301e-08        0.999782111     -1.4955123e-07     -1.7556521e-05     2.37446131e-08
                   1.75565576e-05    -1.93636301e-08     0.000214443441     5.06208276e-08    -1.75565247e-05     2.37445747e-08        0.999785555    -1.47070254e-07
                      0.999782111     -1.4955123e-07    -1.75565247e-05     2.37445747e-08     0.000217886455     5.16881735e-08       1.755656e-05     -1.9362916e-08
                   -1.7556521e-05     2.37446131e-08        0.999785555    -1.47070254e-07       1.755656e-05     -1.9362916e-08     0.000214443674     5.06238974e-08

         350000000    0.000737029788       0.0030588515     9.96842319e-05       0.0012416114        0.998663053      -0.0304779372      -4.628921e-05    -6.73864194e-05
                   9.96842319e-05       0.0012416114     0.000747450197      0.00343753629    -4.60854703e-05    -6.74238312e-05        0.998661328      -0.0304835896
                      0.998663053      -0.0304779372    -4.60854703e-05    -6.74238312e-05     0.000750649911      0.00306090947     7.69005394e-05       0.0012434936
                    -4.628921e-05    -6.73864194e-05        0.998661328      -0.0304835896     7.69005394e-05       0.0012434936     0.000773859681      0.00343899418

         700000000     0.00122297328      0.00571706129     0.000269984588      0.00244023005        0.996815453      -0.0603297765    -7.85343561e-05    -0.000108266441
                   0.000269984588      0.00244023005      0.00125464063      0.00646944282    -7.77576472e-05     -0.00010846397        0.996811336      -0.0603407681
                      0.996815453      -0.0603297765    -7.77576472e-05     -0.00010846397      0.00128177848      0.00572159851     0.000180709874      0.00244928474
                  -7.85343561e-05    -0.000108266441        0.996811336      -0.0603407681     0.000180709874      0.00244928474      0.00136252385      0.00646908798

          1.05e+09     0.00175768418      0.00828994122     0.000526979784      0.00361642359        0.994170938      -0.0899754964    -0.000114416232    -0.000142924208
                   0.000526979784      0.00361642359      0.00181962205      0.00941358913    -0.000112731519    -0.000143487106        0.994161546      -0.0899921677
                      0.994170938      -0.0899754964    -0.000112731519    -0.000143487106      0.00189441685        0.008292716     0.000328622337      0.00364136877
                  -0.000114416232    -0.000142924208        0.994161546      -0.0899921677     0.000328622337      0.00364136877      0.00206429118      0.00940264797

           1.4e+09     0.00238392737       0.0108111294     0.000871738238      0.00476746728          0.9906885       -0.119456869    -0.000156375723    -0.000172901661
                   0.000871738238      0.00476746728      0.00248607384       0.0123057364    -0.000153483007    -0.000174125319        0.990671498       -0.119477968
                        0.9906885       -0.119456869    -0.000153483007    -0.000174125319      0.00263069365       0.0108044998     0.000522750629       0.0048206545
                  -0.000156375723    -0.000172901661        0.990671498       -0.119477968     0.000522750629       0.0048206545      0.00292220419       0.0122700641

          1.75e+09     0.00313294652       0.0132880031      0.00130252845      0.00588880565        0.986373449       -0.148768899    -0.000205386166    -0.000197416134
                    0.00130252845      0.00588880565      0.00327909662       0.0151509776     -0.00020101237    -0.000199692376         0.98634117       -0.148793477
                      0.986373449       -0.148768899     -0.00020101237    -0.000199692376      0.00351983527       0.0132623661     0.000762659041      0.00598612512
                  -0.000205386166    -0.000197416134         0.98634117       -0.148793477     0.000762659041      0.00598612512      0.00395994115       0.0150712678

           2.1e+09     0.00397800155       0.0157118504      0.00181825855      0.00697454808        0.981196291       -0.177897199    -0.000260529365    -0.000217014181
                    0.00181825855      0.00697454808      0.00418144381       0.0179409769    -0.000254461055    -0.000220730973        0.981148515       -0.177925955
                      0.981196291       -0.177897199    -0.000254461055    -0.000220730973      0.00453740097       0.0156502186      0.00104877981      0.00713557951
                  -0.000260529365    -0.000217014181        0.981148515       -0.177925955      0.00104877981      0.00713557951      0.00515956614       0.0177928714

          2.45e+09     0.00492086301       0.0180683097      0.00241707156      0.00801918876        0.975158349       -0.206832823    -0.000320978858    -0.000231243831
                    0.00241707156      0.00801918876      0.00520160683       0.0206710867    -0.000313248341    -0.000237083992        0.975102997       -0.206859041
                      0.975158349       -0.206832823    -0.000313248341    -0.000237083992      0.00568338149       0.0179607269      0.00138064678      0.00826660364
                  -0.000320978858    -0.000231243831        0.975102997       -0.206859041      0.00138064678      0.00826660364      0.00652721103       0.0204277497

           2.8e+09     0.00597947589         0.02037273      0.00309447532      0.00901769787        0.968283548        -0.23554186    -0.000387738427    -0.000239429658
                    0.00309447532      0.00901769787      0.00634377426       0.0233450838    -0.000378308238    -0.000247817503        0.968213165       -0.235565931
                      0.968283548        -0.23554186    -0.000378308238    -0.000247817503      0.00697304409       0.0201956973      0.00175628738      0.00937752497
                  -0.000387738427    -0.000239429658        0.968213165       -0.235565931      0.00175628738      0.00937752497      0.00806274394       0.0229713086

          3.15e+09     0.00714842239       0.0226089264      0.00384816746      0.00996516567        0.960573901       -0.264011525    -0.000459511969    -0.000240580626
                    0.00384816746      0.00996516567      0.00760600738       0.0259505734    -0.000448481141    -0.000252253441        0.960486579       -0.264031684
                      0.960573901       -0.264011525    -0.000448481141    -0.000252253441      0.00840100265       0.0223421527       0.0021752056       0.0104667744
                  -0.000459511969    -0.000240580626        0.960486579       -0.264031684       0.0021752056       0.0104667744      0.00976639517       0.0254092974

           3.5e+09     0.00842152593       0.0247764847      0.00467407026       0.0108562361        0.952032321       -0.292216255    -0.000536124354    -0.000234865595
                    0.00467407026       0.0108562361      0.00898400748       0.0284860823    -0.000523614059    -0.000250395235        0.951926228       -0.292230209
                      0.952032321       -0.292216255    -0.000523614059    -0.000250395235      0.00995889329       0.0243941649      0.00263591889       0.0115316379
                  -0.000536124354    -0.000234865595        0.951926228       -0.292230209      0.00263591889       0.0115316379       0.0116271471       0.0277356238

          3.85e+09     0.00980614112       0.0268613719      0.00556945249        0.011686426        0.942673653       -0.320142573    -0.000615450546    -0.000221191859
                    0.00556945249        0.011686426       0.0104747174       0.0309402377    -0.000602024966    -0.000241921604        0.942541462       -0.320146097
                      0.942673653       -0.320142573    -0.000602024966    -0.000241921604        0.011646381       0.0263388409      0.00313846799       0.0125701382
                  -0.000615450546    -0.000221191859        0.942541462       -0.320146097      0.00313846799       0.0125701382       0.0136425727       0.0299345154

           4.2e+09      0.0112754734       0.0288704597      0.00652825834       0.0124509439        0.932492106       -0.347753593    -0.000699178944    -0.000200228981
                    0.00652825834       0.0124509439       0.0120786732       0.0333174449    -0.000684925928    -0.000225721088        0.932343014       -0.347745394
                      0.932492106       -0.347753593    -0.000684925928    -0.000225721088       0.0134507915       0.0281780588      0.00367897159       0.0135810441
                  -0.000699178944    -0.000200228981        0.932343014       -0.347745394      0.00367897159       0.0135810441        0.015803976       0.0320068365

          4.55e+09      0.0128409366       0.0307884037      0.00754737774       0.0131448325        0.921504811       -0.375038751    -0.000784695691    -0.000171765795
                    0.00754737774       0.0131448325       0.0137862998       0.0356037932     -0.00077048128    -0.000203366522         0.92133621       -0.375014738
                      0.921504811       -0.375038751     -0.00077048128    -0.000203366522       0.0153670993       0.0298957534      0.00425756048        0.014561001
                  -0.000784695691    -0.000171765795         0.92133621       -0.375014738      0.00425756048        0.014561001       0.0181028349       0.0339361769

           4.9e+09      0.0144945041       0.0326184263      0.00862093848       0.0137646069        0.909722688       -0.401970124    -0.000872153531    -0.000135184978
                    0.00862093848       0.0137646069       0.0155950151       0.0377961404    -0.000858050322    -0.000174050163        0.909532962       -0.401929412
                      0.909722688       -0.401970124    -0.000858050322    -0.000174050163       0.0173921735       0.0314872947      0.00487256446       0.0155088003
                  -0.000872153531    -0.000135184978        0.909532962       -0.401929412      0.00487256446       0.0155088003       0.0205315727       0.0357156841

          5.25e+09      0.0162298241       0.0343449199      0.00974412004       0.0143070874        0.897151873       -0.428530037    -0.000960021124    -9.13995978e-05
                    0.00974412004       0.0143070874       0.0174992571       0.0398956969    -0.000948734678    -0.000136435206        0.896944736        -0.42846466
                      0.897151873       -0.428530037    -0.000948734678    -0.000136435206       0.0195124204       0.0329470456      0.00552092503       0.0164224399
                  -0.000960021124    -9.13995978e-05        0.896944736        -0.42846466      0.00552092503       0.0164224399       0.0230819807       0.0373368365

           5.6e+09      0.0180502254       0.0359785963       0.0109119527       0.0147687381        0.883815025       -0.454691115     -0.00104784949     -3.8638383e-05
                     0.0109119527       0.0147687381       0.0194957758       0.0418883911     -0.00103854612    -9.19613165e-05         0.88358291       -0.454602629
                      0.883815025       -0.454691115     -0.00103854612    -9.19613165e-05       0.0217302586       0.0342683181      0.00620317359       0.0173008697
                   -0.00104784949     -3.8638383e-05         0.88358291       -0.454602629      0.00620317359       0.0173008697       0.0257434555       0.0387932991

          5.95e+09      0.0199363427       0.0375029017       0.0121182968       0.0151456995        0.869712033       -0.480436153     -0.00113507755     2.15273142e-05
                     0.0121182968       0.0151456995       0.0215785583       0.0437743201     -0.00112915331    -4.02611067e-05        0.869460507       -0.480319189
                      0.869712033       -0.480436153     -0.00112915331    -4.02611067e-05       0.0240293202       0.0354453662       0.0069155265       0.0181421708
                   -0.00113507755     2.15273142e-05        0.869460507       -0.480319189       0.0069155265       0.0181421708       0.0285072566       0.0400784081

           6.3e+09      0.0218901821       0.0389187375       0.0133575303       0.0154362377         0.85486033       -0.505742863     -0.00122077686     8.87874808e-05
                     0.0133575303       0.0154362377       0.0237401335       0.0455500247     -0.00121976482     1.86729726e-05        0.854589434       -0.505593767
                       0.85486033       -0.505742863     -0.00121976482     1.86729726e-05       0.0264016502       0.0364720814      0.00765590682        0.018944173
                   -0.00122077686     8.87874808e-05        0.854589434       -0.505593767      0.00765590682        0.018944173       0.0313618512       0.0411840047

          6.65e+09      0.0239024368       0.0402220395       0.0146236625       0.0156374987         0.83927251       -0.530590146     -0.00130418455     0.000163246922
                     0.0146236625       0.0156374987       0.0259762457       0.0472102047     -0.00130928186     8.44017608e-05        0.838983945       -0.530405526
                       0.83927251       -0.530590146     -0.00130928186     8.44017608e-05       0.0288390914       0.0373444686      0.00842277759       0.0197061451
                   -0.00130418455     0.000163246922        0.838983945       -0.530405526      0.00842277759       0.0197061451       0.0342965697       0.0421056402

             7e+09      0.0259674196       0.0414106009       0.0159104721          0.0157478        0.822962749       -0.554957426      -0.0013848015     0.000244360234
                     0.0159104721          0.0157478       0.0282804697       0.0487518633     -0.00139721667     0.000156616585        0.822658226       -0.554734058
                      0.822962749       -0.554957426     -0.00139721667     0.000156616585       0.0313319623       0.0380580274      0.00921367558       0.0204264811
                    -0.0013848015     0.000244360234        0.822658226       -0.554734058      0.00921367558       0.0204264811       0.0373001748       0.0428375697

          7.35e+09      0.0280785525       0.0424818326        0.017211708       0.0157659069        0.805945656       -0.578824858      -0.0014619112     0.000331676998
                      0.017211708       0.0157659069       0.0306460132       0.0501722525     -0.00148299655     0.000234870939        0.805627231        -0.57855908
                      0.805945656       -0.578824858     -0.00148299655     0.000234870939       0.0338710484       0.0386088663       0.0100263884       0.0211037069
                    -0.0014619112     0.000331676998        0.805627231        -0.57855908       0.0100263884       0.0211037069        0.040361838       0.0433755703

           7.7e+09      0.0302297547       0.0434323148       0.0185216901       0.0156906471        0.788236155       -0.602173166     -0.00153436564      0.00042459229
                     0.0185216901       0.0156906471        0.033065345       0.0514701541     -0.00156600903     0.000318929294        0.787905889       -0.601860299
                      0.788236155       -0.602173166     -0.00156600903     0.000318929294        0.036445668       0.0389939517       0.0108585621       0.0217369961
                   -0.00153436564      0.00042459229        0.787905889       -0.601860299       0.0108585621       0.0217369961       0.0434689157       0.0437166861

          8.05e+09      0.0324126688       0.0442607653       0.0198325463         0.01552069        0.769849486       -0.624982797     -0.00160227707     0.000522428028
                     0.0198325463         0.01552069        0.035536356       0.0526345688     -0.00164695216     0.000407855984        0.769510081       -0.624621715
                      0.769849486       -0.624982797     -0.00164695216     0.000407855984       0.0390465777        0.039210896       0.0117075531       0.0223254714
                   -0.00160227707     0.000522428028        0.769510081       -0.624621715       0.0117075531       0.0223254714       0.0466084133       0.0438547908

           8.4e+09      0.0346201623       0.0449660356       0.0211388179       0.0152567547        0.750801134       -0.647234792     -0.00166535794     0.000624292008
                     0.0211388179       0.0152567547       0.0380458495       0.0536746951     -0.00172395635     0.000502004826        0.750456093       -0.646820762
                      0.750801134       -0.647234792     -0.00172395635     0.000502004826       0.0416608592       0.0392582058         0.01257099       0.0228681475
                   -0.00166535794     0.000624292008        0.750456093       -0.646820762         0.01257099       0.0228681475       0.0497685176       0.0437926268

          8.75e+09      0.0368449474       0.0455473421        0.022433907       0.0148987625         0.73110685       -0.668911625     -0.00172336225     0.000729702419
                      0.022433907       0.0148987625       0.0405923885       0.0545850171     -0.00179851427     0.000600429556        0.730762407       -0.668441242
                       0.73110685       -0.668911625     -0.00179851427     0.000600429556       0.0442774519       0.0391266015        0.013444793       0.0233644455
                   -0.00172336225     0.000729702419        0.730762407       -0.668441242        0.013444793       0.0233644455       0.0529440816       0.0435241106

           9.1e+09      0.0390807434       0.0460036335       0.0237111513       0.0144468714        0.710786349       -0.689994426     -0.00177501375     0.000837555995
                     0.0237111513       0.0144468714       0.0431609684       0.0553598961     -0.00186830679     0.000702084799        0.710442236       -0.689465094
                      0.710786349       -0.689994426     -0.00186830679     0.000702084799       0.0468916716       0.0388310201       0.0143294119       0.0238134609
                   -0.00177501375     0.000837555995        0.710442236       -0.689465094       0.0143294119       0.0238134609       0.0561087994       0.0430506436

          9.45e+09       0.041319172        0.046335195       0.0249638255       0.0139022211        0.689854977       -0.710466369     -0.00182150857     0.000947034956
                     0.0249638255       0.0139022211       0.0457515364        0.056001976     -0.00193387896     0.000806388114        0.689516337       -0.709875892
                      0.689854977       -0.710466369     -0.00193387896     0.000806388114       0.0494890311       0.0383646034       0.0152206024       0.0242147728
                   -0.00182150857     0.000947034956        0.689516337       -0.709875892       0.0152206024       0.0242147728       0.0592587895       0.0423682714

           9.8e+09       0.043552635        0.046542301        0.026185602        0.013266192        0.668330368       -0.730310093     -0.00186234704      0.00105742605
                      0.026185602        0.013266192       0.0483563888       0.0565140651     -0.00199424841     0.000911699562        0.668003216       -0.729654599
                      0.668330368       -0.730310093     -0.00199424841     0.000911699562       0.0520583994       0.0377297039       0.0161170462       0.0245674841
