! Created Thu Apr 22 14:39:56 2021
! List of port names and net name(s): example Port n = <port_name> <net_name1> <net_name2> ...
! Port 1 = P1 P3 gnd! 
! Port 2 = P2 N__0 gnd! 
! Port 3 = P3 P3 P7 
! Port 4 = P4 N__0 P8 
# hz S ri R 50
! 4 Port Network Data from data block
! freq  reS11  imS11  reS12  imS12  reS13  imS13  reS14  imS14  
!       reS21  imS21  reS22  imS22  reS23  imS23  reS24  imS24  
!       reS31  imS31  reS32  imS32  reS33  imS33  reS34  imS34  
!       reS41  imS41  reS42  imS42  reS43  imS43  reS44  imS44  
!     
                 0    0.000232127034     5.55169393e-08       1.924929e-05    -2.32043749e-08         0.99976787    -1.73303624e-07    -1.92492356e-05     2.79842674e-08
                     1.924929e-05    -2.32043749e-08     0.000228991288     6.16637367e-08    -1.92492374e-05     2.79842644e-08        0.999771005    -1.77010151e-07
                       0.99976787    -1.73303624e-07    -1.92492374e-05     2.79842644e-08     0.000232127097     5.55192484e-08     1.92493017e-05    -2.32034927e-08
                  -1.92492356e-05     2.79842674e-08        0.999771005    -1.77010151e-07     1.92493017e-05    -2.32034927e-08     0.000228991328     6.16665636e-08

         300000000     0.00070683703      0.00246850608     0.000100706411      0.00128504793        0.998633602      -0.0316359767    -4.60806882e-05    -9.72844977e-05
                   0.000100706411      0.00128504793     0.000722185645      0.00299975026    -4.58817935e-05    -9.73240186e-05        0.998638389       -0.031538178
                      0.998633602      -0.0316359767    -4.58817935e-05    -9.73240186e-05     0.000714930626      0.00247046695     8.00346252e-05      0.00128685644
                  -4.60806882e-05    -9.72844977e-05        0.998638389       -0.031538178     8.00346252e-05      0.00128685644     0.000738614544      0.00300085798

         600000000      0.0011478025      0.00455576548     0.000275887309      0.00252752234        0.996683299      -0.0626574762    -7.95888898e-05    -0.000168693609
                   0.000275887309      0.00252752234       0.0012013966      0.00561561261    -7.88344822e-05    -0.000168895129        0.996696111      -0.0624641542
                      0.996683299      -0.0626574762    -7.88344822e-05    -0.000168895129      0.00118293541      0.00455971222     0.000194967751      0.00253614716
                  -7.95888898e-05    -0.000168693609        0.996696111      -0.0624641542     0.000194967751      0.00253614716      0.00126850614      0.00561530012

         900000000     0.00161592745        0.006555292     0.000541078113      0.00374655894        0.993864183      -0.0934612135     -0.00011764261    -0.000233511803
                   0.000541078113      0.00374655894      0.00173260357      0.00814389724    -0.000116012856    -0.000234080081        0.993889609      -0.0931716095
                      0.993864183      -0.0934612135    -0.000116012856    -0.000234080081      0.00169744998      0.00655914699     0.000361425293      0.00377018952
                   -0.00011764261    -0.000233511803        0.993889609      -0.0931716095     0.000361425293      0.00377018952      0.00188452192      0.00813677826

           1.2e+09     0.00214794137      0.00850777335     0.000897224382      0.00493922769         0.99013822       -0.124086297    -0.000162581758    -0.000293562398
                   0.000897224382      0.00493922769      0.00235279706       0.0106200239    -0.000159798485    -0.000294789891        0.990180397        -0.12370479
                       0.99013822       -0.124086297    -0.000159798485    -0.000294789891       0.0022956535      0.00850686424     0.000581348803      0.00498946446
                  -0.000162581758    -0.000293562398        0.990180397        -0.12370479     0.000581348803      0.00498946446      0.00262381775       0.0105963554

           1.5e+09     0.00276275665       0.0104137606      0.00134307457       0.0061002822        0.985497978       -0.154529544    -0.000214981025    -0.000348590153
                    0.00134307457       0.0061002822      0.00307896553       0.0130488648    -0.000210826947    -0.000350835566        0.985558558       -0.154054979
                      0.985497978       -0.154529544    -0.000210826947    -0.000350835566      0.00299624759         0.01040175     0.000854688222      0.00619205753
                  -0.000214981025    -0.000348590153        0.985558558       -0.154054979     0.000854688222      0.00619205753      0.00350191927       0.0129962018

           1.8e+09     0.00346249648        0.012270111      0.00187655219      0.00722397834        0.979940393       -0.184774032     -0.00027469207    -0.000398155243
                    0.00187655219      0.00722397834      0.00391638864        0.015425598    -0.000268999592    -0.000401839769        0.980024212       -0.184205973
                      0.979940393       -0.184774032    -0.000268999592    -0.000401839769      0.00380139699          0.0122384      0.00118079365      0.00737551223
                   -0.00027469207    -0.000398155243        0.980024212       -0.184205973      0.00118079365      0.00737551223      0.00452369113       0.0153284918

           2.1e+09     0.00424831119       0.0140737499      0.00249495334      0.00830455845        0.973469331        -0.21479766    -0.000341404889    -0.000441753034
                    0.00249495334      0.00830455845      0.00486530898       0.0177449233    -0.000334070282    -0.000447375784        0.973580445       -0.214137076
                      0.973469331        -0.21479766    -0.000334070282    -0.000447375784      0.00471158521       0.0140117168      0.00155862907       0.0085372251
                  -0.000341404889    -0.000441753034        0.973580445       -0.214137076      0.00155862907       0.0085372251      0.00568848876       0.0175847382

           2.4e+09     0.00511949371       0.0158193382      0.00319517003      0.00933637248        0.966090746       -0.244578034     -0.00041463492    -0.000478854475
                    0.00319517003      0.00933637248      0.00592425729       0.0200014347    -0.000405649521    -0.000486980644        0.966232519       -0.243825307
                      0.966090746       -0.244578034    -0.000405649521    -0.000486980644      0.00572557996       0.0157146769      0.00198696321      0.00967456883
                   -0.00041463492    -0.000478854475        0.966232519       -0.243825307      0.00198696321      0.00967456883      0.00699366525       0.0197564019

           2.7e+09     0.00607360461       0.0175016447      0.00397367552       0.0103139163         0.95781135       -0.274091573    -0.000493799995     -0.00050898048
                    0.00397367552       0.0103139163      0.00709099242       0.0221893925    -0.000483242258    -0.000520225808        0.957987327       -0.273246706
                       0.95781135       -0.274091573    -0.000483242258    -0.000520225808      0.00684014904       0.0173398092      0.00246439427       0.0107848898
                  -0.000493799995     -0.00050898048        0.957987327       -0.273246706      0.00246439427       0.0107848898      0.00843530633       0.0218346844

             3e+09     0.00710628029       0.0191166594      0.00482642274       0.0112318677         0.94863901       -0.303313605    -0.000578304734     -0.00053171849
                    0.00482642274       0.0112318677      0.00836299616       0.0243033894    -0.000566270266     -0.00054664903        0.948853555       -0.302376848
                       0.94863901       -0.303313605    -0.000566270266     -0.00054664903      0.00805200632       0.0188792085      0.00298941249         0.01186565
                  -0.000578304734     -0.00053171849        0.948853555       -0.302376848      0.00298941249         0.01186565        0.010009063       0.0238102411

           3.3e+09     0.00821012388       0.0206546805      0.00574954536       0.0120841794        0.938576912       -0.332221382    -0.000667472073    -0.000547425392
                    0.00574954536       0.0120841794      0.00972935929       0.0263364597    -0.000654396635    -0.000566745589        0.938834112       -0.331190127
                      0.938576912       -0.332221382    -0.000654396635    -0.000566745589       0.0093507861       0.0203302723      0.00355959987       0.0129135709
                  -0.000667472073    -0.000547425392        0.938834112       -0.331190127      0.00355959987       0.0129135709       0.0117050378       0.0256778785

           3.6e+09     0.00938866549       0.0221189209        0.006737449       0.0128682947        0.927647267        -0.36078423    -0.000760555976     -0.00055421971
                      0.006737449       0.0128682947       0.0111987189       0.0282889757    -0.000746858898    -0.000578207677        0.927951632        -0.35965985
                      0.927647267        -0.36078423    -0.000746858898    -0.000578207677       0.0107425729       0.0216836767      0.00417391771       0.0139281973
                  -0.000760555976     -0.00055421971        0.927951632        -0.35965985      0.00417391771       0.0139281973       0.0135252775       0.0274256659

           3.9e+09      0.0106308911       0.0234996804      0.00778570198        0.013578134        0.915851573       -0.388982323    -0.000856901613    -0.000552871035
                    0.00778570198        0.013578134       0.0127565915       0.0301472476    -0.000843097603     -0.00058293113        0.916208355       -0.387764866
                      0.915851573       -0.388982323    -0.000843097603     -0.00058293113       0.0122104072       0.0229289298       0.0048295772        0.014905005
                  -0.000856901613    -0.000552871035        0.916208355       -0.387764866       0.0048295772        0.014905005       0.0154569433       0.0290457795

           4.2e+09      0.0119321612       0.0247930475       0.0088892174       0.0142096214        0.903205148       -0.416789093    -0.000955484748    -0.000543344149
                     0.0088892174       0.0142096214        0.014399492       0.0319083174    -0.000941955527    -0.000579485193        0.903617754       -0.415479382
                      0.903205148       -0.416789093    -0.000941955527    -0.000579485193        0.013753929       0.0240648782      0.00552486805       0.0158431522
                  -0.000955484748    -0.000543344149        0.903617754       -0.415479382      0.00552486805       0.0158431522       0.0174929747       0.0305313729

           4.5e+09      0.0132873193       0.0259957258        0.010042114       0.0147594671        0.889719612       -0.444180553     -0.00105555559     -0.00052512985
                      0.010042114       0.0147594671       0.0161211463       0.0335678271     -0.00104315147     -0.00056824351        0.890192706       -0.442779016
                      0.889719612       -0.444180553     -0.00104315147     -0.00056824351        0.015362963       0.0250845326      0.00625718451       0.0167401046
                   -0.00105555559     -0.00052512985        0.890192706       -0.442779016      0.00625718451       0.0167401046       0.0196256077       0.0318748792

           4.8e+09      0.0146886733       0.0271042318       0.0112387563       0.0152241114        0.875407235       -0.471132816     -0.00115639241    -0.000498366068
                     0.0112387563       0.0152241114       0.0179156432       0.0351235901     -0.00114602127    -0.000549166777        0.875946789        -0.46963761
                      0.875407235       -0.471132816     -0.00114602127    -0.000549166777       0.0170296073       0.0259819316      0.00702373437       0.0175940088
                   -0.00115639241    -0.000498366068        0.875946789        -0.46963761      0.00702373437       0.0175940088       0.0218448968       0.0330720066

           5.1e+09      0.0161303714       0.0281170862       0.0124733388       0.0156008393        0.860283084       -0.497621564     -0.00125668552    -0.000463370987
                     0.0124733388       0.0156008393        0.019776894       0.0365691972     -0.00124950314    -0.000522427168        0.860894073       -0.496034743
                      0.860283084       -0.497621564     -0.00124950314    -0.000522427168       0.0187467515       0.0267524234      0.00782253138       0.0184025164
                   -0.00125668552    -0.000463370987        0.860894073       -0.496034743      0.00782253138       0.0184025164       0.0241418348       0.0341122795

           5.4e+09      0.0176055335       0.0290298771       0.0137398179       0.0158864723        0.844359869       -0.523623233     -0.00135584393    -0.000420645246
                     0.0137398179       0.0158864723       0.0216995452       0.0379017657     -0.00135390947    -0.000487357212        0.845050239       -0.521945577
                      0.844359869       -0.523623233     -0.00135390947    -0.000487357212       0.0205014392       0.0273932761      0.00864953132       0.0191651171
                   -0.00135584393    -0.000420645246        0.845050239       -0.521945577      0.00864953132       0.0191651171       0.0265060029        0.034993263

           5.7e+09      0.0191049391       0.0298418967       0.0150308549       0.0160792576        0.827657115       -0.549115143     -0.00145353798    -0.000370088284
                     0.0150308549       0.0160792576       0.0236749962       0.0391213968     -0.00145568077    -0.000445130514        0.828430935       -0.547345945
                      0.827657115       -0.549115143     -0.00145568077    -0.000445130514       0.0222968406       0.0279008633      0.00950521737       0.0198792476
                   -0.00145353798    -0.000370088284        0.828430935       -0.547345945      0.00950521737       0.0198792476       0.0289278187       0.0357099786

             6e+09       0.020621587       0.0305520311       0.0163400654       0.0161772088        0.810185929       -0.574074653     -0.00154878579    -0.000312484868
                     0.0163400654       0.0161772088       0.0256914673       0.0402232898     -0.00155765065    -0.000395974992        0.811050169       -0.572215192
                      0.810185929       -0.574074653     -0.00155765065    -0.000395974992       0.0241111931        0.028269432       0.0103833958       0.0205435245
                   -0.00154878579    -0.000312484868        0.811050169       -0.572215192       0.0103833958       0.0205435245       0.0313971978       0.0362547732

           6.3e+09      0.0221440014       0.0311599588       0.0176605198       0.0161798533        0.791964086       -0.598478764       -0.001641331    -0.000246984974
                     0.0176605198       0.0161798533       0.0277447236       0.0412023877     -0.00165755238     -0.00034021794        0.792926541       -0.596531781
                      0.791964086       -0.598478764     -0.00165755238     -0.00034021794        0.025939333       0.0284982026       0.0112826091        0.021157262
                     -0.001641331    -0.000246984974        0.792926541       -0.596531781       0.0112826091        0.021157262       0.0339044766       0.0366281947

           6.6e+09       0.023681445       0.0316625927       0.0189876381       0.0160828899         0.77301197       -0.622309562     -0.00172832241    -0.000177834704
                     0.0189876381       0.0160828899       0.0298264277       0.0420645155     -0.00175559353    -0.000278530487        0.774077693       -0.620270637
                       0.77301197       -0.622309562     -0.00175559353    -0.000278530487       0.0277744646       0.0285844643       0.0121994794       0.0217192591
                   -0.00172832241    -0.000177834704        0.774077693       -0.620270637       0.0121994794       0.0217192591       0.0364372655       0.0368295804

           6.9e+09       0.025206814       0.0320636167       0.0203117227       0.0158900795        0.753345082       -0.645540837     -0.00181244604    -0.000101573073
                     0.0203117227       0.0158900795       0.0319291161       0.0428020091     -0.00184980787     -0.00021174154        0.754519997       -0.643415245
                      0.753345082       -0.645540837     -0.00184980787     -0.00021174154       0.0296076228       0.0285312368       0.0131315263       0.0222278688
                   -0.00181244604    -0.000101573073        0.754519997       -0.643415245       0.0131315263       0.0222278688       0.0389813499       0.0368516637

           7.2e+09      0.0267207483       0.0323636733       0.0216272717       0.0155991921        0.732978743        -0.66815539     -0.00189164977    -2.12561467e-05
                     0.0216272717       0.0155991921       0.0340449729       0.0434168502     -0.00194272502    -0.000138235458         0.73427312       -0.665944197
                      0.732978743        -0.66815539     -0.00194272502    -0.000138235458       0.0314152689       0.0283266713        0.014073306       0.0226845488
                   -0.00189164977    -2.12561467e-05         0.73427312       -0.665944197        0.014073306       0.0226845488       0.0415274632       0.0366936863

           7.5e+09      0.0282135941       0.0325714221       0.0229287452        0.015211542        0.711940187       -0.690129946     -0.00196436893     6.31124163e-05
                     0.0229287452        0.015211542       0.0361660702       0.0439091604     -0.00202964483    -6.20946011e-05        0.713356345       -0.687837786
                      0.711940187       -0.690129946     -0.00202964483    -6.20946011e-05       0.0332164876       0.0279971116       0.0150258519       0.0230854825
                   -0.00196436893     6.31124163e-05        0.713356345       -0.687837786       0.0150258519       0.0230854825       0.0440645029       0.0363548997

           7.8e+09      0.0296768026       0.0326639442       0.0242050676       0.0147289124        0.690236408       -0.711449182     -0.00203490535     0.000151470627
                     0.0242050676       0.0147289124       0.0382854207       0.0442788902     -0.00211508489     1.97386613e-05        0.691790091       -0.709077388
                      0.690236408       -0.711449182     -0.00211508489     1.97386613e-05       0.0349590365       0.0275015591       0.0159806593       0.0234339279
                   -0.00203490535     0.000151470627        0.691790091       -0.709077388       0.0159806593       0.0234339279       0.0465792124        0.035836893

           8.1e+09      0.0311137458       0.0326734347       0.0254530908       0.0141501554        0.667897214       -0.732092421     -0.00209841218     0.000240987817
                     0.0254530908       0.0141501554       0.0403916497       0.0445283021     -0.00219660289     0.000103838213        0.669591248       -0.729643209
                      0.667897214       -0.732092421     -0.00219660289     0.000103838213       0.0366654355       0.0268741302       0.0169380729       0.0237272554
                   -0.00209841218     0.000240987817        0.669591248       -0.729643209       0.0169380729       0.0237272554       0.0490604582       0.0351391466

           8.4e+09      0.0324903609       0.0325865202       0.0266651238       0.0134801122        0.644939502       -0.752040294     -0.00215686747     0.000333327304
                     0.0266651238       0.0134801122       0.0424798253       0.0446582854     -0.00227467638     0.000190031887        0.646783184       -0.749519115
                      0.644939502       -0.752040294     -0.00227467638     0.000190031887       0.0383129852       0.0261011463       0.0178935147       0.0239658974
