! Created Wed Apr 21 14:06:45 2021
! List of port names and net name(s): example Port n = <port_name> <net_name1> <net_name2> ...
! Port 1 = P1 P2 gnd! 
! Port 2 = P2 P2 P4 
# hz S ri R 50
! 2 Port Network Data from data block
! freq  reS11  imS11  reS21  imS21  reS12  imS12  reS22  imS22  
!     
                 0     0.00025195799     2.75563828e-10         0.99974804    -1.27719566e-07         0.99974804    -1.27719566e-07     0.000251958032     2.79985309e-10
         300000000     0.00066356761     0.000472195214        0.998583295      -0.0320739308        0.998583295      -0.0320739308     0.000675710278     0.000473021707
         600000000    0.000920738235     0.000562005315        0.996572896       -0.063501913        0.996572896       -0.063501913     0.000969520386     0.000560743553
         900000000     0.00107624431     0.000582339737        0.993679393      -0.0946982637        0.993679393      -0.0946982637      0.00118512338     0.000573164499
           1.2e+09     0.00117115915     0.000577125689        0.989862886       -0.125713252        0.989862886       -0.125713252      0.00136218301     0.000553017254
           1.5e+09     0.00122440926     0.000562217798        0.985112553       -0.156538381        0.985112553       -0.156538381       0.0015202426     0.000513716927
           1.8e+09     0.00124555642     0.000540827065        0.979428491       -0.187158753        0.979428491       -0.187158753      0.00166753061     0.000455879614
           2.1e+09     0.00123809254     0.000515537493        0.972813062       -0.217554106        0.972813062       -0.217554106      0.00180631217     0.000380058709
           2.4e+09     0.00119880582     0.000491514489          0.9652643       -0.247702184          0.9652643       -0.247702184      0.00193155789     0.000289315094
           2.7e+09     0.00113931652     0.000459930203        0.956802986       -0.277580496        0.956802986       -0.277580496      0.00205944892     0.000178677868
             3e+09     0.00105968694      0.00044184578         0.94742828       -0.307155107         0.94742828       -0.307155107      0.00217513816     5.32205822e-05
           3.3e+09    0.000956770679     0.000422813644        0.937150288       -0.336409435        0.937150288       -0.336409435      0.00228658139    -8.92763068e-05
           3.6e+09    0.000833982462     0.000407346977        0.925978444       -0.365317168        0.925978444       -0.365317168      0.00239005819    -0.000250842299
           3.9e+09    0.000688190759     0.000400971909        0.913921873       -0.393849144        0.913921873       -0.393849144      0.00248565057    -0.000429563956
           4.2e+09    0.000523497964     0.000399579498        0.900992995       -0.421983507        0.900992995       -0.421983507      0.00257043859    -0.000627717674
           4.5e+09    0.000339219832     0.000406481938        0.887204027       -0.449693543        0.887204027       -0.449693543      0.00264468995    -0.000844960829
           4.8e+09    0.000132535754     0.000421675337         0.87256582       -0.476954245         0.87256582       -0.476954245      0.00270587464     -0.00108086335
           5.1e+09   -9.34637276e-05     0.000448485648        0.857093909       -0.503739409        0.857093909       -0.503739409      0.00275308247     -0.00133624413
           5.4e+09   -0.000329456032     0.000483114473        0.840806062       -0.530029773        0.840806062       -0.530029773      0.00278477209     -0.00161401894
           5.7e+09   -0.000593793805     0.000528619495        0.823709744       -0.555794757        0.823709744       -0.555794757      0.00279880298     -0.00190666871
             6e+09   -0.000865050599     0.000592556138        0.805830259       -0.581011201        0.805830259       -0.581011201      0.00279435064      -0.0022153772
           6.3e+09    -0.00115931421     0.000669307578        0.787176597       -0.605658566        0.787176597       -0.605658566       0.0027695085     -0.00254552384
           6.6e+09    -0.00147136397     0.000761747097        0.767767517       -0.629712205        0.767767517       -0.629712205      0.00271844929     -0.00289289263
           6.9e+09    -0.00180234478     0.000869534145        0.747621299       -0.653150353        0.747621299       -0.653150353      0.00264296442     -0.00325662284
           7.2e+09    -0.00214402393      0.00100094272        0.726758826       -0.675948477        0.726758826       -0.675948477      0.00254084311     -0.00363518871
           7.5e+09    -0.00250447245      0.00114691976        0.705196881       -0.698089404        0.705196881       -0.698089404      0.00241073185     -0.00403104239
           7.8e+09    -0.00287986177      0.00131539758        0.682956003       -0.719549163        0.682956003       -0.719549163      0.00224961991     -0.00443955172
           8.1e+09    -0.00327000921      0.00150532195        0.660056526       -0.740307956        0.660056526       -0.740307956      0.00205626014     -0.00485934849
           8.4e+09    -0.00367281663      0.00171922166        0.636519806       -0.760345758        0.636519806       -0.760345758      0.00182905642     -0.00528921915
           8.7e+09    -0.00408775108      0.00195857935        0.612367416        -0.77964314        0.612367416        -0.77964314      0.00156640297     -0.00572736694
             9e+09    -0.00451374206      0.00222424472        0.587622064       -0.798181398        0.587622064       -0.798181398      0.00126741795     -0.00617166485
           9.3e+09    -0.00494978943      0.00251739929        0.562306288       -0.815942572        0.562306288       -0.815942572     0.000931137427     -0.00661997761
           9.6e+09    -0.00539466878      0.00283924864        0.536443064       -0.832909523        0.536443064       -0.832909523     0.000555720301     -0.00707026757
           9.9e+09    -0.00584442358      0.00318750789        0.510056967       -0.849065728        0.510056967       -0.849065728     0.000141008726     -0.00751901613
          1.02e+10    -0.00629625653      0.00357658995        0.483169946       -0.864391797        0.483169946       -0.864391797    -0.000313811039     -0.00796712947
          1.05e+10    -0.00675494468      0.00399701918        0.455807627       -0.878876626        0.455807627       -0.878876626    -0.000810327959     -0.00841014381
          1.08e+10    -0.00721376947      0.00445208524        0.427995184       -0.892504142        0.427995184       -0.892504142     -0.00134778408     -0.00884559525
          1.11e+10    -0.00767270202      0.00494093295        0.399757367       -0.905259294        0.399757367       -0.905259294     -0.00192539454     -0.00926557591
          1.14e+10    -0.00812409215      0.00546639027        0.371120167       -0.917129767        0.371120167       -0.917129767     -0.00254327926     -0.00967518651
          1.17e+10    -0.00856700568      0.00602919481        0.342108767       -0.928102267        0.342108767       -0.928102267     -0.00320030108      -0.0100683777
           1.2e+10    -0.00899776427      0.00663024568        0.312748568       -0.938164578        0.312748568       -0.938164578      -0.0038949759      -0.0104421317
          1.23e+10    -0.00941272226      0.00726963913        0.283065263       -0.947305612        0.283065263       -0.947305612     -0.00462529159      -0.0107935033
          1.26e+10    -0.00980712293      0.00794634276        0.253084609        -0.95551493        0.253084609        -0.95551493     -0.00538870655      -0.0111195414
          1.29e+10     -0.0101740834      0.00865981927        0.222832642       -0.962781906        0.222832642       -0.962781906     -0.00618197768      -0.0114176367
          1.32e+10     -0.0105084201      0.00940868597        0.192332931       -0.969097037        0.192332931       -0.969097037     -0.00700049953      -0.0116856229
          1.35e+10      -0.010802872       0.0101910384        0.161609809        -0.97445073        0.161609809        -0.97445073     -0.00783725258      -0.0119221924
          1.38e+10     -0.0110481633       0.0110034722        0.130686609       -0.978832474        0.130686609       -0.978832474     -0.00868357534      -0.0121231075
          1.41e+10     -0.0112332449       0.0118406966       0.0995832843       -0.982232533       0.0995832843       -0.982232533     -0.00953182664      -0.0122868981
          1.44e+10     -0.0113445127       0.0126948181       0.0683179994       -0.984640849       0.0683179994       -0.984640849      -0.0103684879      -0.0124145814
          1.47e+10     -0.0113646352       0.0135539137       0.0369051328        -0.98604514       0.0369051328        -0.98604514      -0.0111742597      -0.0125075457
           1.5e+10     -0.0112697189       0.0144008626      0.00535077478       -0.986430431      0.00535077478       -0.986430431      -0.0119285158      -0.0125723645
          1.53e+10     -0.0110311774       0.0152083828      -0.0263455194       -0.985772594      -0.0263455194       -0.985772594      -0.0125914004      -0.0126162878
          1.56e+10      -0.010600006       0.0159325294      -0.0581989902       -0.984036705      -0.0581989902       -0.984036705      -0.0131020706      -0.0126529142
          1.59e+10     -0.0099157462       0.0164879109      -0.0902585236       -0.981167563      -0.0902585236       -0.981167563      -0.0133838701      -0.0127222401
          1.62e+10    -0.00887239996       0.0167460625       -0.122614945       -0.977051176       -0.122614945       -0.977051176      -0.0132924348      -0.0128990111
          1.65e+10    -0.00730788172       0.0164191905       -0.155448508       -0.971458392       -0.155448508       -0.971458392      -0.0125724526      -0.0133502329
          1.68e+10    -0.00496641767       0.0148555445       -0.189107932       -0.963834534       -0.189107932       -0.963834534      -0.0107540566      -0.0145196171
          1.71e+10    -0.00159941728       0.0102775608       -0.224178129       -0.952565239       -0.224178129       -0.952565239     -0.00689314301      -0.0177890051
          1.74e+10     0.00101802403     -0.00310918006       -0.260218498       -0.931807483       -0.260218498       -0.931807483    -0.000106565063      -0.0287499017
          1.77e+10     -0.0242985683      -0.0319693131       -0.273052949       -0.889387831       -0.273052949       -0.889387831      -0.0104691989      -0.0641154342
           1.8e+10     -0.0652165136      0.00734638989       -0.256062822       -0.906727844       -0.256062822       -0.906727844      -0.0618873151      -0.0486825829
          1.83e+10     -0.0498250098       0.0323011071       -0.294851373       -0.921786783       -0.294851373       -0.921786783      -0.0602630046      -0.0222254777
          1.86e+10     -0.0393400031       0.0384262912       -0.332737308       -0.917050996       -0.332737308       -0.917050996      -0.0551030821      -0.0135564664
          1.89e+10     -0.0334781573       0.0411356809        -0.36660197       -0.907104017        -0.36660197       -0.907104017      -0.0524840375     -0.00962350352
          1.92e+10     -0.0297395248       0.0431252216       -0.398178271       -0.895032903       -0.398178271       -0.895032903      -0.0514157695     -0.00714673464
          1.95e+10     -0.0270497875       0.0449684768       -0.428324023       -0.881618911       -0.428324023       -0.881618911       -0.051229053     -0.00520186217
          1.98e+10     -0.0249134188       0.0468140763       -0.457435948       -0.867123934       -0.457435948       -0.867123934      -0.0515745549     -0.00345493974
          2.01e+10     -0.0230750767       0.0487054641       -0.485714693       -0.851653755       -0.485714693       -0.851653755      -0.0522592551     -0.00176431206
          2.04e+10     -0.0214053639       0.0506580085       -0.513259966       -0.835261582       -0.513259966       -0.835261582      -0.0531722741    -5.99749521e-05
          2.07e+10     -0.0198109429       0.0526716103       -0.540118679       -0.817974094       -0.540118679       -0.817974094      -0.0542460285      0.00170093876
           2.1e+10      -0.018241117       0.0547481557       -0.566318152       -0.799810111       -0.566318152       -0.799810111      -0.0554363739      0.00354476664
          2.13e+10     -0.0166625768       0.0568874379       -0.591865158       -0.780782674       -0.591865158       -0.780782674      -0.0567159356      0.00549493794
          2.16e+10     -0.0150512764       0.0591022144       -0.616762836       -0.760893899       -0.616762836       -0.760893899      -0.0580681373      0.00757418272
          2.19e+10     -0.0133893146       0.0614009642       -0.641009151       -0.740141757       -0.641009151       -0.740141757      -0.0594843188      0.00981030827
          2.22e+10     -0.0116744622       0.0638159754       -0.664602888       -0.718507602       -0.664602888       -0.718507602      -0.0609679527       0.0122509085
          2.25e+10    -0.00990243557        0.066404461       -0.687543479       -0.695940966       -0.687543479       -0.695940966      -0.0625317259       0.0149639985
          2.28e+10    -0.00807466599       0.0692852315       -0.709840859       -0.672333561       -0.709840859       -0.672333561      -0.0642049429       0.0180861976
          2.31e+10    -0.00619066256       0.0727133367       -0.731507134       -0.647420304       -0.731507134       -0.647420304      -0.0660396325       0.0219211774
          2.34e+10    -0.00416120211       0.0773865897       -0.752503137       -0.620466457       -0.752503137       -0.620466457      -0.0680823649       0.0272738389
          2.37e+10   -0.000980202357       0.0857128153       -0.771981642       -0.588823937       -0.771981642       -0.588823937      -0.0697068361       0.0370615998
           2.4e+10      0.0204955739        0.103311277       -0.772240933       -0.544864735       -0.772240933       -0.544864735      -0.0528391367       0.0611495835
          2.43e+10      0.0308143965       0.0631072286       -0.778057069       -0.562820196       -0.778057069       -0.562820196      -0.0366143151       0.0181733237
          2.46e+10      0.0180576271        0.066491606       -0.811984567        -0.53600897       -0.811984567        -0.53600897       -0.055440968       0.0194397255
          2.49e+10      0.0170098409       0.0709956024       -0.832857427       -0.506224026       -0.832857427       -0.506224026      -0.0614635927       0.0245220952
          2.52e+10      0.0184912289       0.0743885385       -0.850198451       -0.476748068       -0.850198451       -0.476748068      -0.0645008392       0.0290131242
          2.55e+10       0.020912559       0.0772713642       -0.865723411        -0.44710741       -0.865723411        -0.44710741      -0.0664187074       0.0332542278
          2.58e+10      0.0238603296       0.0800312535       -0.879853273       -0.416949372       -0.879853273       -0.416949372      -0.0676751479       0.0375603293
          2.61e+10      0.0272724715       0.0830876876       -0.892561057       -0.385890829       -0.892561057       -0.385890829       -0.068201588       0.0422358722
          2.64e+10      0.0317324884       0.0873006715       -0.902984193       -0.353334454       -0.902984193       -0.353334454      -0.0670069649       0.0474849472
          2.67e+10      0.0417825551       0.0917778288       -0.907199183       -0.322045887       -0.907199183       -0.322045887      -0.0616603922       0.0489333174
           2.7e+10      0.0481529279       0.0880959741       -0.918285079       -0.295768616       -0.918285079       -0.295768616      -0.0669539711       0.0490114115
          2.73e+10      0.0602850899       0.0974536206       -0.917754452       -0.255266935       -0.917754452       -0.255266935      -0.0561658706       0.0608723504
          2.76e+10      0.0703381905       0.0711284977       -0.927516471        -0.25106376       -0.927516471        -0.25106376      -0.0676895601       0.0353515356
          2.79e+10      0.0707671244       0.0715748917       -0.940532765       -0.210616017       -0.940532765       -0.210616017      -0.0789213515       0.0507384797
          2.82e+10      0.0798559117       0.0584789052       -0.935485584       -0.175017077       -0.935485584       -0.175017077      -0.0787200136       0.0675033351
          2.85e+10      0.0581350836       0.0434679685       -0.935344404       -0.164586432       -0.935344404       -0.164586432      -0.0615015729       0.0716133517
          2.88e+10      0.0507580607       0.0593853958       -0.953869804       -0.136894308       -0.953869804       -0.136894308      -0.0617986063       0.0644507845
          2.91e+10      0.0559747485       0.0668417471       -0.962383169        -0.10219327       -0.962383169        -0.10219327      -0.0651471749        0.065196149
          2.94e+10      0.0618759713        0.069642896       -0.966502085      -0.0682264594       -0.966502085      -0.0682264594       -0.067123196       0.0680502911
          2.97e+10      0.0674830568         0.07053794        -0.96847233      -0.0350059935        -0.96847233      -0.0350059935      -0.0682408468       0.0714394411
             3e+10      0.0728432038        0.070433046       -0.968946183     -0.00226233397       -0.968946183     -0.00226233397      -0.0688548957       0.0750002356
