! Created Thu Apr 22 16:07:59 2021
! List of port names and net name(s): example Port n = <port_name> <net_name1> <net_name2> ...
! Port 1 = P1 P3 gnd! 
! Port 2 = P2 N__0 gnd! 
! Port 3 = P3 P3 P7 
! Port 4 = P4 N__0 P8 
# hz S ri R 50
! 4 Port Network Data from data block
! freq  reS11  imS11  reS12  imS12  reS13  imS13  reS14  imS14  
!       reS21  imS21  reS22  imS22  reS23  imS23  reS24  imS24  
!       reS31  imS31  reS32  imS32  reS33  imS33  reS34  imS34  
!       reS41  imS41  reS42  imS42  reS43  imS43  reS44  imS44  
!     
                 0    0.000217376159     5.23405847e-08     1.75441109e-05    -1.94954056e-08        0.999782623    -1.48785133e-07    -1.75440832e-05     2.38033201e-08
                   1.75441109e-05    -1.94954056e-08     0.000215518546     5.39862742e-08    -1.75440843e-05     2.38033528e-08         0.99978448    -1.49985869e-07
                      0.999782623    -1.48785133e-07    -1.75440843e-05     2.38033528e-08     0.000217375991     5.23432169e-08     1.75441119e-05    -1.94946731e-08
                  -1.75440832e-05     2.38033201e-08         0.99978448    -1.49985869e-07     1.75441119e-05    -1.94946731e-08      0.00021551847     5.39899677e-08

         300000000    0.000667720981      0.00258605867     8.17962699e-05      0.00106288731        0.998871807      -0.0260364673    -4.16427376e-05    -6.35938785e-05
                   8.17962699e-05      0.00106288731     0.000674396762      0.00297301023    -4.14372668e-05    -6.36210635e-05        0.998865466      -0.0261688319
                      0.998871807      -0.0260364673    -4.14372668e-05    -6.36210635e-05     0.000672094335      0.00258809161     6.50254422e-05      0.00106425057
                  -4.16427376e-05    -6.35938785e-05        0.998865466      -0.0261688319     6.50254422e-05      0.00106425057     0.000691816571      0.00297438114

         600000000     0.00108587474      0.00481164627     0.000211446591      0.00208958648        0.997440863       -0.051530903    -6.92653437e-05    -0.000103477052
                   0.000211446591      0.00208958648      0.00110634711      0.00558423715    -6.84683621e-05    -0.000103638405        0.997420325      -0.0517920385
                      0.997440863       -0.051530903    -6.84683621e-05    -0.000103638405      0.00110610338      0.00481714391     0.000145739236      0.00209584436
                  -6.92653437e-05    -0.000103477052        0.997420325      -0.0517920385     0.000145739236      0.00209584436      0.00117770971       0.0055851951

         900000000     0.00152414334       0.0069561595     0.000403630496      0.00309958397        0.995444516      -0.0768497085     -9.8658095e-05    -0.000137791924
                   0.000403630496      0.00309958397      0.00156760263      0.00811275602    -9.69182118e-05    -0.000138270485        0.995403698      -0.0772390135
                      0.995444516      -0.0768497085    -9.69182118e-05    -0.000138270485       0.0015731048      0.00696497211     0.000257586541      0.00311635329
                   -9.8658095e-05    -0.000137791924        0.995403698      -0.0772390135     0.000257586541      0.00311635329      0.00172951902      0.00810858129

           1.2e+09     0.00203570475      0.00906746396     0.000659299951      0.00409259297         0.99286229       -0.102039128    -0.000132698917    -0.000168437539
                   0.000659299951      0.00409259297       0.0021091039        0.010606737     -0.00012968307    -0.000169481117        0.992792717       -0.102556139
                       0.99286229       -0.102039128     -0.00012968307    -0.000169481117      0.00212605077      0.00907720874     0.000402159889       0.0041277277
                  -0.000132698917    -0.000168437539        0.992792717       -0.102556139     0.000402159889       0.0041277277      0.00239788194       0.0105900183

           1.5e+09     0.00260972935       0.0111333372     0.000979230901      0.00506598046        0.989654911        -0.12711658    -0.000171127523    -0.000195609642
                   0.000979230901      0.00506598046      0.00272103911        0.013055726    -0.000166558707    -0.000197568363        0.989548933       -0.127758539
                      0.989654911        -0.12711658    -0.000166558707    -0.000197568363      0.00275415155       0.0111414517     0.000580895145      0.00512964627
                  -0.000171127523    -0.000195609642        0.989548933       -0.127758539     0.000580895145      0.00512964627      0.00317292247       0.0130150843

           1.8e+09     0.00326322059       0.0131623909      0.00136206311      0.00601642749        0.985830329       -0.152069499    -0.000214404384    -0.000219119906
                    0.00136206311      0.00601642749      0.00342019806        0.015466677    -0.000208056962    -0.000222396526         0.98567983       -0.152834947
                      0.985830329       -0.152069499    -0.000208056962    -0.000222396526      0.00347440986       0.0131648917      0.00079329759      0.00612099714
                  -0.000214404384    -0.000219119906         0.98567983       -0.152834947      0.00079329759      0.00612099714      0.00407014993       0.0153884753

           2.1e+09     0.00399802491        0.015152653      0.00180652375       0.0069405588        0.981388483       -0.176888705     -0.00026241678    -0.000238757749
                    0.00180652375       0.0069405588      0.00420799189       0.0178382535    -0.000254119342     -0.00024381719        0.981185004       -0.177775006
                      0.981388483       -0.176888705    -0.000254119342     -0.00024381719      0.00428853949        0.015144525      0.00103904846      0.00710058044
                   -0.00026241678    -0.000238757749        0.981185004       -0.177775006      0.00103904846      0.00710058044      0.00509025071        0.017706337

           2.4e+09     0.00481458286       0.0171016285      0.00231104922      0.00783499111        0.976330986       -0.201563108    -0.000315000351    -0.000254257954
                    0.00231104922      0.00783499111      0.00508520261       0.0201685376    -0.000304648925    -0.000261630096        0.976066579       -0.202566628
                      0.976330986       -0.201563108    -0.000304648925    -0.000261630096      0.00519678667       0.0170768143      0.00131767052      0.00806713693
                  -0.000315000351    -0.000254257954        0.976066579       -0.202566628      0.00131767052      0.00806713693      0.00623318817       0.0199639934

           2.7e+09     0.00571253421       0.0190064304      0.00287386049      0.00869640785        0.970660442       -0.226080499    -0.000371911178    -0.000265311246
                    0.00287386049      0.00869640785      0.00605213181       0.0224545579    -0.000359486302    -0.000275576096        0.970327857       -0.227197325
                      0.970660442       -0.226080499    -0.000359486302    -0.000275576096      0.00619854296       0.0189578014      0.00162860945      0.00901939816
                  -0.000371911178    -0.000265311246        0.970327857       -0.227197325      0.00162860945      0.00901939816      0.00749800618       0.0221556603

             3e+09     0.00668792312       0.0208654419      0.00349282344      0.00952112804        0.964377308       -0.250427223    -0.000432939256    -0.000271839046
                    0.00349282344      0.00952112804       0.0071052141       0.0246938968    -0.000418534111    -0.000285604636        0.963969128       -0.251654046
                      0.964377308       -0.250427223    -0.000418534111    -0.000285604636      0.00729020857       0.0207841865      0.00197110488      0.00995566785
                  -0.000432939256    -0.000271839046        0.963969128       -0.251654046      0.00197110488      0.00995566785      0.00887983875         0.02427631

           3.3e+09     0.00774535054        0.022670715      0.00416620401       0.0103068522        0.957491206       -0.274592696    -0.000497431425    -0.000273077317
                    0.00416620401       0.0103068522      0.00824925848       0.0268807885    -0.000481183924    -0.000290985981        0.957001507       -0.275923233
                      0.957491206       -0.274592696    -0.000481183924    -0.000290985981      0.00847496608       0.0225489481      0.00234480677       0.0108755288
                  -0.000497431425    -0.000273077317        0.957001507       -0.275923233      0.00234480677       0.0108755288       0.0103818084       0.0263180534

           3.6e+09     0.00888260427       0.0244224785        0.004891418       0.0110502102        0.950004763       -0.298561184    -0.000565147613    -0.000268936058
                      0.004891418       0.0110502102      0.00947829644       0.0290124716    -0.000547367848    -0.000291919078        0.949424808       -0.299991258
                      0.950004763       -0.298561184    -0.000547367848    -0.000291919078      0.00974726627       0.0242496216      0.00274873656       0.0117770431
                  -0.000565147613    -0.000268936058        0.949424808       -0.299991258      0.00274873656       0.0117770431       0.0119961558        0.028275398

           3.9e+09      0.0100858768       0.0261199293      0.00566554524       0.0117472101        0.941917232       -0.322315895    -0.000636155837    -0.000260197823
                    0.00566554524       0.0117472101       0.0107906734       0.0310844072    -0.000616872987    -0.000288244868        0.941244225       -0.323844744
                      0.941917232       -0.322315895    -0.000616872987    -0.000288244868       0.0111043875       0.0258830673      0.00318187224        0.012658921
                  -0.000636155837    -0.000260197823        0.941244225       -0.323844744      0.00318187224        0.012658921       0.0137189661       0.0301422241

           4.2e+09      0.0113658509        0.027752514      0.00648629634       0.0123962965        0.933239648       -0.345850015    -0.000709423887    -0.000245229184
                    0.00648629634       0.0123962965        0.012183236       0.0330962697     -0.00068943763    -0.000279684568        0.932465767       -0.347466696
                      0.933239648       -0.345850015     -0.00068943763    -0.000279684568       0.0125432403       0.0274418602      0.00364334575       0.0135201698
                  -0.000709423887    -0.000245229184        0.932465767       -0.347466696      0.00364334575       0.0135201698       0.0155470352       0.0319158389

           4.5e+09      0.0127145633       0.0293209458         0.00735081       0.0129943145        0.923976421       -0.369144973     -0.00078455646    -0.000224937829
                       0.00735081       0.0129943145       0.0136556181       0.0350424755     -0.00076444582    -0.000265954388        0.923096617       -0.370845397
                      0.923976421       -0.369144973     -0.00076444582    -0.000265954388       0.0140615638       0.0289238295      0.00413245489       0.0143594191
                   -0.00078455646    -0.000224937829        0.923096617       -0.370845397      0.00413245489       0.0143594191       0.0174758871       0.0335871213

           4.8e+09      0.0141301134       0.0308224019      0.00825593594       0.0135386969        0.914133876       -0.392188516    -0.000861199012    -0.000198833153
                    0.00825593594       0.0135386969       0.0152030596       0.0369189204    -0.000841540001    -0.000247110117        0.913141393       -0.393967205
                      0.914133876       -0.392188516    -0.000841540001    -0.000247110117       0.0156557003       0.0303243915      0.00464809025       0.0151755231
                  -0.000861199012    -0.000198833153        0.913141393       -0.393967205      0.00464809025       0.0151755231          0.0194995        0.035151724

           5.1e+09       0.015604258       0.0322513208      0.00919840857       0.0140268193        0.903715582       -0.414967303    -0.000938995688    -0.000167247216
                    0.00919840857       0.0140268193       0.0168235962       0.0387241714    -0.000920391719    -0.000222915477        0.902608271       -0.416816704
                      0.903715582       -0.414967303    -0.000920391719    -0.000222915477       0.0173212363       0.0316395764       0.0051891358        0.015967466
                  -0.000938995688    -0.000167247216        0.902608271       -0.416816704       0.0051891358        0.015967466        0.021613654       0.0366056432

           5.4e+09      0.0171517961       0.0336102705       0.0101762815       0.0144580991        0.892737936        -0.43746697     -0.00101636209    -0.000128409247
                     0.0101762815       0.0144580991       0.0185153227       0.0404532402     -0.00100004505    -0.000193424187        0.891505037        -0.43938094
                      0.892737936        -0.43746697     -0.00100004505    -0.000193424187       0.0190545264       0.0328660472      0.00575468973       0.0167343523
                   -0.00101636209    -0.000128409247        0.891505037        -0.43938094      0.00575468973       0.0167343523       0.0238134893        0.037944376

           5.7e+09      0.0187472224        0.034892092       0.0111841827        0.014828518         0.88119663       -0.459673834     -0.00109436545    -8.46521421e-05
                     0.0111841827        0.014828518       0.0202722052       0.0421049426     -0.00108115366    -0.000158797786        0.879837424       -0.461645748
                       0.88119663       -0.459673834     -0.00108115366    -0.000158797786       0.0208501338       0.0339996603      0.00634301707       0.0174746128
                   -0.00109436545    -8.46521421e-05        0.879837424       -0.461645748      0.00634301707       0.0174746128       0.0260908254       0.0391621845

             6e+09      0.0203950109        0.036094666        0.012219153       0.0151371865        0.869103508       -0.481575317     -0.00117185953    -3.53306864e-05
                      0.012219153       0.0151371865       0.0220907805       0.0436761357     -0.00116295695    -0.000118712184        0.867613861       -0.483597664
                      0.869103508       -0.481575317     -0.00116295695    -0.000118712184       0.0227042317       0.0350374935      0.00695328987       0.0181874656
                   -0.00117185953    -3.53306864e-05        0.867613861       -0.483597664      0.00695328987       0.0181874656       0.0284405643       0.0402552355

           6.3e+09      0.0220999382       0.0372150748       0.0132785982         0.01538262        0.856469779       -0.503159494     -0.00124754968     1.99503568e-05
                     0.0132785982         0.01538262       0.0239685908       0.0451635554     -0.00124490154    -7.33396679e-05        0.854842792       -0.505223482
                      0.856469779       -0.503159494     -0.00124490154    -7.33396679e-05       0.0246112203       0.0359766792      0.00758415502       0.0188723173
                   -0.00124754968     1.99503568e-05        0.854842792       -0.505223482      0.00758415502       0.0188723173       0.0308562459       0.0412202787

           6.6e+09       0.023834492       0.0382529857       0.0143566986       0.0155623826        0.843293925       -0.524409993     -0.00132322373     7.97821643e-05
                     0.0143566986       0.0155623826       0.0259010099       0.0465654047     -0.00132683628    -2.29821429e-05        0.841532706       -0.526510272
                      0.843293925       -0.524409993     -0.00132683628    -2.29821429e-05       0.0265674146       0.0368137623      0.00823399265       0.0195277372
                   -0.00132322373     7.97821643e-05        0.841532706       -0.526510272      0.00823399265       0.0195277372        0.033330804       0.0420526381

           6.9e+09      0.0256170937       0.0392053491       0.0154515087       0.0156763909        0.829594224       -0.545317389     -0.00139638117     0.000145167996
                     0.0154515087       0.0156763909       0.0278845129       0.0478788617     -0.00140793084     3.21407125e-05        0.827692435       -0.547444913
                      0.829594224       -0.545317389     -0.00140793084     3.21407125e-05       0.0285673711       0.0375462383      0.00890200554       0.0201531088
                   -0.00139638117     0.000145167996        0.827692435       -0.547444913      0.00890200554       0.0201531088       0.0358574934       0.0427501006

           7.2e+09       0.027433976       0.0400745201       0.0165581222       0.0157233691        0.815375792       -0.565866206     -0.00146750027     0.000215363478
                     0.0165581222       0.0157233691       0.0299148654       0.0491023489     -0.00148812924     9.19795069e-05        0.813331473       -0.568014892
                      0.815375792       -0.565866206     -0.00148812924     9.19795069e-05       0.0306060217       0.0381716592      0.00958661167       0.0207474746
                   -0.00146750027     0.000215363478        0.813331473       -0.568014892      0.00958661167       0.0207474746       0.0384300684       0.0433093971

           7.5e+09      0.0292819825       0.0408534587       0.0176731801       0.0157023747        0.800647291       -0.586046477     -0.00153596213     0.000289711978
                     0.0176731801       0.0157023747       0.0319873269       0.0502343579     -0.00156713423      0.00015648252        0.798459216       -0.588207817
                      0.800647291       -0.586046477     -0.00156713423      0.00015648252       0.0326774423       0.0386880775       0.0102860568       0.0213101902
                   -0.00153596213     0.000289711978        0.798459216       -0.588207817       0.0102860568       0.0213101902       0.0410410413        0.043727266

           7.8e+09      0.0311556812       0.0415427871       0.0187917702       0.0156122929        0.785418079       -0.605845081     -0.00160100481     0.000367882814
                     0.0187917702       0.0156122929       0.0340992847       0.0512705798     -0.00164505272     0.000224901921          0.7830852       -0.608011198
                      0.785418079       -0.605845081     -0.00164505272     0.000224901921       0.0347763895       0.0390937239       0.0109997601        0.021840496
                   -0.00160100481     0.000367882814          0.7830852       -0.608011198       0.0109997601        0.021840496       0.0436834955       0.0440049238

           8.1e+09      0.0330540824       0.0421400599       0.0199111673       0.0154537849         0.76969859       -0.625251366      -0.0016634768     0.000449175415
                     0.0199111673       0.0154537849       0.0362443692         0.05221299     -0.00172138946     0.000297770806        0.767219726        -0.62741385
                       0.76969859       -0.625251366     -0.00172138946     0.000297770806       0.0368967174       0.0393863641       0.0117239891       0.0223376525
                    -0.0016634768     0.000449175415        0.767219726        -0.62741385       0.0117239891       0.0223376525       0.0463520559       0.0441354374

           8.4e+09      0.0349706768       0.0426460297       0.0210267652       0.0152262602        0.753498401       -0.644252754     -0.00172226186     0.000535114192
                     0.0210267652       0.0152262602       0.0384189733       0.0530590515     -0.00179572962     0.000374302649        0.750872281       -0.646403274
                      0.753498401       -0.644252754     -0.00179572962     0.000374302649       0.0390332696       0.0395652197        0.012458899       0.0228027226
