! Created Wed Apr 21 13:18:40 2021
! List of port names and net name(s): example Port n = <port_name> <net_name1> <net_name2> ...
! Port 1 = P1 P2 gnd! 
! Port 2 = P2 P2 P4 
# hz S ri R 50
! 2 Port Network Data from data block
! freq  reS11  imS11  reS21  imS21  reS12  imS12  reS22  imS22  
!     
                 0    0.000234451277     2.29585377e-09        0.999765542    -1.07726965e-07        0.999765542    -1.07726965e-07     0.000234451355      2.3002196e-09
         300000000    0.000645042472     0.000876163723        0.998828307      -0.0265004809        0.998828307      -0.0265004809     0.000639977858     0.000877970588
         600000000    0.000954232557      0.00138807191        0.997345998      -0.0524320497        0.997345998      -0.0524320497      0.00093554123      0.00139293376
         900000000     0.00120547893      0.00182417268        0.995286664      -0.0781784235        0.995286664      -0.0781784235      0.00116463685      0.00183371819
           1.2e+09     0.00143868271      0.00222966285        0.992613283       -0.103795658        0.992613283       -0.103795658      0.00136737844      0.00224588905
           1.5e+09     0.00167076334      0.00261390233        0.989311384       -0.129289852        0.989311384       -0.129289852      0.00156065352      0.00263937936
           1.8e+09     0.00191990624      0.00298380539        0.985387915       -0.154654554        0.985387915       -0.154654554      0.00176214345      0.00302207059
           2.1e+09     0.00216724779      0.00333274846        0.980821295       -0.179883489        0.980821295       -0.179883489      0.00195429837      0.00338747803
           2.4e+09     0.00242496754      0.00366551288        0.975623066       -0.204963999        0.975623066       -0.204963999      0.00214918132      0.00374124394
           2.7e+09     0.00269404766      0.00398208016        0.969795402       -0.229884113        0.969795402       -0.229884113      0.00234793664      0.00408405492
             3e+09     0.00297596626       0.0042833817        0.963342266       -0.254630176        0.963342266       -0.254630176      0.00255232132      0.00441676853
           3.3e+09     0.00326835162      0.00456918261        0.956265143       -0.279187891        0.956265143       -0.279187891      0.00276146912      0.00474076925
           3.6e+09     0.00357320635      0.00483579935        0.948569201       -0.303546881        0.948569201       -0.303546881      0.00297614211      0.00505296537
           3.9e+09     0.00389176622        0.005088708        0.940260798       -0.327689128        0.940260798       -0.327689128      0.00319800531      0.00535468538
           4.2e+09     0.00422093898      0.00532180059        0.931343572       -0.351601605        0.931343572       -0.351601605      0.00342718989      0.00564942792
           4.5e+09     0.00456125964      0.00553678527        0.921821668       -0.375271184        0.921821668       -0.375271184      0.00366052904      0.00593310272
           4.8e+09     0.00491342319      0.00573065231        0.911704637       -0.398685138        0.911704637       -0.398685138      0.00390335111      0.00620382948
           5.1e+09     0.00527464914      0.00590666107        0.900995255       -0.421825999        0.900995255       -0.421825999      0.00415105637      0.00646496041
           5.4e+09     0.00564615102      0.00606240297        0.889701941       -0.444680921        0.889701941       -0.444680921      0.00440489231      0.00671555492
           5.7e+09     0.00602614021      0.00619603949        0.877831216       -0.467236759        0.877831216       -0.467236759      0.00466485579      0.00695496648
             6e+09     0.00641378908      0.00630823582        0.865390225       -0.489479335        0.865390225       -0.489479335      0.00493025964      0.00718244241
           6.3e+09     0.00680739192      0.00639952823        0.852386387       -0.511394109        0.852386387       -0.511394109       0.0052008934        0.007398093
           6.6e+09     0.00720546718      0.00646956021        0.838827517       -0.532967148        0.838827517       -0.532967148      0.00547637992      0.00760217519
           6.9e+09     0.00760825931       0.0065196065        0.824722687       -0.554184487        0.824722687       -0.554184487      0.00575622938      0.00779428923
           7.2e+09      0.0080219854      0.00654357804        0.810082985       -0.575036359        0.810082985       -0.575036359      0.00603956711      0.00797420966
           7.5e+09      0.0084283114      0.00653872567        0.794909565       -0.595508283        0.794909565       -0.595508283      0.00632673416      0.00814298454
           7.8e+09     0.00883409066      0.00651536653        0.779216134       -0.615585544        0.779216134       -0.615585544      0.00661675897      0.00829463043
           8.1e+09     0.00923912837      0.00646818021        0.763012922        -0.63525421        0.763012922        -0.63525421      0.00691034066      0.00843957067
           8.4e+09     0.00964386307      0.00639777156        0.746309747       -0.654504456        0.746309747       -0.654504456       0.0072053759      0.00857027111
           8.7e+09       0.010050053      0.00630711444        0.729118457       -0.673322156        0.729118457       -0.673322156      0.00750261186      0.00868744834
             9e+09      0.0104483762      0.00619312814        0.711445876       -0.691695489        0.711445876       -0.691695489      0.00780133454      0.00879256648
           9.3e+09      0.0108421001      0.00605565148        0.693304458       -0.709613231        0.693304458       -0.709613231      0.00810104491      0.00888548309
           9.6e+09      0.0112293845      0.00589579641        0.674704972       -0.727063331        0.674704972       -0.727063331      0.00840154796      0.00896648097
           9.9e+09      0.0116092366       0.0057134677        0.655658431       -0.744034611        0.655658431       -0.744034611      0.00870537128      0.00903497727
          1.02e+10      0.0119811664      0.00550921743        0.636176653        -0.76051542        0.636176653        -0.76051542      0.00900666993      0.00908664193
          1.05e+10      0.0123442158      0.00528390927        0.616271928       -0.776494599        0.616271928       -0.776494599      0.00930240786      0.00912584762
          1.08e+10       0.012697908      0.00503839354        0.595956407       -0.791963204        0.595956407       -0.791963204      0.00960388413      0.00916150164
          1.11e+10      0.0130393377      0.00477371417        0.575240038       -0.806907457        0.575240038       -0.806907457      0.00990287187      0.00917997453
          1.14e+10      0.0133694024       0.0044890677        0.554137345       -0.821320034        0.554137345       -0.821320034       0.0102018653      0.00918736164
          1.17e+10      0.0136886858      0.00418607957        0.532660628       -0.835190225        0.532660628       -0.835190225       0.0105002918      0.00918319104
           1.2e+10      0.0139945853      0.00386672911        0.510822129       -0.848507684        0.510822129       -0.848507684       0.0107985382      0.00916732799
          1.23e+10      0.0142856323      0.00352859712        0.488634828       -0.861264982        0.488634828       -0.861264982       0.0110907689      0.00914449824
          1.26e+10      0.0145649872      0.00317487637        0.466111836       -0.873450961        0.466111836       -0.873450961       0.0113865714      0.00910763029
          1.29e+10      0.0148317061      0.00280584404        0.443266648       -0.885057804        0.443266648       -0.885057804       0.0116823625      0.00906106823
          1.32e+10      0.0150856679      0.00242266532         0.42011218       -0.896076607         0.42011218       -0.896076607        0.011978967      0.00900490442
          1.35e+10      0.0153269426      0.00202535893        0.396661113       -0.906499653        0.396661113       -0.906499653       0.0122773912      0.00893972972
          1.38e+10      0.0155563173      0.00161474511        0.372927339       -0.916317512        0.372927339       -0.916317512       0.0125761775      0.00886582267
          1.41e+10      0.0157760455       0.0011906108        0.348923132       -0.925524699        0.348923132       -0.925524699       0.0128802915      0.00878304456
          1.44e+10      0.0159867586     0.000753984142         0.32466133       -0.934112019         0.32466133       -0.934112019       0.0131903771      0.00869189976
          1.47e+10      0.0161922464     0.000305444435        0.300156424       -0.942073517        0.300156424       -0.942073517       0.0135080534      0.00859802889
           1.5e+10      0.0163937808    -0.000156841321        0.275415712       -0.949399641        0.275415712       -0.949399641       0.0138409055      0.00848828538
          1.53e+10      0.0165960143    -0.000633500834          0.2504544       -0.956084425          0.2504544       -0.956084425       0.0141848165      0.00837432195
          1.56e+10      0.0168040994     -0.00112616541        0.225281062       -0.962121094        0.225281062       -0.962121094       0.0145522529      0.00825591391
          1.59e+10      0.0170225498     -0.00163932278        0.199901406       -0.967500302        0.199901406       -0.967500302         0.01494886      0.00812572092
          1.62e+10      0.0172641623     -0.00217443412        0.174327349       -0.972214746        0.174327349       -0.972214746       0.0153833276      0.00799097446
          1.65e+10      0.0175387412     -0.00273825386        0.148560679       -0.976254231        0.148560679       -0.976254231       0.0158689129      0.00784789604
          1.68e+10      0.0178578169     -0.00335048692        0.122594097       -0.979608075        0.122594097       -0.979608075       0.0164254754      0.00769535284
          1.71e+10      0.0182491738     -0.00401795516       0.0964253719       -0.982259974       0.0964253719       -0.982259974       0.0170773992      0.00752835124
          1.74e+10      0.0187411518     -0.00477048947       0.0700325729       -0.984188316       0.0700325729       -0.984188316       0.0178646526      0.00734080942
          1.77e+10      0.0193791054     -0.00565198304       0.0433779803       -0.985359542       0.0433779803       -0.985359542       0.0188463474      0.00711897281
           1.8e+10      0.0202329593     -0.00674059844       0.0163935627       -0.985717336       0.0163935627       -0.985717336       0.0201146094      0.00683591196
          1.83e+10      0.0214083145      -0.0081734967       -0.011043553       -0.985154166       -0.011043553       -0.985154166       0.0218293048      0.00643249742
          1.86e+10      0.0230817039      -0.0102343177       -0.039156905       -0.983450908       -0.039156905       -0.983450908       0.0242757092      0.00576877801
          1.89e+10      0.0255368725      -0.0135656748      -0.0683724659        -0.98007813      -0.0683724659        -0.98007813       0.0280103687      0.00447469197
          1.92e+10       0.029109804      -0.0199009295       -0.099460316       -0.973499344       -0.099460316       -0.973499344       0.0341928435       0.0013248669
          1.95e+10      0.0325826393      -0.0348625627       -0.132801562       -0.958107258       -0.132801562       -0.958107258       0.0447249996     -0.00882725404
          1.98e+10      0.0123433564      -0.0689537286       -0.149115582       -0.917598462       -0.149115582       -0.917598462       0.0460094388      -0.0465328288
          2.01e+10     -0.0410768067      -0.0383731298       -0.116588997       -0.927933132       -0.116588997       -0.927933132      -0.0125396881      -0.0492821483
          2.04e+10     -0.0274604268     -0.00775907344       -0.146829861       -0.955929333       -0.146829861       -0.955929333      -0.0172091636      -0.0176471926
          2.07e+10     -0.0160206695     -0.00160765357       -0.181640106       -0.959688862       -0.181640106       -0.959688862      -0.0110818609     -0.00681879836
           2.1e+10    -0.00996837023    -0.000217390539       -0.212607084       -0.956797028       -0.212607084       -0.956797028     -0.00684285943      -0.0026064298
          2.13e+10    -0.00652043383     0.000114262029       -0.241309816       -0.951485891       -0.241309816       -0.951485891     -0.00415512659    -0.000610586888
          2.16e+10     -0.0044108146     0.000194397274       -0.268701444       -0.944848274       -0.268701444       -0.944848274     -0.00242144283     0.000464993378
          2.19e+10    -0.00306225607     0.000247057549       -0.295249192       -0.937246648       -0.295249192       -0.937246648     -0.00129510499      0.00109234533
          2.22e+10     -0.0021843759     0.000351886226       -0.321199488       -0.928821547       -0.321199488       -0.928821547    -0.000582270202      0.00147509395
          2.25e+10    -0.00161489155     0.000546312799       -0.346686301        -0.91962997       -0.346686301        -0.91962997    -0.000183633925      0.00171776713
          2.28e+10    -0.00126076217     0.000859654192        -0.37179686       -0.909692054        -0.37179686       -0.909692054    -4.88771127e-05      0.00188139079
          2.31e+10    -0.00106487983      0.00133961652       -0.396598161       -0.898997344       -0.396598161       -0.898997344    -0.000170871616       0.0020039371
          2.34e+10   -0.000983095977      0.00206137192       -0.421157158       -0.887496773       -0.421157158       -0.887496773    -0.000592920068       0.0021369516
          2.37e+10   -0.000976404921      0.00320518437       -0.445578658       -0.875048756       -0.445578658       -0.875048756     -0.00145883654      0.00235343049
           2.4e+10   -0.000913979984       0.0052537968       -0.470065086       -0.861207596       -0.470065086       -0.861207596     -0.00317493856      0.00290760445
          2.43e+10    0.000235634848      0.00995967344       -0.494832429       -0.843979856       -0.494832429       -0.843979856     -0.00708074329      0.00527962036
          2.46e+10      0.0185569008       0.0160443628       -0.506294498       -0.814913842       -0.506294498       -0.814913842     -0.00731013472       0.0242214309
          2.49e+10      0.0104958355     -0.00749819847       -0.520939326       -0.824433357       -0.520939326       -0.824433357        0.012707615      0.00979014669
          2.52e+10     0.00391972472      -0.0043615977       -0.549703266       -0.811163758       -0.549703266       -0.811163758      0.00807880648      0.00452299019
          2.55e+10      0.0020986578     -0.00216941763       -0.573675961       -0.795210576       -0.573675961       -0.795210576      0.00577149268      0.00352457744
          2.58e+10     0.00121739615    -0.000581774783       -0.596066997       -0.778510392       -0.596066997       -0.778510392      0.00441967095      0.00336136178
          2.61e+10    0.000542062921     0.000856949754       -0.617624752       -0.761041946       -0.617624752       -0.761041946      0.00354149883      0.00359796746
          2.64e+10   -0.000254359345       0.0025917996       -0.638537615       -0.742475387       -0.638537615       -0.742475387      0.00314743341      0.00426335076
          2.67e+10    -0.00120821928       0.0058391525       -0.658125182       -0.721966823       -0.658125182       -0.721966823      0.00419760123      0.00530892729
           2.7e+10     0.00278891339       0.0113453922       -0.672534205       -0.702681502       -0.672534205       -0.702681502      0.00683210153      0.00170021453
          2.73e+10     0.00491541652       0.0100148304       -0.693696969       -0.685588057       -0.693696969       -0.685588057      0.00160471137      0.00171022196
          2.76e+10     0.00934645453       0.0217190782       -0.705492339       -0.655629978       -0.705492339       -0.655629978       0.0109344446      0.00797492318
          2.79e+10      0.0215905055       0.0057265979        -0.72184627       -0.653090079        -0.72184627       -0.653090079      0.00249109725      -0.0111237868
          2.82e+10      0.0219511685      0.00325951189       -0.744329878       -0.627730617       -0.744329878       -0.627730617     -0.00676373793     -0.00824510536
          2.85e+10      0.0298136893     -0.00839788627       -0.753838666       -0.597170168       -0.753838666       -0.597170168      -0.0171163011    -0.000486608913
          2.88e+10     0.00538574142      -0.0241801661       -0.754507637       -0.593256542       -0.754507637       -0.593256542     -0.00575732223       0.0157671158
          2.91e+10    -0.00294000372     -0.00900582561       -0.781477645       -0.579903379       -0.781477645       -0.579903379      0.00148397302        0.008339835
          2.94e+10     -0.0015954164     -0.00256015766       -0.801688311        -0.55748905       -0.801688311        -0.55748905     0.000934107291       0.0046487039
          2.97e+10   -4.56206879e-05     0.000531482805       -0.818493918       -0.534309361       -0.818493918       -0.534309361    -0.000270994024         0.00304928
             3e+10     0.00125809903      0.00243103338       -0.833640761       -0.510943986       -0.833640761       -0.510943986     -0.00145249255      0.00223507294
