! Created Thu Apr 22 12:55:37 2021
! List of port names and net name(s): example Port n = <port_name> <net_name1> <net_name2> ...
! Port 1 = P1 P3 gnd! 
! Port 2 = P2 N__0 gnd! 
! Port 3 = P3 P3 P7 
! Port 4 = P4 N__0 P8 
# hz S ri R 50
! 4 Port Network Data from data block
! freq  reS11  imS11  reS12  imS12  reS13  imS13  reS14  imS14  
!       reS21  imS21  reS22  imS22  reS23  imS23  reS24  imS24  
!       reS31  imS31  reS32  imS32  reS33  imS33  reS34  imS34  
!       reS41  imS41  reS42  imS42  reS43  imS43  reS44  imS44  
!     
                 0    0.000232586404     5.16836566e-08     1.92545353e-05    -2.31463286e-08        0.999767411    -1.75460962e-07    -1.92544611e-05     2.82331318e-08
                   1.92545353e-05    -2.31463286e-08     0.000229322218     5.82389148e-08    -1.92544678e-05     2.82331652e-08        0.999770671     -1.8036662e-07
                      0.999767411    -1.75460962e-07    -1.92544678e-05     2.82331652e-08     0.000232586363     5.16862831e-08      1.9254545e-05     -2.3145311e-08
                  -1.92544611e-05     2.82331318e-08        0.999770671     -1.8036662e-07      1.9254545e-05     -2.3145311e-08     0.000229322373       5.824208e-08

         300000000    0.000603233275       0.0021601901     0.000104502339      0.00128393943        0.998555528      -0.0313266006    -4.18816574e-05    -9.77304246e-05
                   0.000104502339      0.00128393943     0.000633703308       0.0029996854    -4.18305221e-05    -9.77608397e-05        0.998549667      -0.0315515261
                      0.998555528      -0.0313266006    -4.18305221e-05    -9.77608397e-05     0.000619607548      0.00216208387      8.3659878e-05      0.00128593618
                  -4.18816574e-05    -9.77304246e-05        0.998549667      -0.0315515261      8.3659878e-05      0.00128593618     0.000651552813      0.00300087244

         600000000    0.000919791586      0.00402616884     0.000282570899      0.00252133728         0.99655457      -0.0619560425    -7.11059046e-05    -0.000173511255
                   0.000282570899      0.00252133728      0.00102825108      0.00569604032    -7.09361148e-05     -0.00017365799        0.996523236      -0.0624094273
                       0.99655457      -0.0619560425    -7.09361148e-05     -0.00017365799     0.000988154108       0.0040287412     0.000201317155      0.00253067833
                  -7.11059046e-05    -0.000173511255        0.996523236      -0.0624094273     0.000201317155      0.00253067833      0.00110142628      0.00569592814

         900000000     0.00123963593      0.00584589573     0.000549441077       0.0037335386        0.993708628      -0.0923340929    -0.000105017847    -0.000244572599
                   0.000549441077       0.0037335386       0.0014799342      0.00833892176    -0.000104689617    -0.000244971902        0.993638267      -0.0930144229
                      0.993708628      -0.0923340929    -0.000104689617    -0.000244971902      0.00139553194      0.00584417713     0.000369517243      0.00375868679
                  -0.000105017847    -0.000244572599        0.993638267      -0.0930144229     0.000369517243      0.00375868679      0.00164587029      0.00833177892

           1.2e+09     0.00160706814      0.00764577457     0.000905914572       0.0049183651        0.989986334       -0.122517332    -0.000146099972    -0.000312159515
                   0.000905914572       0.0049183651      0.00202746231       0.0109522788    -0.000145618171    -0.000312989473        0.989857993       -0.123421545
                      0.989986334       -0.122517332    -0.000145618171    -0.000312989473      0.00188700726      0.00763069969      0.00059015291      0.00497113453
                  -0.000146099972    -0.000312159515        0.989857993       -0.123421545      0.00059015291      0.00497113453      0.00232366394       0.0109280312

           1.5e+09     0.00203987879      0.00942797843        0.001350576      0.00607082564        0.985377755       -0.152503727    -0.000195095613    -0.000375887036
                      0.001350576      0.00607082564      0.00268925893       0.0135356754    -0.000194495213     -0.00037737679        0.985174231       -0.153627451
                      0.985377755       -0.152503727    -0.000194495213     -0.00037737679      0.00247877015      0.00938745837     0.000863122994      0.00616626956
                  -0.000195095613    -0.000375887036        0.985174231       -0.153627451     0.000863122994      0.00616626956      0.00315216355       0.0134810799

           1.8e+09     0.00254390496       0.0111870704       0.0018812566      0.00718553857        0.979882648       -0.182281612    -0.000251983864    -0.000435104832
                     0.0018812566      0.00718553857      0.00347125043       0.0160807602    -0.000251362479    -0.000437516234        0.979587629        -0.18361929
                      0.979882648       -0.182281612    -0.000251362479    -0.000437516234      0.00317679952       0.0111058684      0.00118771681      0.00734189998
                  -0.000251983864    -0.000435104832        0.979587629        -0.18361929      0.00118771681      0.00734189998      0.00413671207       0.0159791505

           2.1e+09     0.00312149088       0.0129189702      0.00249523019      0.00825699299        0.973504698       -0.211833075     -0.00031652649    -0.000489190367
                    0.00249523019      0.00825699299      0.00437439092       0.0185798054    -0.000316028638    -0.000492809495        0.973102001        -0.21337852
                      0.973504698       -0.211833075    -0.000316028638    -0.000492809495      0.00398248953       0.0127779584      0.00156292053      0.00849559726
                   -0.00031652649    -0.000489190367        0.973102001        -0.21337852      0.00156292053      0.00849559726      0.00527721783       0.0184110023

           2.4e+09      0.0037678916       0.0146213438      0.00318915549      0.00927866645        0.966243381       -0.241136918    -0.000388323732    -0.000537958185
                    0.00318915549      0.00927866645       0.0053909742       0.0210257182    -0.000388157281    -0.000543091786        0.965715083       -0.242886769
                      0.966243381       -0.241136918    -0.000388157281    -0.000543091786      0.00488979393       0.0143976346      0.00198742518      0.00962374018
                  -0.000388323732    -0.000537958185        0.965715083       -0.242886769      0.00198742518      0.00962374018      0.00656460755       0.0207661335

           2.7e+09     0.00449624091       0.0162815427      0.00395983574       0.0102476358        0.958120716       -0.270176073    -0.000466899004    -0.000579734243
                    0.00395983574       0.0102476358      0.00653486664       0.0234122804    -0.000467379814    -0.000586650872        0.957452634       -0.272114222
                      0.958120716       -0.270176073    -0.000467379814    -0.000586650872       0.0059109869       0.0159516698      0.00245987834       0.0107262724
                  -0.000466899004    -0.000579734243        0.957452634       -0.272114222      0.00245987834       0.0107262724      0.00801120602        0.023035049

             3e+09     0.00529265396       0.0179006823      0.00480335379        0.011157188        0.949131173       -0.298924398    -0.000551658186    -0.000614977323
                    0.00480335379        0.011157188      0.00779386852       0.0257272291    -0.000553058914    -0.000624088492        0.948312474       -0.301044409
                      0.949131173       -0.298924398    -0.000553058914    -0.000624088492      0.00702939445       0.0174355741      0.00297871376       0.0117989635
                  -0.000551658186    -0.000614977323        0.948312474       -0.301044409      0.00297871376       0.0117989635      0.00960258724       0.0252039493

           3.3e+09     0.00615983553       0.0194757911      0.00571475841       0.0120025853        0.939288853       -0.327358529    -0.000642275446    -0.000642890161
                    0.00571475841       0.0120025853      0.00916014142       0.0279695706    -0.000645128873     -0.00065457369        0.938301555        -0.32964884
                      0.939288853       -0.327358529    -0.000645128873     -0.00065457369      0.00824681132       0.0188424835      0.00354183327       0.0128396417
                  -0.000642275446    -0.000642890161        0.938301555        -0.32964884      0.00354183327       0.0128396417       0.0113315227       0.0272652114

           3.6e+09     0.00709562527         0.02099734      0.00669034385       0.0127797448        0.928604134       -0.355458086    -0.000737537308    -0.000662994032
                    0.00669034385       0.0127797448       0.0106368748       0.0301280059    -0.000742269823    -0.000677393025         0.92743649       -0.357907032
                      0.928604134       -0.355458086    -0.000742269823    -0.000677393025      0.00956000445        0.020162683      0.00414794073        0.013846548
                  -0.000737537308    -0.000662994032         0.92743649       -0.357907032      0.00414794073        0.013846548       0.0131960962       0.0292073682

           3.9e+09     0.00809576556       0.0224636201      0.00772479535       0.0134841487        0.917085402       -0.383198682    -0.000836990138    -0.000675055023
                    0.00772479535       0.0134841487       0.0122155673        0.032197811    -0.000844285693    -0.000692624219         0.91572576       -0.385793607
                      0.917085402       -0.383198682    -0.000844285693    -0.000692624219       0.0109603927       0.0213894847      0.00479452331       0.0148168489
                  -0.000836990138    -0.000675055023         0.91572576       -0.385793607      0.00479452331       0.0148168489       0.0151866012       0.0310217318

           4.2e+09     0.00915722064       0.0238660314      0.00881329607        0.014111286        0.904744257       -0.410559392    -0.000939581801    -0.000679221696
                    0.00881329607        0.014111286       0.0138895788       0.0341708561    -0.000950385657    -0.000700068377        0.903180855        -0.41328572
                      0.904744257       -0.410559392    -0.000950385657    -0.000700068377       0.0124431876       0.0225161756      0.00547942849       0.0157485287
                  -0.000939581801    -0.000679221696        0.903180855        -0.41328572      0.00547942849       0.0157485287       0.0172946647        0.032699244

           4.5e+09      0.0102707696       0.0252132844      0.00994905298       0.0146590427        0.891591707       -0.437511227     -0.00104551767    -0.000674212743
                    0.00994905298       0.0146590427       0.0156561457       0.0360459986      -0.0010598407    -0.000698628287        0.889817489       -0.440358021
                      0.891591707       -0.437511227      -0.0010598407    -0.000698628287       0.0140026286       0.0235373143      0.00620053047       0.0166400116
                   -0.00104551767    -0.000674212743        0.889817489       -0.440358021      0.00620053047       0.0166400116       0.0195131145       0.0342319713

           4.8e+09      0.0114419824       0.0264887977       0.0111283407       0.0151227764        0.877643804       -0.464038288     -0.00115243987    -0.000661059989
                     0.0111283407       0.0151227764       0.0175063696       0.0378129712     -0.00117169165    -0.000689237075        0.875647258       -0.466989094
                      0.877643804       -0.464038288     -0.00117169165    -0.000689237075       0.0156314838       0.0244451396       0.0069553941       0.0174888783
                   -0.00115243987    -0.000661059989        0.875647258       -0.466989094       0.0069553941       0.0174888783       0.0218314638       0.0356113079

           5.1e+09      0.0126626051       0.0276936577       0.0123454665       0.0155002119        0.862912345       -0.490116021     -0.00126017387    -0.000639611117
                     0.0123454665       0.0155002119       0.0194415416       0.0394716398     -0.00128437907    -0.000671322674        0.860688476       -0.493155317
                      0.862912345       -0.490116021     -0.00128437907    -0.000671322674       0.0173222188       0.0252350709      0.00774140333         0.01829351
                   -0.00126017387    -0.000639611117        0.860688476       -0.493155317      0.00774140333         0.01829351       0.0242399744       0.0368298498

           5.4e+09      0.0139154355       0.0288258346       0.0135899991       0.0157884345        0.847406164        -0.51572034         -0.0013688    -0.000609938166
                     0.0135899991       0.0157884345       0.0214276729       0.0410109385      -0.0014004682     -0.00064461474        0.844945207       -0.518833582
                      0.847406164        -0.51572034      -0.0014004682     -0.00064461474       0.0190665814        0.025903154      0.00855601617       0.0190527034
                       -0.0013688    -0.000609938166        0.844945207       -0.518833582      0.00855601617       0.0190527034       0.0267294202       0.0378823484

           5.7e+09      0.0152143635       0.0298820368       0.0148608823       0.0159857167        0.831147934       -0.540832653      -0.0014760785    -0.000571598207
                     0.0148608823       0.0159857167       0.0234858941       0.0424315518     -0.00151575945    -0.000610165409        0.828444176       -0.544002613
                      0.831147934       -0.540832653     -0.00151575945    -0.000610165409       0.0208569445         0.02644244      0.00939642096       0.0197649859
                    -0.0014760785    -0.000571598207        0.828444176       -0.544002613      0.00939642096       0.0197649859       0.0292849341       0.0387641158

             6e+09      0.0165452448       0.0308605571       0.0161496096       0.0160901575        0.814149398       -0.565429884     -0.00158242273    -0.000526103791
                     0.0161496096       0.0160901575       0.0255961705       0.0437279429     -0.00163090069    -0.000567709067        0.811197712       -0.568642477
                      0.814149398       -0.565429884     -0.00163090069    -0.000567709067        0.022684312        0.026850531       0.0102594136       0.0204284701
                   -0.00158242273    -0.000526103791        0.811197712       -0.568642477       0.0102594136       0.0204284701       0.0318990972       0.0394642199

           6.3e+09      0.0178996047       0.0317611716       0.0174497999       0.0161009676        0.796425001       -0.589491157      -0.0016865304    -0.000473302954
                     0.0174497999       0.0161009676       0.0277550713       0.0449027998     -0.00174493085    -0.000517361422        0.793225052        -0.59272948
                      0.796425001       -0.589491157     -0.00174493085    -0.000517361422       0.0245399618       0.0271222243       0.0111427429       0.0210420272
                    -0.0016865304    -0.000473302954        0.793225052        -0.59272948       0.0111427429       0.0210420272       0.0345599642       0.0399828107

           6.6e+09      0.0192753291       0.0325775843        0.018755207       0.0160164761         0.77799335       -0.612998166     -0.00178773286    -0.000413982171
                      0.018755207       0.0160164761       0.0299526396       0.0459474999     -0.00185649972     -0.00046053295        0.774542235       -0.616245111
                       0.77799335       -0.612998166     -0.00185649972     -0.00046053295       0.0264200396       0.0272583235       0.0120440764       0.0216044043
                   -0.00178773286    -0.000413982171        0.774542235       -0.616245111       0.0120440764       0.0216044043       0.0372545496       0.0403160332

           6.9e+09      0.0206741415       0.0333178564       0.0200584774       0.0158384749        0.758872879       -0.635928058     -0.00188508699    -0.000347697101
                     0.0200584774       0.0158384749       0.0321808487        0.046875417     -0.00196708494     -0.00039509158        0.755168406       -0.639165267
                      0.758872879       -0.635928058     -0.00196708494     -0.00039509158       0.0283034368       0.0272522725       0.0129590209       0.0221160276
                   -0.00188508699    -0.000347697101        0.755168406       -0.639165267       0.0129590209       0.0221160276       0.0399719548       0.0404604887

           7.2e+09      0.0220779168       0.0339827175       0.0213533333       0.0155645832        0.739078633       -0.658259673     -0.00197983921    -0.000275312062
                     0.0213533333       0.0155645832       0.0344248084       0.0476526932     -0.00207400479     -0.00032497777        0.735118435       -0.661479207
                      0.739078633       -0.658259673     -0.00207400479     -0.00032497777       0.0301906522       0.0271057463       0.0138852427        0.022575189
                   -0.00197983921    -0.000275312062        0.735118435       -0.661479207       0.0138852427        0.022575189       0.0426962074        0.040414132

           7.5e+09      0.0234855249       0.0345554979       0.0226336657       0.0151956207        0.718627517       -0.679981203      -0.0020694176    -0.000199096653
                     0.0226336657       0.0151956207       0.0366824504        0.048307972      -0.0021787123    -0.000248437006        0.714415806       -0.683160906
                      0.718627517       -0.679981203      -0.0021787123    -0.000248437006       0.0320693988       0.0268142668       0.0148192012       0.0229817575
                    -0.0020694176    -0.000199096653        0.714415806       -0.683160906       0.0148192012       0.0229817575       0.0454239843       0.0401760463

           7.8e+09      0.0248913407       0.0350486924       0.0238920846       0.0147331606        0.697539524       -0.701069301     -0.00215484919    -0.000118506585
                     0.0238920846       0.0147331606       0.0389432591       0.0488328781     -0.00228011964    -0.000166381552        0.693077266       -0.704194663
                      0.697539524       -0.701069301     -0.00228011964    -0.000166381552       0.0339261403       0.0263775735       0.0157579258       0.0233356485
                   -0.00215484919    -0.000118506585        0.693077266       -0.704194663       0.0157579258       0.0233356485       0.0481295139       0.0397416599

           8.1e+09      0.0262905384       0.0354604833       0.0251230278       0.0141783859        0.675834159       -0.721507643     -0.00223525599    -3.50086696e-05
                     0.0251230278       0.0141783859       0.0412022059       0.0492272031     -0.00237747159    -7.97682006e-05        0.671125343       -0.724562634
                      0.675834159       -0.721507643     -0.00237747159    -7.97682006e-05       0.0357551526       0.0257973261       0.0166983743       0.0236360811
                   -0.00223525599    -3.50086696e-05        0.671125343       -0.724562634       0.0166983743       0.0236360811       0.0508081302       0.0391134664

           8.4e+09      0.0276755779       0.0357953276       0.0263187918       0.0135337309        0.653530133       -0.741277274     -0.00231097433     5.16838733e-05
                     0.0263187918       0.0135337309       0.0434461917       0.0494941626     -0.00247103625     1.08463051e-05        0.648577976         -0.7442479
                      0.653530133       -0.741277274     -0.00247103625     1.08463051e-05       0.0375446765       0.0250752481       0.0176377178       0.0238837767
