! Created Wed Apr 21 15:42:31 2021
! List of port names and net name(s): example Port n = <port_name> <net_name1> <net_name2> ...
! Port 1 = P1 P2 gnd! 
! Port 2 = P2 P2 P4 
# hz S ri R 50
! 2 Port Network Data from data block
! freq  reS11  imS11  reS21  imS21  reS12  imS12  reS22  imS22  
!     
                 0    0.000234514568    -8.45229784e-10        0.999765483    -1.10550008e-07        0.999765483    -1.10550008e-07     0.000234514617    -8.41220482e-10
         300000000    0.000543805767     0.000836561063        0.998730953      -0.0264537676        0.998730953      -0.0264537676     0.000537644892     0.000838689757
         600000000    0.000755214582       0.0014017975        0.997158258      -0.0522473169        0.997158258      -0.0522473169     0.000732865516      0.00140814625
         900000000     0.00091410737      0.00193046656        0.995017686      -0.0778172599        0.995017686      -0.0778172599     0.000866181246      0.00194347382
           1.2e+09     0.00106357892      0.00245407109        0.992275176       -0.103233132        0.992275176       -0.103233132     0.000980818338      0.00247655281
           1.5e+09     0.00123588396      0.00298190155        0.988931288       -0.128504353        0.988931288       -0.128504353      0.00110897593       0.0030167053
           1.8e+09     0.00140907053      0.00350034758        0.984953808       -0.153635962        0.984953808       -0.153635962      0.00122938459      0.00355200965
           2.1e+09     0.00160083057      0.00401507689        0.980356722       -0.178617323        0.980356722       -0.178617323      0.00135992287      0.00408841802
           2.4e+09     0.00181371914      0.00452480816        0.975142148       -0.203439414        0.975142148       -0.203439414      0.00150345704      0.00462525837
           2.7e+09     0.00204918066      0.00502839518        0.969312951       -0.228091466        0.969312951       -0.228091466       0.0016620679      0.00516177313
             3e+09     0.00230776374      0.00552361051         0.96287224        -0.25256227         0.96287224        -0.25256227      0.00183701341      0.00569689096
           3.3e+09     0.00259111648      0.00600815769        0.955824572       -0.276840166        0.955824572       -0.276840166      0.00202944808      0.00622921357
           3.6e+09     0.00290137146      0.00648203631        0.948175523        -0.30091171        0.948175523        -0.30091171      0.00224019863      0.00675760123
           3.9e+09      0.0032317286      0.00694665901        0.939926561       -0.324762071        0.939926561       -0.324762071       0.0024699004      0.00728059961
           4.2e+09     0.00358502235       0.0073906868        0.931084565       -0.348383968        0.931084565       -0.348383968      0.00271994762      0.00779626522
           4.5e+09     0.00396287855      0.00781609941        0.921656489       -0.371755315        0.921656489       -0.371755315       0.0029893586      0.00831560351
           4.8e+09      0.0043646262      0.00822998107        0.911643456       -0.394874482        0.911643456       -0.394874482      0.00327224713      0.00880971422
           5.1e+09     0.00478863119      0.00861898434        0.901058769       -0.417719861        0.901058769       -0.417719861      0.00357915343      0.00930141422
           5.4e+09     0.00524106242      0.00899528798         0.88991079       -0.440277559         0.88991079       -0.440277559      0.00390587273      0.00978073102
           5.7e+09     0.00570721473        0.009342591        0.878197092       -0.462539036        0.878197092       -0.462539036      0.00425073102       0.0102484987
             6e+09     0.00619615701      0.00966762947        0.865932064       -0.484488593        0.865932064       -0.484488593      0.00461499244       0.0107032711
           6.3e+09      0.0066977281      0.00996791513        0.853117044       -0.506112507        0.853117044       -0.506112507      0.00499579841       0.0111444402
           6.6e+09     0.00721909834       0.0102413327        0.839766098       -0.527400664        0.839766098       -0.527400664      0.00539562226       0.0115691839
           6.9e+09     0.00775603835         0.01048729        0.825884676       -0.548339322        0.825884676       -0.548339322      0.00581189749       0.0119767092
           7.2e+09     0.00830629164       0.0107054964        0.811481427       -0.568914374        0.811481427       -0.568914374      0.00624477415       0.0123682445
           7.5e+09     0.00887184718       0.0108930391        0.796566294       -0.589116335        0.796566294       -0.589116335      0.00669135398       0.0127405079
           7.8e+09     0.00944584117        0.011052759        0.781146162       -0.608929736        0.781146162       -0.608929736      0.00715265472       0.0130927191
           8.1e+09      0.0100288119       0.0111815351        0.765231296       -0.628344325        0.765231296       -0.628344325      0.00762850007       0.0134239775
           8.4e+09      0.0106204612        0.011276765        0.748831906       -0.647349036        0.748831906       -0.647349036       0.0081168296       0.0137355378
           8.7e+09      0.0112210507        0.011342568        0.731960738       -0.665929199        0.731960738       -0.665929199      0.00861737539       0.0140285928
             9e+09      0.0118246692       0.0113767719        0.714623792       -0.684075963        0.714623792       -0.684075963      0.00912938183        0.014294604
           9.3e+09      0.0124307242       0.0113784379          0.6968338       -0.701778038          0.6968338       -0.701778038       0.0096578182       0.0145377704
           9.6e+09      0.0130378485       0.0113476217        0.678600091       -0.719022527        0.678600091       -0.719022527       0.0101929709       0.0147608471
           9.9e+09       0.013644361        0.011285014        0.659933838       -0.735798844        0.659933838       -0.735798844       0.0107354725       0.0149589638
          1.02e+10      0.0142533687       0.0111918744        0.640852417       -0.752097454        0.640852417       -0.752097454       0.0112841707       0.0151317338
          1.05e+10      0.0148509342       0.0110582023        0.621348568       -0.767914479        0.621348568       -0.767914479       0.0118423513       0.0152812578
          1.08e+10       0.015446944       0.0108975689        0.601452603         -0.7832286        0.601452603         -0.7832286       0.0124035499       0.0154043422
          1.11e+10      0.0160363561       0.0107051175        0.581170879       -0.798035144        0.581170879       -0.798035144       0.0129712183       0.0155034851
          1.14e+10      0.0166178158       0.0104819354         0.56051468       -0.812325101         0.56051468       -0.812325101       0.0135489165       0.0155767796
          1.17e+10      0.0171898226       0.0102267028        0.539493745       -0.826086846        0.539493745       -0.826086846       0.0141169148       0.0156137987
           1.2e+10      0.0177511218      0.00994173361        0.518124987       -0.839313494        0.518124987       -0.839313494       0.0146950854       0.0156373693
          1.23e+10       0.018300958      0.00962736023        0.496418465       -0.851995627        0.496418465       -0.851995627       0.0152737022       0.0156319813
          1.26e+10      0.0188385433      0.00928401309        0.474387177       -0.864125109        0.474387177       -0.864125109       0.0158531637       0.0155998969
          1.29e+10      0.0193628268      0.00891223236        0.452042948        -0.87569365        0.452042948        -0.87569365       0.0164337626       0.0155414166
          1.32e+10      0.0198732647      0.00851288674        0.429400068       -0.886693093        0.429400068       -0.886693093       0.0170171335       0.0154596266
          1.35e+10      0.0203690269      0.00808693241         0.40646884       -0.897114826         0.40646884       -0.897114826       0.0175980082       0.0153506984
          1.38e+10      0.0208499696      0.00763455929        0.383262261       -0.906951633        0.383262261       -0.906951633       0.0181796121        0.015216629
          1.41e+10      0.0213186946      0.00715594723        0.359794231       -0.916198343        0.359794231       -0.916198343       0.0187620474       0.0150578104
          1.44e+10      0.0217741271      0.00665317614         0.33607781       -0.924843988         0.33607781       -0.924843988       0.0193460791       0.0148741511
          1.47e+10      0.0222180419      0.00612537566        0.312122096       -0.932885283        0.312122096       -0.932885283       0.0199336449       0.0146663726
           1.5e+10       0.022651699      0.00557173095        0.287940063        -0.94031312        0.287940063        -0.94031312       0.0205267027       0.0144345967
          1.53e+10       0.023078256      0.00499235566        0.263542107       -0.947121009        0.263542107       -0.947121009       0.0211296545       0.0141774178
          1.56e+10      0.0235015764      0.00438588246        0.238939085       -0.953300847        0.238939085       -0.953300847       0.0217391307       0.0138993899
          1.59e+10      0.0239271601      0.00374883309         0.21413931       -0.958847806         0.21413931       -0.958847806         0.02237033       0.0135963103
          1.62e+10      0.0243601801      0.00307836894        0.189147376       -0.963751111        0.189147376       -0.963751111        0.023027162       0.0132685562
          1.65e+10       0.024811083      0.00236863412        0.163970399          -0.968001        0.163970399          -0.968001       0.0237204048       0.0129140467
          1.68e+10      0.0252926926      0.00160809682        0.138606026       -0.971588705        0.138606026       -0.971588705       0.0244641814        0.012532266
          1.71e+10      0.0258230573     0.000783844885        0.113050569       -0.974496042        0.113050569       -0.974496042       0.0252819009       0.0121169516
          1.74e+10       0.026424746    -0.000129492202       0.0872892749       -0.976703252       0.0872892749       -0.976703252        0.026204173       0.0116592782
          1.77e+10      0.0271337081     -0.00117002798       0.0612944185       -0.978177062       0.0612944185       -0.978177062       0.0272789922       0.0111433601
           1.8e+10      0.0280011446     -0.00240425351       0.0350175541       -0.978864272       0.0350175541       -0.978864272       0.0285774248        0.010541206
          1.83e+10      0.0291022528     -0.00395030439      0.00836921896       -0.978666668      0.00836921896       -0.978666668        0.030226075      0.00979035117
          1.86e+10      0.0305503482     -0.00603870081       -0.018798649       -0.977395313       -0.018798649       -0.977395313       0.0324241023      0.00875380226
          1.89e+10      0.0324968037     -0.00915943991      -0.0467429522       -0.974621553      -0.0467429522       -0.974621553        0.035538291      0.00710488004
          1.92e+10      0.0350255119      -0.0144896053      -0.0758319368       -0.969254729      -0.0758319368       -0.969254729       0.0402133984      0.00391770312
          1.95e+10        0.03711259       -0.025176777       -0.105901977       -0.958056976       -0.105901977       -0.958056976       0.0471539558     -0.00389880554
          1.98e+10      0.0284142626      -0.0468589879       -0.128655862       -0.933022569       -0.128655862       -0.933022569       0.0506303038      -0.0260404299
          2.01e+10     -0.0125971128      -0.0468344026       -0.115276555       -0.919367069       -0.115276555       -0.919367069       0.0169362179      -0.0462330675
          2.04e+10     -0.0181719438      -0.0146570657       -0.126892461       -0.944563276       -0.126892461       -0.944563276     -0.00344790495       -0.022669378
          2.07e+10    -0.00838256573     -0.00339151297       -0.158370544       -0.953367296       -0.158370544       -0.953367296    -0.000970866429     -0.00875351176
           2.1e+10    -0.00192409606    -0.000337501645       -0.188771059        -0.95287989       -0.188771059        -0.95287989      0.00279088978       -0.003232129
          2.13e+10     0.00190704286     0.000519636515       -0.217177221       -0.948952454       -0.217177221       -0.948952454      0.00546320349    -0.000824018697
          2.16e+10     0.00426652688     0.000718148305       -0.244264743       -0.943328935       -0.244264743       -0.943328935      0.00723695271     0.000295801627
          2.19e+10     0.00576653549     0.000717419094       -0.270480385       -0.936594055       -0.270480385       -0.936594055      0.00838979876     0.000804290491
          2.22e+10     0.00673718137       0.0006816653       -0.296073114       -0.928975735       -0.296073114       -0.928975735      0.00909837846     0.000986968122
          2.25e+10     0.00735452979     0.000682920293        -0.32118895       -0.920573838        -0.32118895       -0.920573838      0.00947430246     0.000991648724
          2.28e+10     0.00772828494     0.000762163052       -0.345913577       -0.911429977       -0.345913577       -0.911429977      0.00957480045      0.00089818062
          2.31e+10      0.0079366291     0.000958230544       -0.370305173        -0.90155006       -0.370305173        -0.90155006      0.00942286551     0.000760729384
          2.34e+10     0.00802567561      0.00132006715       -0.394407559       -0.890912605       -0.394407559       -0.890912605      0.00900998982     0.000631810778
          2.37e+10     0.00805604162      0.00193825707       -0.418263079       -0.879441453       -0.418263079       -0.879441453      0.00827840374     0.000589252422
           2.4e+10     0.00814091657      0.00299503882       -0.441908294       -0.866932889       -0.441908294       -0.866932889      0.00708992759     0.000807638997
          2.43e+10     0.00869621456      0.00490705447       -0.465252425       -0.852793364       -0.465252425       -0.852793364      0.00516911493      0.00187010932
          2.46e+10      0.0119332333      0.00810403864       -0.486666383       -0.835325752       -0.486666383       -0.835325752      0.00288907953      0.00623521651
          2.49e+10      0.0207681298      0.00339662322       -0.498036074        -0.82066282       -0.498036074        -0.82066282       0.0109622462       0.0135788208
          2.52e+10        0.01557522     -0.00393483803       -0.519467999       -0.816221932       -0.519467999       -0.816221932        0.016625912      0.00528934171
          2.55e+10      0.0116985201     -0.00333761598       -0.544162003        -0.80358514       -0.544162003        -0.80358514       0.0145141205      0.00133180555
          2.58e+10      0.0100220597     -0.00211342753        -0.56691019       -0.788487003        -0.56691019       -0.788487003       0.0126175409    -4.93116508e-05
          2.61e+10      0.0090794681    -0.000939377879       -0.588510845       -0.772388984       -0.588510845       -0.772388984       0.0111752404    -0.000615038445
          2.64e+10     0.00841534643     0.000288364194       -0.609335515       -0.755461034       -0.609335515       -0.755461034       0.0100495436    -0.000791503058
          2.67e+10     0.00788975314      0.00179105177       -0.629445014       -0.737603007       -0.629445014       -0.737603007      0.00926255778    -0.000691467088
           2.7e+10      0.0076462983      0.00399615479       -0.648534604       -0.718622694       -0.648534604       -0.718622694      0.00909502383    -0.000500357549
          2.73e+10      0.0088453955       0.0072057008       -0.665679018       -0.699019083       -0.665679018       -0.699019083      0.00968167291     -0.00123175176
          2.76e+10      0.0121862734      0.00927776513       -0.682086617       -0.680351887       -0.682086617       -0.680351887      0.00889290464     -0.00290377093
          2.79e+10      0.0167142284       0.0112035401       -0.697132039       -0.659982902       -0.697132039       -0.659982902      0.00951209614     -0.00369346922
          2.82e+10      0.0244783618      0.00739060978       -0.711013245       -0.644084276       -0.711013245       -0.644084276      0.00683713683      -0.0103298569
          2.85e+10      0.0273595396     0.000317642833       -0.728394458       -0.623731547       -0.728394458       -0.623731547     -0.00231704643     -0.00984537105
          2.88e+10      0.0258160202      -0.0110160803        -0.73759672       -0.602924919        -0.73759672       -0.602924919     -0.00721780493     -0.00137409896
          2.91e+10      0.0124762875      -0.0145365689       -0.750002003       -0.592531524       -0.750002003       -0.592531524     -0.00102366442      0.00414217012
          2.94e+10     0.00651514867     -0.00812873255       -0.770312699       -0.576767031       -0.770312699       -0.576767031      0.00227045112      0.00145647176
          2.97e+10     0.00575449332     -0.00352058375       -0.788736043       -0.556256657       -0.788736043       -0.556256657      0.00191317182    -0.000840499244
             3e+10     0.00612450185    -0.000666726223       -0.805047059       -0.534407325       -0.805047059       -0.534407325     0.000651896058     -0.00209655074
