! Created Thu Apr 22 11:04:58 2021
! List of port names and net name(s): example Port n = <port_name> <net_name1> <net_name2> ...
! Port 1 = P1 P3 gnd! 
! Port 2 = P2 N__0 gnd! 
! Port 3 = P3 P3 P7 
! Port 4 = P4 N__0 P8 
# hz S ri R 50
! 4 Port Network Data from data block
! freq  reS11  imS11  reS12  imS12  reS13  imS13  reS14  imS14  
!       reS21  imS21  reS22  imS22  reS23  imS23  reS24  imS24  
!       reS31  imS31  reS32  imS32  reS33  imS33  reS34  imS34  
!       reS41  imS41  reS42  imS42  reS43  imS43  reS44  imS44  
!     
                 0    0.000218201691     4.81929527e-08     1.75422039e-05    -1.93064771e-08        0.999781796    -1.51058352e-07    -1.75421432e-05     2.38955838e-08
                   1.75422039e-05    -1.93064771e-08     0.000213940724     5.37777945e-08    -1.75421358e-05     2.38955653e-08        0.999786056    -1.55881784e-07
                      0.999781796    -1.51058352e-07    -1.75421358e-05     2.38955653e-08     0.000218201797     4.81954392e-08     1.75421987e-05    -1.93057134e-08
                  -1.75421432e-05     2.38955838e-08        0.999786056    -1.55881784e-07     1.75421987e-05    -1.93057134e-08     0.000213941011     5.37808047e-08

         300000000    0.000576434692      0.00255887394     8.58243077e-05      0.00106276203        0.998783974      -0.0260005405    -3.76709224e-05    -6.34517179e-05
                   8.58243077e-05      0.00106276203     0.000589192496      0.00299449389    -3.75466464e-05    -6.34723376e-05        0.998774456      -0.0262024205
                      0.998783974      -0.0260005405    -3.75466464e-05    -6.34723376e-05      0.00058332413      0.00256105786     6.90442099e-05      0.00106429745
                  -3.76709224e-05    -6.34517179e-05        0.998774456      -0.0262024205     6.90442099e-05      0.00106429745     0.000605489837      0.00299604292

         600000000    0.000903906236      0.00484064931     0.000218985845      0.00208528942        0.997271477      -0.0513761125     -6.1576563e-05    -0.000106994631
                   0.000218985845      0.00208528942     0.000942930034      0.00570608003    -6.10985791e-05    -0.000107113489        0.997240971       -0.051776435
                      0.997271477      -0.0513761125    -6.10985791e-05    -0.000107113489      0.00093406457      0.00484573515      0.00015354897      0.00209219292
                   -6.1576563e-05    -0.000106994631        0.997240971       -0.051776435      0.00015354897      0.00209219292      0.00100980435      0.00570773267

         900000000     0.00125425423      0.00707450161     0.000413900595      0.00308937502        0.995201766      -0.0765439529    -8.76840245e-05    -0.000146577626
                   0.000413900595      0.00308937502       0.0013329477      0.00836641815    -8.66443327e-05    -0.000146934348        0.995139063       -0.077140314
                      0.995201766      -0.0765439529    -8.66443327e-05    -0.000146934348      0.00132486243      0.00708154773     0.000268885251      0.00310751114
                  -8.76840245e-05    -0.000146577626        0.995139063       -0.077140314     0.000268885251      0.00310751114      0.00148498567      0.00836390893

           1.2e+09     0.00166742049      0.00929018794     0.000671906717      0.00407523988        0.992541462       -0.101565108    -0.000118489105    -0.000183764407
                   0.000671906717      0.00407523988       0.0017985926       0.0110059435    -0.000116709569    -0.000184556246        0.992434559       -0.102355062
                      0.992541462       -0.101565108    -0.000116709569    -0.000184556246      0.00179612752       0.0092964837     0.000417097481      0.00411267815
                  -0.000118489105    -0.000183764407        0.992434559       -0.102355062     0.000417097481      0.00411267815      0.00207034828       0.0109919641

           1.5e+09     0.00215948762       0.0114874849     0.000992635503      0.00504044812        0.989277915        -0.12645058    -0.000154748458     -0.00021835893
                   0.000992635503      0.00504044812      0.00235665901       0.0136244572    -0.000152084739    -0.000219835819        0.989115518       -0.127430889
                      0.989277915        -0.12645058    -0.000152084739    -0.000219835819      0.00236378167       0.0114886744     0.000598615276      0.00510745817
                  -0.000154748458     -0.00021835893        0.989115518       -0.127430889     0.000598615276      0.00510745817      0.00278211708       0.0135889238

           1.8e+09      0.0027362365       0.0136629116      0.00137506014      0.00598200761        0.985407703       -0.151197795    -0.000196601763    -0.000249997357
                    0.00137506014      0.00598200761      0.00301278448       0.0162177263     -0.00019295025    -0.000252459945        0.985178618       -0.152365105
                      0.985407703       -0.151197795     -0.00019295025    -0.000252459945      0.00303337485       0.0136532599     0.000813307065      0.00609100901
                  -0.000196601763    -0.000249997357        0.985178618       -0.152365105     0.000813307065      0.00609100901      0.00362527385       0.0161479398

           2.1e+09     0.00341318109       0.0158154172      0.00181734578      0.00689745154        0.980944231       -0.175798358    -0.000244460344    -0.000277711154
                    0.00181734578      0.00689745154      0.00378032557       0.0187836589    -0.000239760165    -0.000281509736        0.980635313       -0.177150307
                      0.980944231       -0.175798358    -0.000239760165    -0.000281509736      0.00381983358       0.0157880419      0.00106034232      0.00706290321
                  -0.000244460344    -0.000277711154        0.980635313       -0.177150307      0.00106034232      0.00706290321      0.00461187078       0.0186643223

           2.4e+09     0.00416580876        0.017934817      0.00231885527       0.0077824229        0.975864192       -0.200246063    -0.000297242436    -0.000302079463
                    0.00231885527       0.0077824229      0.00463804115        0.021313726    -0.000291499528    -0.000307595906        0.975466104       -0.201776125
                      0.975864192       -0.200246063    -0.000291499528    -0.000307595906      0.00469896009       0.0178810602       0.0013401948      0.00802092118
                  -0.000297242436    -0.000302079463        0.975466104       -0.201776125       0.0013401948      0.00802092118      0.00572066061       0.0211269764

           2.7e+09     0.00500620823       0.0200194825      0.00287744911      0.00863418528        0.970182367        -0.22452873    -0.000355076327    -0.000322358373
                    0.00287744911      0.00863418528      0.00559616472       0.0238042816    -0.000348352879    -0.000330008672        0.969684197       -0.226232135
                      0.970182367        -0.22452873    -0.000348352879    -0.000330008672      0.00568207781       0.0199297906      0.00165193161      0.00896422764
                  -0.000355076327    -0.000322358373        0.969684197       -0.226232135      0.00165193161      0.00896422764      0.00696027218       0.0235301375

             3e+09      0.0059357045       0.0220653918      0.00349116794      0.00944987939        0.963904218       -0.248634717    -0.000417641482    -0.000337936719
                    0.00349116794      0.00944987939      0.00665643012       0.0262502874    -0.000410050149    -0.000348160948        0.963295792       -0.250506592
                      0.963904218       -0.248634717    -0.000410050149    -0.000348160948      0.00676974888       0.0219285653      0.00199494652      0.00989180057
                  -0.000417641482    -0.000337936719        0.963295792       -0.250506592      0.00199494652      0.00989180057      0.00833074773       0.0258663766

           3.3e+09     0.00695020253        0.024071156      0.00415690067       0.0102260564        0.957031574       -0.272548359    -0.000485451411    -0.000348682182
                    0.00415690067       0.0102260564      0.00781378452       0.0286550036    -0.000477208144    -0.000361992706        0.956302786       -0.274578642
                      0.957031574       -0.272548359    -0.000477208144    -0.000361992706      0.00795838135       0.0238746563      0.00236767779       0.0108021918
                  -0.000485451411    -0.000348682182        0.956302786       -0.274578642      0.00236767779       0.0108021918      0.00982737012       0.0281354182

           3.6e+09     0.00804917814       0.0260262511      0.00487399299       0.0109597165        0.949568694       -0.296263378    -0.000556550474    -0.000354603717
                    0.00487399299       0.0109597165      0.00906838276       0.0309992364    -0.000547971994    -0.000371409217        0.948709976       -0.298449772
                      0.949568694       -0.296263378    -0.000547971994    -0.000371409217      0.00924537563       0.0257569662      0.00277090019       0.0116937992
                  -0.000556550474    -0.000354603717        0.948709976       -0.298449772      0.00277090019       0.0116937992       0.0114464897       0.0303174392

           3.9e+09     0.00923177678       0.0279287252      0.00563904876       0.0116481945        0.941522504       -0.319764752    -0.000631346007     -0.00035505405
                    0.00563904876       0.0116481945       0.0104186679       0.0332870213    -0.000622799212    -0.000375843263        0.940524853       -0.322097678
                      0.941522504       -0.319764752    -0.000622799212    -0.000375843263       0.0106301175       0.0275721719      0.00320292051       0.0125658321
                  -0.000631346007     -0.00035505405        0.940524853       -0.322097678      0.00320292051       0.0125658321       0.0131865372       0.0324139727

           4.2e+09      0.0104971324       0.0297818245      0.00644870548       0.0122898672         0.93290041       -0.343033075    -0.000710027694    -0.000348947373
                    0.00644870548       0.0122898672       0.0118644852        0.035516479     -0.00070191924    -0.000374168504        0.931754944       -0.345507151
                       0.93290041       -0.343033075     -0.00070191924    -0.000374168504       0.0121104801       0.0293207088      0.00366222805       0.0134178576
                  -0.000710027694    -0.000348947373        0.931754944       -0.345507151      0.00366222805       0.0134178576       0.0150438461       0.0344200128

           4.5e+09      0.0118384145       0.0315733472      0.00730039654       0.0128804629        0.923703742       -0.366060948    -0.000791766007    -0.000337317947
                    0.00730039654       0.0128804629       0.0133960235       0.0376792678    -0.000784615015    -0.000367478534        0.922400657       -0.368666836
                      0.923703742       -0.366060948    -0.000784615015    -0.000367478534        0.013679777       0.0309911042      0.00414816686       0.0142473684
                  -0.000791766007    -0.000337317947        0.922400657       -0.368666836      0.00414816686       0.0142473684       0.0170095864       0.0363263138

           4.8e+09      0.0132568589       0.0332987238      0.00819238467       0.0134183924        0.913942054       -0.388838777    -0.000875024956    -0.000319692884
                    0.00819238467       0.0134183924       0.0150175766       0.0397691424    -0.000869397831    -0.000355162682        0.912474633       -0.391566909
                      0.913942054       -0.388838777    -0.000869397831    -0.000355162682       0.0153375741       0.0325772189      0.00466081494       0.0150538188
                  -0.000875024956    -0.000319692884        0.912474633       -0.391566909      0.00466081494       0.0150538188        0.019083567       0.0381251665

           5.1e+09      0.0147471524       0.0349572178       0.0091204845       0.0139013172         0.90362006       -0.411349181    -0.000960342724    -0.000295921214
                     0.0091204845       0.0139013172       0.0167225022       0.0417846095    -0.000956900559    -0.000337052937        0.901980912       -0.414190812
                       0.90362006       -0.411349181    -0.000956900559    -0.000337052937       0.0170776746       0.0340776186      0.00519794217       0.0158360027
                  -0.000960342724    -0.000295921214        0.901980912       -0.414190812      0.00519794217       0.0158360027       0.0212574317       0.0398129274

           5.4e+09      0.0163105966       0.0365480334       0.0100821077       0.0143281368         0.89274871       -0.433579001      -0.0010463523    -0.000265220248
                     0.0100821077       0.0143281368        0.018511448       0.0437234654     -0.00104597326    -0.000312431679        0.890930853       -0.436525134
                       0.89274871       -0.433579001     -0.00104597326    -0.000312431679       0.0188988404       0.0354878944      0.00575936489       0.0165935163
                    -0.0010463523    -0.000265220248        0.890930853       -0.436525134      0.00575936489       0.0165935163       0.0235289698       0.0413842414

           5.7e+09      0.0179368258       0.0380636433       0.0110728853       0.0146954888        0.881329948       -0.455516218     -0.00113362684    -0.000228491796
                     0.0110728853       0.0146954888       0.0203736801        0.045578825     -0.00113704946    -0.000282266734        0.879326375        -0.45855733
                      0.881329948       -0.455516218     -0.00113704946    -0.000282266734        0.020792857       0.0368025419      0.00634279515       0.0173244038
                   -0.00113362684    -0.000228491796        0.879326375        -0.45855733      0.00634279515       0.0173244038       0.0258874055       0.0428332567

             6e+09      0.0196258628       0.0395027071       0.0120897569       0.0150020508        0.869374036       -0.477147184     -0.00122089691    -0.000185310126
                     0.0120897569       0.0150020508        0.022306727        0.047347601     -0.00122958552      -0.0002455885        0.867177229         -0.4802744
                      0.869374036       -0.477147184     -0.00122958552      -0.0002455885       0.0227562624       0.0380201316       0.0069475507       0.0180289394
                   -0.00122089691    -0.000185310126        0.867177229         -0.4802744       0.0069475507       0.0180289394       0.0283282796       0.0441557035

           6.3e+09      0.0213745225       0.0408613832       0.0131303436       0.0152463203        0.856888459       -0.498461674     -0.00130773889    -0.000136063896
                     0.0131303436       0.0152463203       0.0243119356       0.0490261201      -0.0013222723     -0.00020367792        0.854494335       -0.501664699
                      0.856888459       -0.498461674      -0.0013222723     -0.00020367792       0.0247835947       0.0391325535      0.00757195398       0.0187047866
                   -0.00130773889    -0.000136063896        0.854494335       -0.501664699      0.00757195398       0.0187047866       0.0308449202       0.0453462913

           6.6e+09      0.0231774453       0.0421379745       0.0141899863       0.0154282244        0.843881921       -0.519445816     -0.00139379383    -8.08336055e-05
                     0.0141899863       0.0154282244       0.0263811541       0.0506167703     -0.00141481859    -0.000154792909        0.841285443         -0.5227132
                      0.843881921       -0.519445816     -0.00141481859    -0.000154792909       0.0268713587       0.0401385118      0.00821537047       0.0193516606
                   -0.00139379383    -8.08336055e-05        0.841285443         -0.5227132      0.00821537047       0.0193516606       0.0334308268       0.0464004183

           6.9e+09      0.0250302013       0.0433297935       0.0152647321       0.0155456003        0.830362069        -0.54008765     -0.00147842607    -1.97824718e-05
                     0.0152647321       0.0155456003        0.028508975       0.0521121826     -0.00150743669     -0.00010002725        0.827559099        -0.54340915
                      0.830362069        -0.54008765     -0.00150743669     -0.00010002725       0.0290127446        0.041034709      0.00887620319       0.0199688368
                   -0.00147842607    -1.97824718e-05        0.827559099        -0.54340915      0.00887620319       0.0199688368       0.0360795774       0.0473148024

           7.2e+09      0.0269281121       0.0444339763       0.0163509867       0.0155973559        0.816337827       -0.560375461     -0.00156132925     4.69454277e-05
                     0.0163509867       0.0155973559       0.0306921564       0.0535093459      -0.0015993232    -3.96521303e-05        0.813324884       -0.563740502
                      0.816337827       -0.560375461      -0.0015993232    -3.96521303e-05       0.0312025795       0.0418182491      0.00955311109       0.0205557309
                   -0.00156132925     4.69454277e-05        0.813324884       -0.563740502      0.00955311109       0.0205557309       0.0387833351       0.0480865422

           7.5e+09      0.0288676763       0.0454471715       0.0174450358       0.0155825389        0.801818684       -0.580298073     -0.00164210424     0.000118775687
                     0.0174450358       0.0155825389       0.0329262976       0.0548057961     -0.00169003227     2.60528145e-05        0.798592369       -0.583695592
                      0.801818684       -0.580298073     -0.00169003227     2.60528145e-05       0.0334353092       0.0424863015       0.0102445697       0.0211115382
                   -0.00164210424     0.000118775687        0.798592369       -0.583695592       0.0102445697       0.0211115382       0.0415342541       0.0487122415

           7.8e+09      0.0308477452       0.0463667631       0.0185433056        0.015500828         0.78681427       -0.599846161     -0.00172069553     0.000195382644
                     0.0185433056        0.015500828        0.035205275       0.0559992881     -0.00177996291     9.64216984e-05        0.783370967        -0.60326337
                       0.78681427       -0.599846161     -0.00177996291     9.64216984e-05       0.0357047374       0.0430322915       0.0109477586       0.0216351173
                   -0.00172069553     0.000195382644        0.783370967        -0.60326337       0.0109477586       0.0216351173       0.0443240112       0.0491863552

           8.1e+09      0.0328575752       0.0471972727       0.0196413186       0.0153524801        0.771333331        -0.61900317      -0.0017947299     0.000276512483
                     0.0196413186       0.0153524801        0.037526509       0.0570871272     -0.00186809304      0.00017221236        0.767672222       -0.622430945
                      0.771333331        -0.61900317     -0.00186809304      0.00017221236       0.0380049033       0.0434606372       0.0116642982       0.0221264052
                    -0.0017947299     0.000276512483        0.767672222       -0.622430945       0.0116642982       0.0221264052       0.0471479263       0.0495145712

           8.4e+09      0.0348970927       0.0479338632       0.0207362569       0.0151375705        0.755386173       -0.637760619     -0.00186604104      0.00036190712
                     0.0207362569       0.0151375705       0.0398806579       0.0580741032     -0.00195357586     0.000253485352        0.751505267       -0.641187435
                      0.755386173       -0.637760619     -0.00195357586     0.000253485352        0.040327533       0.0437668097       0.0123900737       0.0225852987
