! Created Wed Apr 21 15:05:08 2021
! List of port names and net name(s): example Port n = <port_name> <net_name1> <net_name2> ...
! Port 1 = P1 P2 gnd! 
! Port 2 = P2 P2 P4 
# hz S ri R 50
! 2 Port Network Data from data block
! freq  reS11  imS11  reS21  imS21  reS12  imS12  reS22  imS22  
!     
                 0    0.000252031364    -2.75122366e-09        0.999747967     -1.3055699e-07        0.999747967     -1.3055699e-07     0.000252031494     -2.7466226e-09
         300000000    0.000564071356       0.0003610727        0.998489168      -0.0319701574        0.998489168      -0.0319701574     0.000566918367     0.000362956127
         600000000    0.000732392312       0.0004328392        0.996398642      -0.0632038111        0.996398642      -0.0632038111     0.000745060333     0.000436335502
         900000000    0.000806496144     0.000471681697        0.993436344      -0.0941692201        0.993436344      -0.0941692201     0.000836015198     0.000475977001
           1.2e+09    0.000835115504     0.000512251036         0.98957037        -0.12492612         0.98957037        -0.12492612     0.000888108428     0.000515554111
           1.5e+09    0.000835880031     0.000559278371        0.984788523       -0.155475935        0.984788523       -0.155475935     0.000919655175      0.00055987895
           1.8e+09    0.000818590294     0.000613554428        0.979091831       -0.185806216        0.979091831       -0.185806216     0.000940686045      0.00060827685
           2.1e+09    0.000781530692     0.000676642919         0.97247669       -0.215900958         0.97247669       -0.215900958     0.000948213864     0.000660873934
           2.4e+09    0.000740243173     0.000747469852        0.964963014        -0.24573467        0.964963014        -0.24573467     0.000959006837     0.000716954259
           2.7e+09    0.000688690452     0.000820090084        0.956547322       -0.275293895        0.956547322       -0.275293895     0.000965588384     0.000769999773
             3e+09    0.000635534234     0.000901794823        0.947247944       -0.304545692        0.947247944       -0.304545692     0.000976320512      0.00082492516
           3.3e+09    0.000570707641     0.000986112531        0.937060723       -0.333475399        0.937060723       -0.333475399     0.000983883591     0.000876511208
           3.6e+09    0.000501631935      0.00107462598        0.926002409       -0.362055912        0.926002409       -0.362055912      0.00099310681     0.000924601786
           3.9e+09    0.000427742818      0.00116894704        0.914081452       -0.390261577        0.914081452       -0.390261577      0.00100271255     0.000972986681
           4.2e+09     0.00034596438      0.00126411167        0.901310377       -0.418069202        0.901310377       -0.418069202      0.00101189608      0.00101021239
           4.5e+09    0.000263644737      0.00137053118        0.887703229       -0.445453173        0.887703229       -0.445453173      0.00102527101      0.00104605502
           4.8e+09     0.00017637621      0.00147352258        0.873270571       -0.472393975        0.873270571       -0.472393975      0.00103672365      0.00107232724
           5.1e+09    8.25605447e-05      0.00157844247        0.858026421       -0.498866586        0.858026421       -0.498866586      0.00104973393      0.00108860337
           5.4e+09   -1.81155521e-05      0.00168351635         0.84198435       -0.524848122         0.84198435       -0.524848122      0.00106325461       0.0010957015
           5.7e+09   -0.000124586113      0.00179427964        0.825159315       -0.550313932        0.825159315       -0.550313932      0.00107096386      0.00108746931
             6e+09   -0.000231775923      0.00190894996        0.807570056       -0.575241104        0.807570056       -0.575241104      0.00107575349      0.00107101004
           6.3e+09   -0.000351979979      0.00202708312        0.789229253       -0.599609339        0.789229253       -0.599609339      0.00108043866      0.00103790265
           6.6e+09    -0.00048060494      0.00214608334        0.770154977       -0.623394505        0.770154977       -0.623394505      0.00107986852     0.000999268641
           6.9e+09   -0.000617487797      0.00226726165        0.750363223       -0.646577595        0.750363223       -0.646577595      0.00106803566     0.000944391274
           7.2e+09   -0.000763668811      0.00239287534        0.729873096       -0.669137032        0.729873096       -0.669137032       0.0010464655     0.000873719951
           7.5e+09   -0.000915184394      0.00252643669         0.70870559       -0.691053154         0.70870559       -0.691053154      0.00101913422     0.000786824879
           7.8e+09    -0.00108034622      0.00266171044        0.686876978       -0.712304373        0.686876978       -0.712304373     0.000980247153     0.000686804294
           8.1e+09    -0.00125559827      0.00280414606        0.664408177         -0.7328725        0.664408177         -0.7328725     0.000927315609     0.000571767955
           8.4e+09    -0.00144436866      0.00295564834        0.641319068        -0.75273773        0.641319068        -0.75273773     0.000860427694       0.0004427071
           8.7e+09    -0.00163811346      0.00311362974        0.617632462       -0.771882776        0.617632462       -0.771882776     0.000777892224     0.000298844119
             9e+09    -0.00185073743      0.00328492857        0.593366807       -0.790288705        0.593366807       -0.790288705     0.000677437984     0.000141502532
           9.3e+09     -0.0020733277       0.0034659292        0.568545749       -0.807939846        0.568545749       -0.807939846     0.000558375833    -2.92904274e-05
           9.6e+09     -0.0023073206      0.00366033285        0.543193557       -0.824819469        0.543193557       -0.824819469      0.00042236973    -0.000213791314
           9.9e+09    -0.00255094032      0.00386773591        0.517327719       -0.840909762        0.517327719       -0.840909762     0.000259799088    -0.000407654443
          1.02e+10    -0.00280647453      0.00409346133        0.490975677       -0.856198559        0.490975677       -0.856198559     7.58826642e-05     -0.00061704659
          1.05e+10    -0.00307291761      0.00433629343        0.464159872       -0.870666983        0.464159872       -0.870666983    -0.000130404939     -0.00082864732
          1.08e+10    -0.00334744756      0.00459783706        0.436903106       -0.884304855        0.436903106       -0.884304855    -0.000363995376     -0.00105218639
          1.11e+10    -0.00362945563      0.00488086824        0.409231327        -0.89709791        0.409231327        -0.89709791    -0.000621399029      -0.0012844396
          1.14e+10    -0.00391769102      0.00518673717         0.38116747       -0.909033065         0.38116747       -0.909033065    -0.000905486156     -0.00152220024
          1.17e+10    -0.00421027123      0.00551643503        0.352736467       -0.920098248        0.352736467       -0.920098248      -0.0012154477     -0.00176429153
           1.2e+10    -0.00450366376      0.00587221552        0.323962755       -0.930281621        0.323962755       -0.930281621     -0.00155196074     -0.00200890319
          1.23e+10    -0.00479656903      0.00625395325        0.294870182       -0.939572044        0.294870182       -0.939572044     -0.00191467767     -0.00225397803
          1.26e+10    -0.00508385331      0.00666194564        0.265483906       -0.947960009        0.265483906       -0.947960009      -0.0023019604     -0.00249820329
          1.29e+10    -0.00536498934      0.00709894892        0.235827409       -0.955435122        0.235827409       -0.955435122     -0.00271177074      -0.0027414112
          1.32e+10    -0.00563164346      0.00757250768        0.205926031       -0.961986027        0.205926031       -0.961986027     -0.00314203858     -0.00298120838
          1.35e+10    -0.00586957396      0.00807433831        0.175803232       -0.967605882        0.175803232       -0.967605882     -0.00358909432     -0.00321574461
          1.38e+10    -0.00608555658      0.00858979189        0.145477161         -0.9722864        0.145477161         -0.9722864     -0.00404662926     -0.00344415991
          1.41e+10    -0.00625993353      0.00912937852        0.114970906       -0.976016325        0.114970906       -0.976016325     -0.00450811709     -0.00366660065
          1.44e+10    -0.00638518176      0.00968965171       0.0843019942       -0.978784366       0.0843019942       -0.978784366     -0.00496299017     -0.00388392101
          1.47e+10    -0.00644604896       0.0102557661       0.0534842806       -0.980579153       0.0534842806       -0.980579153     -0.00539688525      -0.0040982844
           1.5e+10    -0.00642143949       0.0108127413       0.0225267072       -0.981385482       0.0225267072       -0.981385482     -0.00578974208     -0.00431665674
          1.53e+10    -0.00628317802       0.0113399244     -0.00856854315       -0.981180441     -0.00856854315       -0.981180441     -0.00611205598     -0.00454604729
          1.56e+10    -0.00599508757       0.0117928409      -0.0398142141       -0.979934332      -0.0398142141       -0.979934332     -0.00631717355     -0.00481118069
          1.59e+10    -0.00550315972       0.0121185592      -0.0712416463       -0.977585427      -0.0712416463       -0.977585427     -0.00633598486     -0.00513785401
          1.62e+10    -0.00472030749       0.0121851695        -0.10291961       -0.974040283        -0.10291961       -0.974040283     -0.00605978776     -0.00561020933
          1.65e+10    -0.00352830245       0.0117659485       -0.134976918       -0.969096038       -0.134976918       -0.969096038     -0.00529464476     -0.00638731521
          1.68e+10    -0.00176029446       0.0103415283       -0.167643811       -0.962295721       -0.167643811       -0.962295721     -0.00371316547     -0.00784105439
          1.71e+10    0.000702194215      0.00663146546       -0.201240702       -0.952437199       -0.201240702       -0.952437199    -0.000740739892      -0.0110618961
          1.74e+10     0.00264424622      -0.0030234682       -0.235280814       -0.935801476       -0.235280814       -0.935801476      0.00390247954      -0.0196798973
          1.77e+10    -0.00970122401      -0.0245000341       -0.257741623       -0.904132193       -0.257741623       -0.904132193     0.000370935575      -0.0438815678
           1.8e+10     -0.0513949374      -0.0113657774       -0.245269602       -0.898806242       -0.245269602       -0.898806242      -0.0415525353      -0.0487095987
          1.83e+10     -0.0477480236        0.019368323       -0.272339152       -0.918011209       -0.272339152       -0.918011209      -0.0504701316       -0.021525923
          1.86e+10     -0.0377732092       0.0288682364       -0.309195045       -0.917195477       -0.309195045       -0.917195477      -0.0461381375       -0.010552008
          1.89e+10     -0.0317643606       0.0326052153       -0.343010079       -0.909135281       -0.343010079       -0.909135281       -0.043222104     -0.00607317086
          1.92e+10     -0.0280307044       0.0349387539       -0.374524519       -0.898324406       -0.374524519       -0.898324406      -0.0418526383     -0.00366165548
          1.95e+10     -0.0254636765       0.0368960997       -0.404558906       -0.885960143       -0.404558906       -0.885960143       -0.041449558     -0.00201343115
          1.98e+10      -0.023529506       0.0387747702       -0.433537999       -0.872437126       -0.433537999       -0.872437126      -0.0416549214     -0.00067008495
          2.01e+10     -0.0219492086       0.0406698206       -0.461678999       -0.857911221       -0.461678999       -0.857911221      -0.0422632905     0.000560595953
          2.04e+10     -0.0205595894       0.0426162893       -0.489093351       -0.842456583       -0.489093351       -0.842456583      -0.0431538139      0.00177428029
          2.07e+10     -0.0192678432       0.0446281798       -0.515837555       -0.826112621       -0.515837555       -0.826112621      -0.0442512823      0.00302116032
           2.1e+10     -0.0180139034       0.0467125477       -0.541942429       -0.808905363       -0.541942429       -0.808905363      -0.0455091703      0.00433533185
          2.13e+10     -0.0167558982        0.048876551       -0.567416405       -0.790851025       -0.567416405       -0.790851025      -0.0468934935      0.00574652481
          2.16e+10     -0.0154614218       0.0511196486       -0.592260345       -0.771957571       -0.592260345       -0.771957571      -0.0483847073      0.00727058992
          2.19e+10     -0.0141179384       0.0534535856       -0.616469716       -0.752232189       -0.616469716       -0.752232189      -0.0499651953      0.00893905751
          2.22e+10     -0.0126971909       0.0558937932       -0.640035931       -0.731668363       -0.640035931       -0.731668363      -0.0516283665       0.0107803173
          2.25e+10     -0.0111918829       0.0584663346       -0.662946298       -0.710248798       -0.662946298       -0.710248798      -0.0533672988       0.0128393617
          2.28e+10    -0.00958183203       0.0612244983       -0.685185718       -0.687928196       -0.685185718       -0.687928196      -0.0551760104       0.0151890083
          2.31e+10     -0.0078445094        0.064261685       -0.706726403       -0.664613723       -0.706726403       -0.664613723      -0.0570503303       0.0179594364
          2.34e+10    -0.00590591743        0.067781758       -0.727499823       -0.640092743       -0.727499823       -0.640092743      -0.0589405356       0.0214076403
          2.37e+10    -0.00351143042       0.0722213994       -0.747249861       -0.613876376       -0.747249861       -0.613876376      -0.0606251705       0.0261138543
           2.4e+10    0.000531509869       0.0785560728       -0.764739347       -0.584826271       -0.764739347       -0.584826271      -0.0608574801       0.0334312971
          2.43e+10      0.0124023132       0.0860912936       -0.773189594       -0.553239047       -0.773189594       -0.553239047      -0.0522458711       0.0435900157
          2.46e+10      0.0275625647        0.073408688       -0.775878915       -0.542789707       -0.775878915       -0.542789707      -0.0365667881       0.0305838698
          2.49e+10      0.0207071399       0.0662348342       -0.802306493       -0.527418649       -0.802306493       -0.527418649      -0.0479295928       0.0205409295
          2.52e+10      0.0181525739       0.0685842601       -0.824128076       -0.500765597       -0.824128076       -0.500765597      -0.0559913273       0.0225705927
          2.55e+10       0.018837168        0.071685046       -0.841816752       -0.472459803       -0.841816752       -0.472459803      -0.0605526805        0.026172967
          2.58e+10       0.020914917       0.0746173021       -0.857300845       -0.443655517       -0.857300845       -0.443655517      -0.0636368725       0.0299659114
          2.61e+10      0.0237742083       0.0774041538       -0.871231509       -0.414383769       -0.871231509       -0.414383769      -0.0659645367       0.0338712979
          2.64e+10      0.0272307639       0.0801716459       -0.883792714       -0.384535307       -0.883792714       -0.384535307       -0.067753259       0.0379871886
          2.67e+10      0.0313439019       0.0831019104        -0.89490665       -0.353935907        -0.89490665       -0.353935907       -0.068944562       0.0424502358
           2.7e+10      0.0365161693        0.086448388       -0.904098844       -0.322373379       -0.904098844       -0.322373379      -0.0690952389       0.0473589212
          2.73e+10      0.0441701056       0.0902702168        -0.90992671       -0.290061505        -0.90992671       -0.290061505      -0.0669560565       0.0521192573
          2.76e+10       0.057124918       0.0912143015       -0.910504592       -0.260829253       -0.910504592       -0.260829253      -0.0620535713       0.0525169107
          2.79e+10      0.0688227151        0.081738246       -0.914006495       -0.239589391       -0.914006495       -0.239589391      -0.0641790787       0.0464358407
          2.82e+10      0.0712699269       0.0723355248       -0.924197782       -0.212601204       -0.924197782       -0.212601204      -0.0744895068       0.0499396737
          2.85e+10      0.0723731297       0.0624894552       -0.926367536       -0.183362056       -0.926367536       -0.183362056      -0.0759741058       0.0610849058
          2.88e+10         0.0627446       0.0562128526        -0.93096409       -0.162564383        -0.93096409       -0.162564383      -0.0697630308       0.0650893619
          2.91e+10      0.0573698258       0.0627279879       -0.942470568       -0.135943883       -0.942470568       -0.135943883       -0.069511455       0.0637151574
          2.94e+10       0.059862061       0.0686105829       -0.950358962       -0.104127999       -0.950358962       -0.104127999      -0.0721711402       0.0651834274
          2.97e+10      0.0645979385       0.0717869246       -0.954774377      -0.0716554195       -0.954774377      -0.0716554195      -0.0745118401       0.0683953173
             3e+10      0.0698502197       0.0733114541       -0.957017343      -0.0394143954       -0.957017343      -0.0394143954      -0.0762643062       0.0722819603
