# Hz	S	RI	R	50.000000 
0.0 0.7832623929999999 -8.10990054e-06 
300000000.0 0.7566211076 -0.19941242417000002 
600000000.0 0.6805380188400001 -0.38414759379999996 
900000000.0 0.5610761288 -0.5419606064 
1200000000.0 0.407523684 -0.663131867 
1500000000.0 0.231128307 -0.7410011127 
1800000000.0 0.0440115573 -0.77238894623 
2100000000.0 -0.1419753946 -0.75742782038 
2400000000.0 -0.3157006064 -0.69913574018 
2700000000.0 -0.4679024699 -0.60284252103 
3000000000.0 -0.5910923959000001 -0.47556534545 
3300000000.0 -0.6799761902 -0.32523390631 
3600000000.0 -0.731051204 -0.160487047937 
3900000000.0 -0.7427608222000001 0.0098661394 
4200000000.0 -0.7153248446 0.17712434722999998 
4500000000.0 -0.6506240705 0.33292405748 
4800000000.0 -0.5521138882 0.46945581604 
5100000000.0 -0.4247532648 0.57968792372 
5400000000.0 -0.27492544129999996 0.65762725807 
5700000000.0 -0.11031741525 0.69862349693 
6000000000.0 0.06028244455 0.6997111269899999 
6300000000.0 0.227310305 0.65995828193 
6600000000.0 0.3808980702 0.5807664724000001 
6900000000.0 0.5114903272 0.4660493886 
7200000000.0 0.6105664022 0.3222064308 
7500000000.0 0.67137526202 0.15782583463 
7800000000.0 0.68954129139 -0.01661644495 
8100000000.0 0.6638995770399999 -0.18958774386 
8400000000.0 0.59760044302 -0.35019321976999995 
8700000000.0 0.49418891409000004 -0.48913036053 
9000000000.0 0.3607603909 -0.5972705305200001 
9300000000.0 0.20657157330000003 -0.66885894201 
9600000000.0 0.0415978215 -0.70070786932 
9900000000.0 -0.1241117975 -0.69228368894 
10200000000.0 -0.28109339190000004 -0.6454729713009999 
10500000000.0 -0.42097418620000004 -0.564193488961 
10800000000.0 -0.5368057862 -0.453940178793 
11100000000.0 -0.6232377303000001 -0.32133535195999996 
11400000000.0 -0.6765746915999999 -0.17372759703 
11700000000.0 -0.6947651142000001 -0.018851263809999998 
12000000000.0 -0.6773557353999999 0.13545500252999998 
12300000000.0 -0.6254401709 0.28148732140000005 
12600000000.0 -0.5416134968999999 0.4119022753 
12900000000.0 -0.42992784390000005 0.5199517582100001 
13200000000.0 -0.29583379079999994 0.5997453485199999 
13500000000.0 -0.14607795350000002 0.6465520999 
13800000000.0 0.011478284300000002 0.65713262985 
14100000000.0 0.1681494368 0.6300737402500001 
14400000000.0 0.3148498735 0.5660795722 
14700000000.0 0.4426499567 0.4681537198 
15000000000.0 0.5434259926999999 0.3416047413 
15300000000.0 0.6105442817 0.1938421459 
15600000000.0 0.63952916634 0.034158159310000005 
15900000000.0 0.6285524311799999 -0.1273722163 
16200000000.0 0.5788380612 -0.28091121964 
16500000000.0 0.49405861058 -0.416759287292 
16800000000.0 0.37964518572000006 -0.52751285616 
17100000000.0 0.24317345689999997 -0.60651026189 
17400000000.0 0.09339823209999999 -0.65008219133 
17700000000.0 -0.060640935550000004 -0.65687918594 
18000000000.0 -0.21021513520000001 -0.6277311221899999 
18300000000.0 -0.3473688212 -0.56537619471 
18600000000.0 -0.46525589743 -0.47410470627 
18900000000.0 -0.5583393935900001 -0.35938752598 
19200000000.0 -0.6224910892 -0.22752944374 
19500000000.0 -0.6550226022000001 -0.08536576207999999 
19800000000.0 -0.6546797339 0.05999177745 
20100000000.0 -0.6216280173 0.2013802266 
20400000000.0 -0.5574388162 0.331794488 
20700000000.0 -0.46507833460000003 0.4446053754 
21000000000.0 -0.34887932769999996 0.5338114854 
21300000000.0 -0.2144815839 0.59431835027 
21600000000.0 -0.068706453 0.6222566732529999 
21900000000.0 0.08066739939999999 0.61531564226 
22200000000.0 0.22524658079999998 0.5730527907999999 
22500000000.0 0.35650179130000004 0.49712412380000004 
22800000000.0 0.46634396729999994 0.3913755571 
23100000000.0 0.5477538559 0.2617647113 
23400000000.0 0.5954623484000001 0.1160744826 
23700000000.0 0.6064595992499999 -0.03659663315 
24000000000.0 0.5802376149199999 -0.18711358213 
24300000000.0 0.51875229152 -0.32616945733 
24600000000.0 0.42637544085 -0.44540599434 
24900000000.0 0.30911801904 -0.538421112113 
25200000000.0 0.17447998959 -0.6003205328729999 
25500000000.0 0.030621330710000002 -0.628482241946 
25800000000.0 -0.11422324937 -0.6224180930400001 
26100000000.0 -0.25225265604 -0.58352229934 
26400000000.0 -0.37646799266 -0.5147956386499999 
26700000000.0 -0.48092012188 -0.42052961153 
27000000000.0 -0.56085352978 -0.30599643655000003 
27300000000.0 -0.61277494526 -0.1771862708 
27600000000.0 -0.634514114 -0.04045784445 
27900000000.0 -0.6251644715 0.0975065541 
28200000000.0 -0.585145483 0.2300092653 
28500000000.0 -0.5161957409 0.3505062506 
28800000000.0 -0.4213766267 0.4528262595 
29100000000.0 -0.3050578105 0.5314198785 
29400000000.0 -0.1728557222 0.58165193422 
29700000000.0 -0.03149618353 0.6001238621781999 
30000000000.0 0.1114262544 0.5850024812999999 
