# Hz	S	RI	R	50.000000 
0.0 0.3033818039999999 -4.17956172e-06 
300000000.0 0.29713995316700004 -0.07787347941999999 
600000000.0 0.26870539729000004 -0.15351303881 
900000000.0 0.22211437834999997 -0.2188278921 
1200000000.0 0.16123230692 -0.27005777620000004 
1500000000.0 0.0902541268 -0.3043751483 
1800000000.0 0.0138012609 -0.3200973347 
2100000000.0 -0.06340729595 -0.316767913 
2400000000.0 -0.1366510594 -0.2950449879 
2700000000.0 -0.2017707439 -0.25670670290000003 
3000000000.0 -0.2551588538 -0.20440227733 
3300000000.0 -0.29412481739999996 -0.14143565964 
3600000000.0 -0.3167233641 -0.07159479392000001 
3900000000.0 -0.3219705262 0.00106895956 
4200000000.0 -0.30982252909999997 0.072444782962 
4500000000.0 -0.2811459936 0.13855021939 
4800000000.0 -0.2376665999 0.19571087400999998 
5100000000.0 -0.18189001110000003 0.24072896858999998 
5400000000.0 -0.11699426755 0.27104226556 
5700000000.0 -0.04668959735 0.2848669948 
6000000000.0 0.02495632025 0.281317981 
6300000000.0 0.0937283489 0.2604945991 
6600000000.0 0.1555026415 0.22351742349999998 
6900000000.0 0.20650198773 0.1725021329 
7200000000.0 0.24354720567 0.11045594440999999 
7500000000.0 0.26427572102999997 0.04108699299 
7800000000.0 0.26726941681 -0.03126996421 
8100000000.0 0.25236269583 -0.101957151415 
8400000000.0 0.22140111966 -0.16662384892 
8700000000.0 0.17566513928 -0.22200372271 
9000000000.0 0.11784547756000001 -0.26430504951 
9300000000.0 0.05174743716 -0.29120979628 
9600000000.0 -0.018555697245000002 -0.30133709610000003 
9900000000.0 -0.08887357804999999 -0.294341476 
10200000000.0 -0.1551397154 -0.2708863178 
10500000000.0 -0.2136351313 -0.23255271570000002 
10800000000.0 -0.2611741265 -0.1817038737 
11100000000.0 -0.2952430237 -0.12132226836 
11400000000.0 -0.3140943875 -0.054834543609999994 
11700000000.0 -0.3168031942 0.01406793693 
12000000000.0 -0.3032886036 0.08160636009 
12300000000.0 -0.2743065491 0.14408664253 
12600000000.0 -0.23141577630000001 0.19806784568799998 
12900000000.0 -0.1769160169 0.24052530271 
13200000000.0 -0.113756495 0.26900577898 
13500000000.0 -0.0454108307 0.28177101423999995 
13800000000.0 0.0242845351 0.2779202638 
14100000000.0 0.091326817 0.25747962129999996 
14400000000.0 0.1517734324 0.2214448739 
14700000000.0 0.2019863633 0.1717631263 
15000000000.0 0.2388738208 0.1112425431 
15300000000.0 0.26011224211999995 0.043400550530000005 
15600000000.0 0.26433645156999996 -0.02758318874 
15900000000.0 0.25126029501 -0.09742596951 
16200000000.0 0.22193206644 -0.162133064991 
16500000000.0 0.17820465976 -0.2176352057 
16800000000.0 0.12258807511000001 -0.26126025161000005 
17100000000.0 0.05827860128 -0.29014765738000003 
17400000000.0 -0.010844633494999999 -0.30283757873 
17700000000.0 -0.08075269415 -0.29882257005 
18000000000.0 -0.1475006136 -0.27853878325000003 
18300000000.0 -0.2074246971 -0.2433036142 
18600000000.0 -0.257318516 -0.1952037854 
18900000000.0 -0.2945695063 -0.13695567579999998 
19200000000.0 -0.31725921430000004 -0.07175055815 
19500000000.0 -0.3242289912 -0.003093283880000001 
19800000000.0 -0.3151153551 0.06535829533000001 
20100000000.0 -0.29036045450000003 0.12995525166000002 
20400000000.0 -0.2511977144 0.18721757124 
20700000000.0 -0.1996127199 0.23399393944000002 
21000000000.0 -0.1382724067 0.26762226766999997 
21300000000.0 -0.07042256155 0.28607911171 
21600000000.0 0.0002524736500000013 0.28811625982 
21900000000.0 0.06980958835000001 0.27337047169999995 
22200000000.0 0.13426054710000002 0.24243228429999997 
22500000000.0 0.1898142275 0.1968574237 
22800000000.0 0.2331223252 0.1391119003 
23100000000.0 0.26151152209999995 0.072456902 
23400000000.0 0.27320978143999997 0.00078996893 
23700000000.0 0.26747934084 -0.07157506127999999 
24000000000.0 0.24470863817 -0.14061654959 
24300000000.0 0.20624826339000002 -0.20224110349000002 
24600000000.0 0.15443801962999998 -0.252800165245 
24900000000.0 0.09229650451 -0.28973933051 
25200000000.0 0.023411045449999997 -0.31097229524000003 
25500000000.0 -0.048311371359999994 -0.31546489729 
25800000000.0 -0.11888379464999999 -0.30317490174999995 
26100000000.0 -0.1844913851 -0.27495862160999995 
26400000000.0 -0.24167645780000002 -0.23248403439999998 
26700000000.0 -0.2874876467 -0.17811111279999997 
27000000000.0 -0.3195932868 -0.1147545606 
27300000000.0 -0.3363623896 -0.0457466136 
27600000000.0 -0.33693001170000003 0.025366852250000002 
27900000000.0 -0.32120029149999996 0.0948916396 
28200000000.0 -0.2898775416 0.15919753965 
28500000000.0 -0.2444453042 0.21486025789 
28800000000.0 -0.18712543110000002 0.25882168563 
29100000000.0 -0.12080742575 0.288548490514 
29400000000.0 -0.04894004955 0.30218688976999997 
29700000000.0 0.02461824495 0.29870104672 
30000000000.0 0.09578959249999999 0.27798238383 
