# Hz	S	RI	R	50.000000 
0.0 0.551256862 -6.06145645e-06 
300000000.0 0.534071414819 -0.14025727413 
600000000.0 0.48144257988 -0.27154323982 
900000000.0 0.39803388255 -0.38435024640000004 
1200000000.0 0.29019952250000003 -0.4719251765 
1500000000.0 0.1655164392 -0.5294262007 
1800000000.0 0.032279342550000006 -0.5542559581 
2100000000.0 -0.10121291585 -0.5460565924399999 
2400000000.0 -0.226927623 -0.5064812881199999 
2700000000.0 -0.3379736848 -0.43895925764 
3000000000.0 -0.4285814674 -0.34827685498 
3300000000.0 -0.49453848300000003 -0.24009145060999998 
3600000000.0 -0.5329258285 -0.12073072492999999 
3900000000.0 -0.5423322192 0.003202321005 
4200000000.0 -0.5227722157 0.12509561035 
4500000000.0 -0.47561783550000003 0.23856274177999998 
4800000000.0 -0.4035254278 0.337665445024 
5100000000.0 -0.3103488504 0.41713060601999996 
5400000000.0 -0.20102803959999999 0.47257566992 
5700000000.0 -0.0814362246 0.5007402935799999 
6000000000.0 0.041832781699999995 0.49971635880000004 
6300000000.0 0.1617546399 0.4691543619 
6600000000.0 0.27124474330000004 0.4104116455 
6900000000.0 0.36359858190000005 0.3266036377 
7200000000.0 0.43296962153999996 0.22251490153 
7500000000.0 0.47482612828 0.10434011197000001 
7800000000.0 0.48629363158 -0.02051304986 
8100000000.0 0.46668903627999997 -0.143975473055 
8400000000.0 0.41842477360999997 -0.25841381692000004 
8700000000.0 0.34387981031000003 -0.35751138569 
9000000000.0 0.24785053442 -0.4347684616 
9300000000.0 0.1367918528 -0.48602339272 
9600000000.0 0.0177032373 -0.50883182898 
9900000000.0 -0.10225573555 -0.5025808029800001 
10200000000.0 -0.21621358429999998 -0.46838775814 
10500000000.0 -0.31796335639999995 -0.40888695421 
10800000000.0 -0.40224333030000003 -0.32795258459 
11100000000.0 -0.4649183762 -0.23039950611999999 
11400000000.0 -0.503079953 -0.12169192512999999 
11700000000.0 -0.5150885271 -0.007672175559999999 
12000000000.0 -0.5005755209999999 0.10568514075 
12300000000.0 -0.46042087350000005 0.21249780409 
12600000000.0 -0.396713643 0.30719244257 
12900000000.0 -0.31269289710000003 0.38472136123 
13200000000.0 -0.2126611403 0.44078569802900003 
13500000000.0 -0.1018547935 0.47206730059 
13800000000.0 0.013745252499999996 0.47645843599000004 
14100000000.0 0.1276744251 0.45326843910000003 
14400000000.0 0.23332254100000002 0.4033783574 
14700000000.0 0.3243391162 0.3293060884 
15000000000.0 0.3950747249 0.23514751430000003 
15300000000.0 0.44102115441 0.1263873199 
15600000000.0 0.45922114277000003 0.009759954979999999 
15900000000.0 0.4485564565 -0.10755879995 
16200000000.0 0.41007487611 -0.21863041483999998 
16500000000.0 0.34643469966999996 -0.31652661539 
16800000000.0 0.26152746622 -0.39611601071 
17100000000.0 0.16065140238 -0.45251815876 
17400000000.0 0.05008926505 -0.48299675209 
17700000000.0 -0.06359790480000001 -0.48643878447 
18000000000.0 -0.17398361879999996 -0.46330488943000003 
18300000000.0 -0.2751144698 -0.41548531956 
18600000000.0 -0.3617828832 -0.34608269037 
18900000000.0 -0.4297159546 -0.25916479856 
19200000000.0 -0.47569633869999994 -0.15951407021000003 
19500000000.0 -0.4976289528 -0.05238847774 
19800000000.0 -0.49456976379999995 0.0566973025 
20100000000.0 -0.4667328131 0.16217987960000002 
20400000000.0 -0.41547994349999995 0.25864722976 
20700000000.0 -0.3432946722 0.34104290973999996 
21000000000.0 -0.2537269 0.40488611853 
21300000000.0 -0.1513020749 0.44649656429900003 
21600000000.0 -0.04137567265 0.46322805850000004 
21900000000.0 0.07008240315 0.45369068181000005 
22200000000.0 0.17677777090000002 0.41793497339999996 
22500000000.0 0.2724595693 0.3575631411 
22800000000.0 0.35133224259999996 0.2757361108 
23100000000.0 0.4084804332 0.17706803110000002 
23400000000.0 0.44031203769999994 0.06739955285 
23700000000.0 0.44486688641000005 -0.0465609545 
24000000000.0 0.42198581096 -0.15820900382000003 
24300000000.0 0.37321061783000004 -0.26079727276 
24600000000.0 0.30178396493 -0.34823398965 
24900000000.0 0.21213742657 -0.415910179725 
25200000000.0 0.10975957878999999 -0.46017342010999995 
25500000000.0 0.0006836259499999999 -0.47901220694 
25800000000.0 -0.10892030187999999 -0.47197975892 
26100000000.0 -0.2131307258 -0.44004346089 
26400000000.0 -0.30656337604000006 -0.38542029861000004 
26700000000.0 -0.3845858955 -0.31136961791999995 
27000000000.0 -0.4434642023 -0.22197322174 
27300000000.0 -0.4804536064 -0.12193337060000001 
27600000000.0 -0.4938779728 -0.016288065764999998 
27900000000.0 -0.48310830250000003 0.0896524041 
28200000000.0 -0.4486187782 0.1905783211 
28500000000.0 -0.391975126 0.2813481773 
28800000000.0 -0.31581533660000005 0.35719058642999996 
29100000000.0 -0.223802954 0.41391901085000005 
29400000000.0 -0.12053499825 0.44816407738 
29700000000.0 -0.011389246749999998 0.45760933604 
30000000000.0 0.0977011224 0.44121158278999995 
