# Hz	S	RI	R	50.000000 
0.0 0.0314715911 -2.58190148e-06 
300000000.0 0.0314624348 -0.00258184031 
600000000.0 0.0314349379 -0.00516331874 
900000000.0 0.0313891354 -0.00774407447 
1200000000.0 0.0313250655 -0.0103237485 
1500000000.0 0.0312427816 -0.0129019847 
1800000000.0 0.0311423517 -0.0154784306 
2100000000.0 0.0310238584 -0.0180527385 
2400000000.0 0.0308873984 -0.0206245661 
2700000000.0 0.0307330821 -0.0231935775 
3000000000.0 0.0305610327 -0.0257594439 
3300000000.0 0.0303713864 -0.0283218443 
3600000000.0 0.0301642909 -0.0308804665 
3900000000.0 0.0299399055 -0.0334350071 
4200000000.0 0.0296984001 -0.0359851726 
4500000000.0 0.0294399541 -0.0385306799 
4800000000.0 0.0291647564 -0.0410712563 
5100000000.0 0.028873004 -0.0436066402 
5400000000.0 0.0285649017 -0.0461365816 
5700000000.0 0.0282406607 -0.0486608418 
6000000000.0 0.0279004985 -0.0511791943 
6300000000.0 0.0275446375 -0.0536914242 
6600000000.0 0.0271733048 -0.0561973288 
6900000000.0 0.0267867307 -0.0586967174 
7200000000.0 0.0263851487 -0.0611894113 
7500000000.0 0.0259687942 -0.0636752437 
7800000000.0 0.0255379042 -0.0661540594 
8100000000.0 0.025092716 -0.0686257149 
8400000000.0 0.0246334675 -0.0710900781 
8700000000.0 0.0241603957 -0.0735470277 
9000000000.0 0.0236737365 -0.0759964535 
9300000000.0 0.0231737242 -0.0784382554 
9600000000.0 0.0226605907 -0.0808723435 
9900000000.0 0.0221345656 -0.0832986375 
10200000000.0 0.0215958749 -0.0857170664 
10500000000.0 0.0210447416 -0.0881275681 
10800000000.0 0.0204813845 -0.0905300889 
11100000000.0 0.0199060183 -0.0929245828 
11400000000.0 0.0193188533 -0.0953110118 
11700000000.0 0.0187200952 -0.0976893446 
12000000000.0 0.0181099447 -0.100059557 
12300000000.0 0.0174885973 -0.10242163 
12600000000.0 0.0168562437 -0.104775551 
12900000000.0 0.0162130689 -0.107121313 
13200000000.0 0.0155592527 -0.109458914 
13500000000.0 0.0148949694 -0.111788355 
13800000000.0 0.0142203879 -0.114109643 
14100000000.0 0.0135356717 -0.116422787 
14400000000.0 0.0128409787 -0.1187278 
14700000000.0 0.0121364614 -0.121024699 
15000000000.0 0.0114222672 -0.123313502 
15300000000.0 0.0106985381 -0.125594229 
15600000000.0 0.00996541075 -0.127866905 
15900000000.0 0.00922301706 -0.130131552 
16200000000.0 0.00847148381 -0.132388197 
16500000000.0 0.007710933 -0.134636867 
16800000000.0 0.00694148194 -0.13687759 
17100000000.0 0.00616324341 -0.139110394 
17400000000.0 0.0053763258 -0.141335308 
17700000000.0 0.00458083324 -0.143552361 
18000000000.0 0.0037768658 -0.145761582 
18300000000.0 0.00296451961 -0.147963001 
18600000000.0 0.00214388705 -0.150156647 
18900000000.0 0.00131505691 -0.152342547 
19200000000.0 0.000478114507 -0.15452073 
19500000000.0 -0.000366858085 -0.156691222 
19800000000.0 -0.00121978192 -0.158854052 
20100000000.0 -0.00208058101 -0.161009243 
20400000000.0 -0.00294918217 -0.163156821 
20700000000.0 -0.00382551486 -0.165296811 
21000000000.0 -0.00470951106 -0.167429234 
21300000000.0 -0.00560110507 -0.169554112 
21600000000.0 -0.00650023343 -0.171671467 
21900000000.0 -0.00740683474 -0.173781317 
22200000000.0 -0.00832084955 -0.175883681 
22500000000.0 -0.00924222019 -0.177978576 
22800000000.0 -0.0101708907 -0.180066018 
23100000000.0 -0.0111068067 -0.182146021 
23400000000.0 -0.0120499153 -0.1842186 
23700000000.0 -0.0130001648 -0.186283766 
24000000000.0 -0.0139575048 -0.18834153 
24300000000.0 -0.0149218861 -0.190391903 
24600000000.0 -0.0158932605 -0.192434893 
24900000000.0 -0.0168715807 -0.194470508 
25200000000.0 -0.0178568002 -0.196498753 
25500000000.0 -0.0188488734 -0.198519635 
25800000000.0 -0.0198477554 -0.200533158 
26100000000.0 -0.0208534017 -0.202539324 
26400000000.0 -0.0218657686 -0.204538137 
26700000000.0 -0.0228848127 -0.206529596 
27000000000.0 -0.023910491 -0.208513703 
27300000000.0 -0.0249427611 -0.210490456 
27600000000.0 -0.0259815806 -0.212459854 
27900000000.0 -0.0270269075 -0.214421894 
28200000000.0 -0.0280786999 -0.216376573 
28500000000.0 -0.0291369162 -0.218323887 
28800000000.0 -0.0302015147 -0.220263831 
29100000000.0 -0.0312724541 -0.2221964 
29400000000.0 -0.0323496927 -0.224121586 
29700000000.0 -0.033433189 -0.226039384 
30000000000.0 -0.0345229017 -0.227949786 
