# Hz	S	RI	R	50.000000 
0.0 0.03816389289999997 -2.5463441e-06 
300000000.0 0.044583131408 -0.012078850960000002 
600000000.0 0.04106228751 -0.02986136335 
900000000.0 0.03193269708 -0.04509396855 
1200000000.0 0.019090674890000003 -0.057007254650000005 
1500000000.0 0.0037051029599999997 -0.06496983515 
1800000000.0 -0.013048127497 -0.0685614321 
2100000000.0 -0.02999157225 -0.06767038365 
2400000000.0 -0.0458903779 -0.062415923799999995 
2700000000.0 -0.0596849562 -0.0532752472 
3000000000.0 -0.0704281179 -0.0409473697 
3300000000.0 -0.07748413810000002 -0.02636027866 
3600000000.0 -0.08038405755 -0.010548000719999999 
3900000000.0 -0.0789609412 0.005371942425 
4200000000.0 -0.0733397978 0.02028002036 
4500000000.0 -0.0639235348 0.03312573218 
4800000000.0 -0.051367985899999996 0.04299368441 
5100000000.0 -0.0365409581 0.049161784119999996 
5400000000.0 -0.020469247505000003 0.05114895975 
5700000000.0 -0.0042743725 0.048748805299999996 
6000000000.0 0.0108988247 0.042046807299999996 
6300000000.0 0.0239564475 0.031419574500000005 
6600000000.0 0.033928512849999995 0.0175142943 
6900000000.0 0.04003440733 0.001208360615000001 
7200000000.0 0.04173366601 -0.01645275639 
7500000000.0 0.03875552487 -0.03434450181 
7800000000.0 0.03106665364 -0.051193211200000005 
8100000000.0 0.019042785819999998 -0.06566371550200001 
8400000000.0 0.00416430131 -0.07667092099 
8700000000.0 -0.01331159625 -0.08404612561 
9000000000.0 -0.03256220999 -0.08673973010000001 
9300000000.0 -0.052205821730000004 -0.08452225255000001 
9600000000.0 -0.07096731665 -0.0774220185 
9900000000.0 -0.08763611615 -0.06576987819999999 
10200000000.0 -0.1011208018 -0.05018366795 
10500000000.0 -0.11051067255 -0.03153242215 
10800000000.0 -0.11512974064999999 -0.010886141715 
11100000000.0 -0.11457756675 0.010545295399999998 
11400000000.0 -0.1087551537 0.03148047574 
11700000000.0 -0.09787535615000001 0.05063911147 
12000000000.0 -0.08245667905000001 0.06681553359 
12300000000.0 -0.063300595 0.07894962930339999 
12600000000.0 -0.04145306615 0.08619221584 
12900000000.0 -0.018151019075 0.08796112659 
13200000000.0 0.0052443505000000015 0.08398442662 
13500000000.0 0.02732469545 0.0743275286 
13800000000.0 0.04671827865 0.0594010239 
14100000000.0 0.06217535775 0.03994709995 
14400000000.0 0.0726493909 0.01700356707 
14700000000.0 0.077367336 -0.00815459925 
15000000000.0 0.07588226864 -0.0340948347 
15300000000.0 0.06810790657999999 -0.05931180108 
15600000000.0 0.05433359488 -0.08216134284999999 
15900000000.0 0.035226237470000005 -0.10121709511 
16200000000.0 0.0120336646 -0.115436413634 
16500000000.0 -0.01394940423 -0.12365139481999998 
16800000000.0 -0.04138379085 -0.12581924798 
17100000000.0 -0.06891960201 -0.12131168820999999 
17400000000.0 -0.09491435028999999 -0.11031161547 
17700000000.0 -0.11783188614000001 -0.09335013749999999 
18000000000.0 -0.1363191987 -0.07128550315 
18300000000.0 -0.1492614553 -0.045265382800000004 
18600000000.0 -0.1558370103 -0.016667952259999997 
18900000000.0 -0.15556012919999998 0.01296821755 
19200000000.0 -0.1483091737 0.04202222074999999 
19500000000.0 -0.1343382222 0.06887342415 
19800000000.0 -0.11427165140000001 0.09198491682000001 
20100000000.0 -0.0890812436 0.10998625976000001 
20400000000.0 -0.06004561795 0.12175108892 
20700000000.0 -0.028692312748 0.12646662043 
21000000000.0 0.003277813750000004 0.12369068821999998 
21300000000.0 0.034079197850000006 0.11339078348000001 
21600000000.0 0.06194102505 0.09596219298 
21900000000.0 0.08521192 0.07222082305 
22200000000.0 0.10246256819999999 0.04336935535 
22500000000.0 0.1125794138 0.01093446713 
22800000000.0 0.1148391058 -0.02331890135 
23100000000.0 0.1089609734 -0.0574858637 
23400000000.0 0.09514133466 -0.08959602342 
23700000000.0 0.07404539478 -0.11770192855000002 
24000000000.0 0.04683277505 -0.14038093477000002 
24300000000.0 0.0149246742 -0.15624070629 
24600000000.0 -0.019947658870000003 -0.16420869680045 
24900000000.0 -0.055924646880000005 -0.16403148322 
25200000000.0 -0.0911017125 -0.15551841418 
25500000000.0 -0.12358491011 -0.1390296693 
25800000000.0 -0.15159232196 -0.11538574830000001 
26100000000.0 -0.1735801877 -0.08577803 
26400000000.0 -0.1883140837 -0.051710757649999994 
26700000000.0 -0.1949252092 -0.014928201374999998 
27000000000.0 -0.19295192320000001 0.0226674954 
27300000000.0 -0.18236708070000002 0.05910125929999999 
27600000000.0 -0.1635792892 0.09244287949999999 
27900000000.0 -0.1374311849 0.12085945578 
28200000000.0 -0.105167749 0.14273851006 
28500000000.0 -0.068388373 0.15676936408 
28800000000.0 -0.0289776213815 0.16202346631800002 
29100000000.0 0.010982716750000003 0.15802022316999997 
29400000000.0 0.04931993935 0.14477357871 
29700000000.0 0.083889819 0.12281296385 
30000000000.0 0.1127013784 0.09317471275 
