# Hz	S	RI	R	50.000000 
0.0 0.299878074 -4.22171072e-06 
300000000.0 0.299859712 -0.00422158315 
600000000.0 0.299804635 -0.00844240145 
900000000.0 0.299712894 -0.012661692 
1200000000.0 0.299584567 -0.0168786959 
1500000000.0 0.299419764 -0.0210926599 
1800000000.0 0.299218625 -0.0253028384 
2100000000.0 0.298981322 -0.0295084955 
2400000000.0 0.298708054 -0.0337089063 
2700000000.0 0.298399049 -0.037903359 
3000000000.0 0.29805456 -0.0420911562 
3300000000.0 0.297674871 -0.0462716165 
3600000000.0 0.297260284 -0.050444076 
3900000000.0 0.296811131 -0.0546078891 
4200000000.0 0.296327762 -0.0587624303 
4500000000.0 0.295810547 -0.0629070948 
4800000000.0 0.295259878 -0.0670412996 
5100000000.0 0.294676163 -0.071164484 
5400000000.0 0.294059825 -0.0752761106 
5700000000.0 0.293411303 -0.0793756657 
6000000000.0 0.292731046 -0.0834626594 
6300000000.0 0.292019516 -0.0875366262 
6600000000.0 0.291277185 -0.0915971251 
6900000000.0 0.290504531 -0.0956437395 
7200000000.0 0.289702039 -0.0996760772 
7500000000.0 0.288870198 -0.10369377 
7800000000.0 0.288009503 -0.107696474 
8100000000.0 0.287120449 -0.111683868 
8400000000.0 0.286203531 -0.115655655 
8700000000.0 0.285259246 -0.119611559 
9000000000.0 0.284288086 -0.123551328 
9300000000.0 0.283290543 -0.127474729 
9600000000.0 0.282267104 -0.13138155 
9900000000.0 0.281218251 -0.1352716 
10200000000.0 0.28014446 -0.139144706 
10500000000.0 0.279046203 -0.143000712 
10800000000.0 0.277923942 -0.146839481 
11100000000.0 0.276778131 -0.150660891 
11400000000.0 0.27560922 -0.154464837 
11700000000.0 0.274417644 -0.158251227 
12000000000.0 0.273203834 -0.162019983 
12300000000.0 0.271968209 -0.16577104 
12600000000.0 0.270711179 -0.169504346 
12900000000.0 0.269433142 -0.173219857 
13200000000.0 0.26813449 -0.176917542 
13500000000.0 0.2668156 -0.180597378 
13800000000.0 0.265476842 -0.184259352 
14100000000.0 0.264118574 -0.187903457 
14400000000.0 0.262741144 -0.191529694 
14700000000.0 0.261344891 -0.195138071 
15000000000.0 0.259930142 -0.198728601 
15300000000.0 0.258497216 -0.202301302 
15600000000.0 0.257046421 -0.205856196 
15900000000.0 0.255578055 -0.209393311 
16200000000.0 0.254092408 -0.212912675 
16500000000.0 0.252589761 -0.216414322 
16800000000.0 0.251070384 -0.219898287 
17100000000.0 0.249534542 -0.223364608 
17400000000.0 0.247982488 -0.226813321 
17700000000.0 0.246414469 -0.230244469 
18000000000.0 0.244830725 -0.23365809 
18300000000.0 0.243231488 -0.237054227 
18600000000.0 0.241616982 -0.24043292 
18900000000.0 0.239987425 -0.243794211 
19200000000.0 0.238343029 -0.24713814 
19500000000.0 0.236683999 -0.25046475 
19800000000.0 0.235010535 -0.253774078 
20100000000.0 0.233322831 -0.257066165 
20400000000.0 0.231621075 -0.260341049 
20700000000.0 0.229905453 -0.263598766 
21000000000.0 0.228176143 -0.266839352 
21300000000.0 0.226433319 -0.270062842 
21600000000.0 0.224677154 -0.273269269 
21900000000.0 0.222907813 -0.276458664 
22200000000.0 0.22112546 -0.279631058 
22500000000.0 0.219330255 -0.28278648 
22800000000.0 0.217522355 -0.285924956 
23100000000.0 0.215701912 -0.289046513 
23400000000.0 0.213869079 -0.292151174 
23700000000.0 0.212024004 -0.295238963 
24000000000.0 0.210166833 -0.2983099 
24300000000.0 0.20829771 -0.301364005 
24600000000.0 0.206416777 -0.304401297 
24900000000.0 0.204524174 -0.307421792 
25200000000.0 0.20262004 -0.310425506 
25500000000.0 0.200704512 -0.313412453 
25800000000.0 0.198777725 -0.316382647 
26100000000.0 0.196839814 -0.319336097 
26400000000.0 0.194890912 -0.322272817 
26700000000.0 0.192931152 -0.325192814 
27000000000.0 0.190960664 -0.328096097 
27300000000.0 0.188979579 -0.330982675 
27600000000.0 0.186988027 -0.333852553 
27900000000.0 0.184986137 -0.336705737 
28200000000.0 0.182974037 -0.339542233 
28500000000.0 0.180951856 -0.342362044 
28800000000.0 0.178919721 -0.345165175 
29100000000.0 0.17687776 -0.347951628 
29400000000.0 0.1748261 -0.350721406 
29700000000.0 0.172764866 -0.353474512 
30000000000.0 0.170694187 -0.356210946 
