# Hz	S	RI	R	50.000000 
0.0 0.549805552 -6.10072736e-06 
300000000.0 0.549774683 -0.00610050094 
600000000.0 0.549682101 -0.0121996443 
900000000.0 0.54952789 -0.0182960758 
1200000000.0 0.54931219 -0.0243884481 
1500000000.0 0.549035194 -0.0304754238 
1800000000.0 0.548697148 -0.0365556789 
2100000000.0 0.548298353 -0.0426279059 
2400000000.0 0.54783916 -0.0486908168 
2700000000.0 0.547319969 -0.054743146 
3000000000.0 0.546741229 -0.0607836532 
3300000000.0 0.546103433 -0.0668111259 
3600000000.0 0.545407119 -0.0728243816 
3900000000.0 0.544652867 -0.0788222703 
4200000000.0 0.543841294 -0.0848036765 
4500000000.0 0.542973055 -0.0907675206 
4800000000.0 0.542048837 -0.096712761 
5100000000.0 0.54106936 -0.102638395 
5400000000.0 0.54003537 -0.10854346 
5700000000.0 0.53894764 -0.114427035 
6000000000.0 0.537806966 -0.12028824 
6300000000.0 0.536614162 -0.126126238 
6600000000.0 0.535370061 -0.131940233 
6900000000.0 0.534075509 -0.137729473 
7200000000.0 0.532731365 -0.143493249 
7500000000.0 0.531338496 -0.149230892 
7800000000.0 0.529897777 -0.154941775 
8100000000.0 0.528410087 -0.160625314 
8400000000.0 0.526876306 -0.166280961 
8700000000.0 0.525297316 -0.171908212 
9000000000.0 0.523673995 -0.177506597 
9300000000.0 0.522007218 -0.183075686 
9600000000.0 0.520297854 -0.188615082 
9900000000.0 0.518546766 -0.194124426 
10200000000.0 0.516754806 -0.199603388 
10500000000.0 0.514922818 -0.205051673 
10800000000.0 0.513051633 -0.210469014 
11100000000.0 0.511142071 -0.215855174 
11400000000.0 0.509194938 -0.221209942 
11700000000.0 0.507211026 -0.226533135 
12000000000.0 0.505191111 -0.231824591 
12300000000.0 0.503135955 -0.237084172 
12600000000.0 0.501046304 -0.242311764 
12900000000.0 0.498922888 -0.247507268 
13200000000.0 0.496766418 -0.252670607 
13500000000.0 0.494577591 -0.257801719 
13800000000.0 0.492357086 -0.26290056 
14100000000.0 0.490105565 -0.267967097 
14400000000.0 0.487823675 -0.273001312 
14700000000.0 0.485512043 -0.278003201 
15000000000.0 0.483171283 -0.282972768 
15300000000.0 0.48080199 -0.287910027 
15600000000.0 0.478404745 -0.292815003 
15900000000.0 0.475980113 -0.297687726 
16200000000.0 0.473528642 -0.302528236 
16500000000.0 0.471050868 -0.307336576 
16800000000.0 0.468547309 -0.312112798 
17100000000.0 0.466018473 -0.316856954 
17400000000.0 0.463464852 -0.321569105 
17700000000.0 0.460886924 -0.326249312 
18000000000.0 0.458285156 -0.330897639 
18300000000.0 0.455660004 -0.335514154 
18600000000.0 0.45301191 -0.340098925 
18900000000.0 0.450341305 -0.344652023 
19200000000.0 0.447648611 -0.349173518 
19500000000.0 0.444934239 -0.353663482 
19800000000.0 0.44219859 -0.358121987 
20100000000.0 0.439442055 -0.362549106 
20400000000.0 0.436665019 -0.366944909 
20700000000.0 0.433867855 -0.37130947 
21000000000.0 0.431050931 -0.375642858 
21300000000.0 0.428214607 -0.379945144 
21600000000.0 0.425359234 -0.384216397 
21900000000.0 0.422485159 -0.388456686 
22200000000.0 0.41959272 -0.392666079 
22500000000.0 0.416682252 -0.396844641 
22800000000.0 0.413754082 -0.400992439 
23100000000.0 0.410808532 -0.405109536 
23400000000.0 0.407845922 -0.409195996 
23700000000.0 0.404866563 -0.413251881 
24000000000.0 0.401870765 -0.417277252 
24300000000.0 0.398858832 -0.421272168 
24600000000.0 0.395831065 -0.425236689 
24900000000.0 0.392787761 -0.429170872 
25200000000.0 0.389729215 -0.433074775 
25500000000.0 0.386655717 -0.436948454 
25800000000.0 0.383567554 -0.440791964 
26100000000.0 0.380465013 -0.44460536 
26400000000.0 0.377348376 -0.448388697 
26700000000.0 0.374217922 -0.452142027 
27000000000.0 0.371073929 -0.455865404 
27300000000.0 0.367916674 -0.459558881 
27600000000.0 0.36474643 -0.463222511 
27900000000.0 0.361563468 -0.466856344 
28200000000.0 0.358368059 -0.470460435 
28500000000.0 0.355160471 -0.474034835 
28800000000.0 0.351940971 -0.477579596 
29100000000.0 0.348709823 -0.481094771 
29400000000.0 0.345467291 -0.484580412 
29700000000.0 0.342213638 -0.488036572 
30000000000.0 0.338949125 -0.491463305 
