# Hz	S	RI	R	50.000000 
0.0 0.782924401 -8.13521432e-06 
300000000.0 0.782878195 -0.00813485859 
600000000.0 0.782739625 -0.0162675842 
900000000.0 0.782508819 -0.0243960492 
1200000000.0 0.782185997 -0.0325181365 
1500000000.0 0.781771461 -0.0406317444 
1800000000.0 0.781265599 -0.0487347922 
2100000000.0 0.78066888 -0.0568252249 
2400000000.0 0.779981856 -0.0649010175 
2700000000.0 0.779205155 -0.0729601802 
3000000000.0 0.77833948 -0.0810007623 
3300000000.0 0.777385606 -0.089020856 
3600000000.0 0.776344378 -0.0970186007 
3900000000.0 0.775216704 -0.104992186 
4200000000.0 0.774003555 -0.112939855 
4500000000.0 0.772705958 -0.120859907 
4800000000.0 0.771324995 -0.128750699 
5100000000.0 0.769861794 -0.136610651 
5400000000.0 0.768317532 -0.144438243 
5700000000.0 0.766693424 -0.15223202 
6000000000.0 0.76499072 -0.159990593 
6300000000.0 0.763210703 -0.167712636 
6600000000.0 0.761354686 -0.175396891 
6900000000.0 0.759424003 -0.183042166 
7200000000.0 0.757420007 -0.190647334 
7500000000.0 0.755344067 -0.198211335 
7800000000.0 0.753197565 -0.205733172 
8100000000.0 0.75098189 -0.213211913 
8400000000.0 0.748698435 -0.220646688 
8700000000.0 0.746348594 -0.228036687 
9000000000.0 0.743933761 -0.235381163 
9300000000.0 0.741455324 -0.242679422 
9600000000.0 0.738914664 -0.249930831 
9900000000.0 0.736313149 -0.257134808 
10200000000.0 0.73365214 -0.264290822 
10500000000.0 0.73093298 -0.271398395 
10800000000.0 0.728156996 -0.278457094 
11100000000.0 0.725325499 -0.285466532 
11400000000.0 0.722439778 -0.292426366 
11700000000.0 0.719501103 -0.299336291 
12000000000.0 0.716510723 -0.306196045 
12300000000.0 0.713469862 -0.313005398 
12600000000.0 0.710379724 -0.319764157 
12900000000.0 0.707241484 -0.326472158 
13200000000.0 0.704056298 -0.33312927 
13500000000.0 0.700825294 -0.339735387 
13800000000.0 0.697549576 -0.34629043 
14100000000.0 0.694230222 -0.352794345 
14400000000.0 0.690868287 -0.359247096 
14700000000.0 0.687464799 -0.365648671 
15000000000.0 0.684020763 -0.371999076 
15300000000.0 0.68053716 -0.378298331 
15600000000.0 0.677014947 -0.384546475 
15900000000.0 0.673455055 -0.390743559 
16200000000.0 0.669858396 -0.396889648 
16500000000.0 0.666225857 -0.402984815 
16800000000.0 0.662558304 -0.409029147 
17100000000.0 0.658856582 -0.415022739 
17400000000.0 0.655121516 -0.420965693 
17700000000.0 0.65135391 -0.426858119 
18000000000.0 0.647554549 -0.432700133 
18300000000.0 0.6437242 -0.438491858 
18600000000.0 0.639863612 -0.444233419 
18900000000.0 0.635973517 -0.449924947 
19200000000.0 0.63205463 -0.455566577 
19500000000.0 0.62810765 -0.461158446 
19800000000.0 0.624133263 -0.466700693 
20100000000.0 0.620132138 -0.472193461 
20400000000.0 0.616104931 -0.477636894 
20700000000.0 0.612052284 -0.483031137 
21000000000.0 0.607974829 -0.488376336 
21300000000.0 0.603873183 -0.493672639 
21600000000.0 0.599747953 -0.498920194 
21900000000.0 0.595599734 -0.504119151 
22200000000.0 0.591429113 -0.509269657 
22500000000.0 0.587236664 -0.514371863 
22800000000.0 0.583022953 -0.519425919 
23100000000.0 0.578788538 -0.524431975 
23400000000.0 0.574533967 -0.52939018 
23700000000.0 0.570259779 -0.534300685 
24000000000.0 0.565966508 -0.539163641 
24300000000.0 0.561654678 -0.543979197 
24600000000.0 0.557324808 -0.548747505 
24900000000.0 0.552977408 -0.553468716 
25200000000.0 0.548612984 -0.558142981 
25500000000.0 0.544232033 -0.562770451 
25800000000.0 0.539835049 -0.567351277 
26100000000.0 0.535422518 -0.571885613 
26400000000.0 0.530994922 -0.576373611 
26700000000.0 0.526552737 -0.580815425 
27000000000.0 0.522096435 -0.585211207 
27300000000.0 0.517626481 -0.589561114 
27600000000.0 0.513143338 -0.5938653 
27900000000.0 0.508647462 -0.598123921 
28200000000.0 0.504139307 -0.602337136 
28500000000.0 0.499619319 -0.606505103 
28800000000.0 0.495087944 -0.610627981 
29100000000.0 0.490545621 -0.61470593 
29400000000.0 0.485992787 -0.618739114 
29700000000.0 0.481429873 -0.622727695 
30000000000.0 0.476857307 -0.626671839 
