! Created Tue Mar 30 08:37:34 2021
! List of port names and net name(s): example Port n = <port_name> <net_name1> <net_name2> ...
! Port 1 = P1_POS NPU_RXP_2 NPU_RXM_2 
! Port 2 = P2_POS NPU_RXP_2 NPU_RXM_2 
! Port 3 = P3_POS SATA_RX1P SATA_RX1N 
! Port 4 = P4_POS SATA_RX1P SATA_RX1N 
! Port 5 = P5_POS NPU_RXP_1 NPU_RXM_1 
! Port 6 = P6_POS NPU_RXP_1 NPU_RXM_1 
! Port 7 = P7_POS PCIE_RXM_14 PCIE_RXP_14 
! Port 8 = P8_POS PCIE_RXM_14 PCIE_RXP_14 
# hz S ri R 100
! 8 Port Network Data from data block
! freq  reS11  imS11  reS12  imS12  reS13  imS13  reS14  imS14  
!       reS15  imS15  reS16  imS16  reS17  imS17  reS18  imS18  
!       reS21  imS21  reS22  imS22  reS23  imS23  reS24  imS24  
!       reS25  imS25  reS26  imS26  reS27  imS27  reS28  imS28  
!       reS31  imS31  reS32  imS32  reS33  imS33  reS34  imS34  
!       reS35  imS35  reS36  imS36  reS37  imS37  reS38  imS38  
!       reS41  imS41  reS42  imS42  reS43  imS43  reS44  imS44  
!       reS45  imS45  reS46  imS46  reS47  imS47  reS48  imS48  
!       reS51  imS51  reS52  imS52  reS53  imS53  reS54  imS54  
!       reS55  imS55  reS56  imS56  reS57  imS57  reS58  imS58  
!       reS61  imS61  reS62  imS62  reS63  imS63  reS64  imS64  
!       reS65  imS65  reS66  imS66  reS67  imS67  reS68  imS68  
!       reS71  imS71  reS72  imS72  reS73  imS73  reS74  imS74  
!       reS75  imS75  reS76  imS76  reS77  imS77  reS78  imS78  
!       reS81  imS81  reS82  imS82  reS83  imS83  reS84  imS84  
!       reS85  imS85  reS86  imS86  reS87  imS87  reS88  imS88  
!     
            300000     0.00652110742     6.31449817e-05        0.993477744    -0.000283273765      1.2402556e-06    -2.38076516e-07    -1.24012414e-06     2.53561104e-07
                   1.03082372e-07    -4.24402151e-07    -1.08358031e-07     -1.8193536e-07      4.8635651e-09    -4.11705726e-09    -4.88000175e-09     5.66954551e-09
                      0.993477744    -0.000283273765      0.00652112464     6.33352599e-05    -1.24015566e-06     2.53442115e-07     1.24027633e-06    -2.37998577e-07
                  -1.08369245e-07    -1.81946318e-07     1.02874419e-07    -4.16660591e-07    -4.87703018e-09     5.66922507e-09     4.86452074e-09    -4.13311144e-09
                    1.2402556e-06    -2.38076516e-07    -1.24015566e-06     2.53442115e-07      0.00406130036     4.25641023e-05        0.995937951    -0.000184013682
                  -2.34156302e-10    -6.17385267e-08     3.42513124e-11      3.7299483e-08    -8.81368766e-09    -4.80202585e-08     8.70267966e-09     3.52604836e-08
                  -1.24012414e-06     2.53561104e-07     1.24027633e-06    -2.37998577e-07        0.995937951    -0.000184013682      0.00406129658     4.26658872e-05
                   3.81085675e-11     3.72374985e-08    -2.32931908e-10    -6.14818513e-08     8.69378199e-09     3.52565329e-08    -8.83779736e-09    -4.79155053e-08
                   1.03082372e-07    -4.24402151e-07    -1.08369245e-07    -1.81946318e-07    -2.34156302e-10    -6.17385267e-08     3.81085675e-11     3.72374985e-08
                    0.00660569906     6.12709543e-05        0.993393113    -0.000286944611    -4.42897915e-07     2.83153442e-07     4.42955376e-07    -2.83980938e-07
                  -1.08358031e-07     -1.8193536e-07     1.02874419e-07    -4.16660591e-07     3.42513124e-11      3.7299483e-08    -2.32931908e-10    -6.14818513e-08
                      0.993393113    -0.000286944611      0.00660570573     6.14352322e-05     4.42988875e-07    -2.83945522e-07    -4.42909937e-07     2.83113041e-07
                    4.8635651e-09    -4.11705726e-09    -4.87703018e-09     5.66922507e-09    -8.81368766e-09    -4.80202585e-08     8.69378199e-09     3.52565329e-08
                  -4.42897915e-07     2.83153442e-07     4.42988875e-07    -2.83945522e-07      0.00424035426     4.27211544e-05        0.995758851    -0.000194575493
                  -4.88000175e-09     5.66954551e-09     4.86452074e-09    -4.13311144e-09     8.70267966e-09     3.52604836e-08    -8.83779736e-09    -4.79155053e-08
                   4.42955376e-07    -2.83980938e-07    -4.42909937e-07     2.83113041e-07        0.995758851    -0.000194575493      0.00424034285     4.28378773e-05

      2.500275e+09      -0.101463002       0.0621260465      -0.0712532058       -0.948716186     3.65930563e-05     0.000332621837    -0.000101138432    -6.87597253e-05
                  -0.000536301646     -0.00368239782    -0.000285581289    -0.000291347298     3.86532532e-05    -0.000203696156     0.000102730387     -1.7189411e-05
                    -0.0712532058       -0.948716186       -0.105926314      -0.0862938318     9.98935992e-06    -2.96150297e-05     0.000116647477    -0.000339092948
                  -0.000235451689    -0.000197442812     0.000144394864      0.00334318913     0.000156569975     3.78537056e-05     -8.5932116e-05     9.39423394e-05
                   3.65930563e-05     0.000332621837     9.98935992e-06    -2.96150297e-05      -0.0723331519       0.0298961614        0.440585376       -0.865864393
                  -1.49668323e-05    -0.000445861123     0.000300702495    -5.41563498e-06    -0.000105993012    -0.000398825821     0.000206656655     9.46886484e-05
                  -0.000101138432    -6.87597253e-05     0.000116647477    -0.000339092948        0.440585376       -0.865864393     -0.00163865793       -0.101109255
                   0.000353814258     0.000171965154    -0.000101989344     0.000361673472     0.000193837721     0.000112541446    -0.000269440477     0.000169849712
                  -0.000536301646     -0.00368239782    -0.000235451689    -0.000197442812    -1.49668323e-05    -0.000445861123     0.000353814258     0.000171965154
                     -0.111582517       0.0755875118       -0.091654829       -0.943241872    -7.31197871e-05     0.000120032929    -0.000122512032    -5.26491551e-05
                  -0.000285581289    -0.000291347298     0.000144394864      0.00334318913     0.000300702495    -5.41563498e-06    -0.000101989344     0.000361673472
                     -0.091654829       -0.943241872       -0.120944425       -0.094250043    -0.000167852998     2.20370684e-05     -1.2427727e-05    -5.61791482e-05
                   3.86532532e-05    -0.000203696156     0.000156569975     3.78537056e-05    -0.000105993012    -0.000398825821     0.000193837721     0.000112541446
                  -7.31197871e-05     0.000120032929    -0.000167852998     2.20370684e-05       -0.092210569       0.0108909589        0.398785621       -0.882732098
                   0.000102730387     -1.7189411e-05     -8.5932116e-05     9.39423394e-05     0.000206656655     9.46886484e-05    -0.000269440477     0.000169849712
                  -0.000122512032    -5.26491551e-05     -1.2427727e-05    -5.61791482e-05        0.398785621       -0.882732098      -0.0358203437       -0.103497251

       5.00025e+09      0.0537782462       0.0956044059       -0.924341473       0.0955256859     0.000214562682     0.000372090494    -0.000176890052    -0.000108923507
                   -0.00216739681     -0.00810039968     -0.00102813194      0.00195844709    -5.15259483e-05    -0.000264233073     0.000196288471    -0.000153948193
                     -0.924341473       0.0955256859      -0.0542515496       0.0866629004     9.24861739e-05     2.54452085e-05    -0.000368763868     -0.00013271723
                   0.000220693737      0.00160905873    -3.93202349e-05       -0.007399456     1.78142168e-05    -0.000193669901     0.000128554048    -3.03892487e-05
                   0.000214562682     0.000372090494     9.24861739e-05     2.54452085e-05     -0.00558513173        0.206390992       -0.531021102       -0.772838894
                  -9.22608547e-05     -0.00103406419     3.41710507e-05    -0.000674498228    -0.000531788529     -0.00053209706     0.000114875073     -0.00041631989
                  -0.000176890052    -0.000108923507    -0.000368763868     -0.00013271723       -0.531021102       -0.772838894       -0.194876508      -0.0964734079
                   0.000322139266    -0.000441863439     0.000805642001    -0.000611947816     0.000186690995     -0.00036472783     0.000479652095     0.000277277539
                   -0.00216739681     -0.00810039968     0.000220693737      0.00160905873    -9.22608547e-05     -0.00103406419     0.000322139266    -0.000441863439
                     0.0673171653       0.0885378538       -0.916478377        0.130626046    -2.00231619e-05     0.000311574078    -0.000254708148     0.000214592786
                   -0.00102813194      0.00195844709    -3.93202349e-05       -0.007399456     3.41710507e-05    -0.000674498228     0.000805642001    -0.000611947816
                     -0.916478377        0.130626046      -0.0636871999       0.0827401571     1.38074425e-06      0.00030223595    -0.000189231788     0.000228736419
                  -5.15259483e-05    -0.000264233073     1.78142168e-05    -0.000193669901    -0.000531788529     -0.00053209706     0.000186690995     -0.00036472783
                  -2.00231619e-05     0.000311574078     1.38074425e-06      0.00030223595      -0.0302715477        0.192538311        -0.59646694       -0.722522767
                   0.000196288471    -0.000153948193     0.000128554048    -3.03892487e-05     0.000114875073     -0.00041631989     0.000479652095     0.000277277539
                  -0.000254708148     0.000214592786    -0.000189231788     0.000228736419        -0.59646694       -0.722522767       -0.198981694      -0.0371159659

     6.2502375e+09     0.00252934859       0.0642540709       -0.566225376        0.731629747    -7.16611937e-07     0.000517387669    -0.000474602692     0.000191498518
                    -0.0036943167     -0.00925371803     0.000213917253      0.00222660651     9.79795352e-05    -0.000342585652     0.000264800403    -0.000328512343
                     -0.566225376        0.731629747       0.0444759545      -0.0181581919     0.000255661631    -3.05334906e-05     1.29898477e-06     0.000212171347
                    0.00124820699     0.000431714432     -0.00877582492    -0.000844435277    -0.000176478144    -0.000143166002    -2.27909216e-05    -4.27567825e-05
                  -7.16611937e-07     0.000517387669     0.000255661631    -3.05334906e-05       0.0866598785        0.211193637       -0.836525791       -0.398429426
                  -0.000341367961     -0.00128629701    -0.000373048734    -0.000442535659    -0.000645349377    -0.000476798456     -0.00027194284    -0.000467151293
                  -0.000474602692     0.000191498518     1.29898477e-06     0.000212171347       -0.836525791       -0.398429426       -0.222766506       0.0368594307
                   0.000220166032     -0.00074032162    -0.000121516731     -0.00109124198    -0.000175090512    -0.000477102294     0.000431254262    -0.000446256028
                    -0.0036943167     -0.00925371803      0.00124820699     0.000431714432    -0.000341367961     -0.00128629701     0.000220166032     -0.00074032162
                   -0.00877237025       0.0526046412       -0.527028022        0.756644098     0.000214365176     0.000479249235    -6.98271673e-05     0.000589129101
                   0.000213917253      0.00222660651     -0.00877582492    -0.000844435277    -0.000373048734    -0.000442535659    -0.000121516731     -0.00109124198
                     -0.527028022        0.756644098       0.0241220319      -0.0317688369     0.000223177491     0.000311246453     3.81348336e-05      0.00042013831
                   9.79795352e-05    -0.000342585652    -0.000176478144    -0.000143166002    -0.000645349377    -0.000476798456    -0.000175090512    -0.000477102294
                   0.000214365176     0.000479249235     0.000223177491     0.000311246453       0.0591249735        0.192608115       -0.877754354       -0.303300226
                   0.000264800403    -0.000328512343    -2.27909216e-05    -4.27567825e-05     -0.00027194284    -0.000467151293     0.000431254262    -0.000446256028
                  -6.98271673e-05     0.000589129101     3.81348336e-05      0.00042013831       -0.877754354       -0.303300226       -0.176623089       0.0860372656

      7.500225e+09     -0.0197774148        0.146283844        0.137008558        0.897959991    -1.78320365e-05       0.0010117228    -0.000429117106     0.000811358067
                   -0.00459524625      -0.0102662492      0.00178497625      0.00282283147     0.000139435618     -0.00072294021     0.000170516598    -0.000749483622
                      0.137008558        0.897959991      -0.0633482197       -0.132830078     0.000302491179    -0.000325893499     0.000658459035    -5.80779027e-05
                   0.000548199166     1.87953967e-05    -0.000516063339      0.00995241968    -0.000299435555     6.21532312e-05    -0.000188925135     2.09687629e-05
                  -1.78320365e-05       0.0010117228     0.000302491179    -0.000325893499        0.129556282        0.164694225        -0.92184964       0.0757333829
                  -0.000516295227     -0.00135670738    -0.000411971987    -0.000249541322    -0.000688061605     -0.00047911512    -0.000712233066    -0.000195981698
                  -0.000429117106     0.000811358067     0.000658459035    -5.80779027e-05        -0.92184964       0.0757333829       -0.114134917        0.151718317
                  -6.98285799e-05    -0.000789886665     -0.00107963749    -0.000637146782    -0.000595789009    -0.000303511675    -0.000589506665    -0.000579254774
                   -0.00459524625      -0.0102662492     0.000548199166     1.87953967e-05    -0.000516295227     -0.00135670738    -6.98285799e-05    -0.000789886665
                     -0.038116772          0.1628993        0.190996794        0.880586718     0.000225389796     0.000526477735     0.000159910997     0.000644487644
                    0.00178497625      0.00282283147    -0.000516063339      0.00995241968    -0.000411971987    -0.000249541322     -0.00107963749    -0.000637146782
                      0.190996794        0.880586718       -0.105828988       -0.131928198     0.000316755462      0.00022763564      0.00044637351     0.000336475015
                   0.000139435618     -0.00072294021    -0.000299435555     6.21532312e-05    -0.000688061605     -0.00047911512    -0.000595789009    -0.000303511675
                   0.000225389796     0.000526477735     0.000316755462      0.00022763564       0.0931325324        0.146531281       -0.904964657        0.202211449
                   0.000170516598    -0.000749483622    -0.000188925135     2.09687629e-05    -0.000712233066    -0.000195981698    -0.000589506665    -0.000579254774
                   0.000159910997     0.000644487644      0.00044637351     0.000336475015       -0.904964657        0.202211449      -0.0418383929        0.146509092

     8.7502125e+09      0.0608131795        0.192575973        0.722980685        0.520395805     0.000289409958      0.00135245346     0.000341744785     0.000980722466
                   -0.00554019196      -0.0122578372      0.00544928741     0.000958174181    -0.000144403054    -0.000701173194    -0.000541158443    -0.000596744144
                      0.722980685        0.520395805       -0.190210697      -0.0185044067     0.000233269565    -0.000448141914     0.000569527728     -0.00103411296
                    0.00162989324    -0.000454113754        0.011983412     0.000591426888    -0.000568622526     0.000489075767    -0.000447578594      0.00059092531
                   0.000289409958      0.00135245346     0.000233269565    -0.000448141914         0.10676537        0.139379033       -0.754238166        0.537001219
                  -0.000441511762     -0.00120579754     -0.00081803422    -9.98011217e-05    -0.000461377305    -0.000516838418    -0.000693517792     0.000633128947
                   0.000341744785     0.000980722466     0.000569527728     -0.00103411296       -0.754238166        0.537001219       0.0691246563        0.120124983
                  -0.000459105513    -0.000619999555     -0.00108190636     0.000646372778    -0.000706062462     0.000373811981     -0.00105618583     0.000664256629
                   -0.00554019196      -0.0122578372      0.00162989324    -0.000454113754    -0.000441511762     -0.00120579754    -0.000459105513    -0.000619999555
                     0.0689309566        0.223084968        0.746806616        0.463649975     0.000635498228     0.000465564693     0.000859410278     0.000468332136
                    0.00544928741     0.000958174181        0.011983412     0.000591426888     -0.00081803422    -9.98011217e-05     -0.00108190636     0.000646372778
                      0.746806616        0.463649975       -0.222214939       0.0131540966      0.00032643756    -0.000394902045     0.000351620766    -0.000729704105
                  -0.000144403054    -0.000701173194    -0.000568622526     0.000489075767    -0.000461377305    -0.000516838418    -0.000706062462     0.000373811981
                   0.000635498228     0.000465564693      0.00032643756    -0.000394902045       0.0682171646        0.132918851       -0.657450958        0.652346667
                  -0.000541158443    -0.000596744144    -0.000447578594      0.00059092531    -0.000693517792     0.000633128947     -0.00105618583     0.000664256629
                   0.000859410278     0.000468332136     0.000351620766    -0.000729704105       -0.657450958        0.652346667        0.101786733       0.0548875516

    9.37520625e+09      0.0951028645        0.176340199        0.863847486        0.200044183     0.000609959636      0.00151067319     0.000661806997     0.000912995051
                   -0.00631243114      -0.0133836167      0.00603191006     -0.00223374014    -0.000130169582    -0.000806616897    -0.000557793526    -0.000258507223
                      0.863847486        0.200044183       -0.159715294       0.0790031798     0.000173963499     -0.00063366759     0.000199855963     -0.00146584549
                   0.000765161551     -0.00177960504       0.0108995817     -0.00857385677     -0.00059420357       0.0010179921    -0.000247091617     0.000925876444
                   0.000609959636      0.00151067319     0.000173963499     -0.00063366759       0.0897568781         0.15319633       -0.579138992        0.719533462
                  -0.000208511729     -0.00133616332    -0.000923992988     0.000344592274     -0.00069264557    -0.000749108011     -0.00058506883      0.00069158098
                   0.000661806997     0.000912995051     0.000199855963     -0.00146584549       -0.579138992        0.719533462        0.133924381       0.0368712506
                  -0.000339278322    -0.000554046834    -0.000474710638      0.00148639021    -0.000674181705     0.000417519057    -0.000519807632      0.00106132771
                   -0.00631243114      -0.0133836167     0.000765161551     -0.00177960504    -0.000208511729     -0.00133616332    -0.000339278322    -0.000554046834
                      0.118168175        0.201035769        0.862340377        0.136934461      0.00108578673     3.18416279e-05      0.00151289314     0.000351712221
                    0.00603191006     -0.00223374014       0.0108995817     -0.00857385677    -0.000923992988     0.000344592274    -0.000474710638      0.00148639021
                      0.862340377        0.136934461       -0.173353195        0.114975215    -0.000542297472    -0.000185302373     -0.00102779288     -0.00112196648
                  -0.000130169582    -0.000806616897     -0.00059420357       0.0010179921     -0.00069264557    -0.000749108011    -0.000674181705     0.000417519057
                    0.00108578673     3.18416279e-05    -0.000542297472    -0.000185302373       0.0564416465        0.151304106       -0.446267099        0.806210089
