! Created Mon Apr 12 16:08:43 2021
! List of port names and net name(s): example Port n = <port_name> <net_name1> <net_name2> ...
! Port 1 = P1 P2 P8 
! Port 2 = P2 P2 P8 
! Port 3 = P3 P4 P8 
! Port 4 = P4 P4 P8 
! Port 5 = P9 N__6 N__5 
! Port 6 = P10 N__5 N__6 
! Port 7 = P11 N__8 N__6 
! Port 8 = P12 N__8 N__6 
! Port 9 = P17 N__7 N__3 
! Port 10 = P18 N__7 N__3 
! Port 11 = P19 N__9 N__3 
! Port 12 = P20 N__9 N__3 
! Port 13 = P25 N__15 N__12 
! Port 14 = P26 N__15 N__12 
! Port 15 = P27 N__16 N__12 
! Port 16 = P28 N__16 N__12 
# hz S ri R 50
! 16 Port Network Data from data block
! freq  reS1_1  imS1_1  reS1_2  imS1_2  reS1_3  imS1_3  reS1_4  imS1_4  
!       reS1_5  imS1_5  reS1_6  imS1_6  reS1_7  imS1_7  reS1_8  imS1_8  
!       reS1_9  imS1_9  reS1_10  imS1_10  reS1_11  imS1_11  reS1_12  imS1_12  
!       reS1_13  imS1_13  reS1_14  imS1_14  reS1_15  imS1_15  reS1_16  imS1_16  
!       reS2_1  imS2_1  reS2_2  imS2_2  reS2_3  imS2_3  reS2_4  imS2_4  
!       reS2_5  imS2_5  reS2_6  imS2_6  reS2_7  imS2_7  reS2_8  imS2_8  
!       reS2_9  imS2_9  reS2_10  imS2_10  reS2_11  imS2_11  reS2_12  imS2_12  
!       reS2_13  imS2_13  reS2_14  imS2_14  reS2_15  imS2_15  reS2_16  imS2_16  
!       reS3_1  imS3_1  reS3_2  imS3_2  reS3_3  imS3_3  reS3_4  imS3_4  
!       reS3_5  imS3_5  reS3_6  imS3_6  reS3_7  imS3_7  reS3_8  imS3_8  
!       reS3_9  imS3_9  reS3_10  imS3_10  reS3_11  imS3_11  reS3_12  imS3_12  
!       reS3_13  imS3_13  reS3_14  imS3_14  reS3_15  imS3_15  reS3_16  imS3_16  
!       reS4_1  imS4_1  reS4_2  imS4_2  reS4_3  imS4_3  reS4_4  imS4_4  
!       reS4_5  imS4_5  reS4_6  imS4_6  reS4_7  imS4_7  reS4_8  imS4_8  
!       reS4_9  imS4_9  reS4_10  imS4_10  reS4_11  imS4_11  reS4_12  imS4_12  
!       reS4_13  imS4_13  reS4_14  imS4_14  reS4_15  imS4_15  reS4_16  imS4_16  
!       reS5_1  imS5_1  reS5_2  imS5_2  reS5_3  imS5_3  reS5_4  imS5_4  
!       reS5_5  imS5_5  reS5_6  imS5_6  reS5_7  imS5_7  reS5_8  imS5_8  
!       reS5_9  imS5_9  reS5_10  imS5_10  reS5_11  imS5_11  reS5_12  imS5_12  
!       reS5_13  imS5_13  reS5_14  imS5_14  reS5_15  imS5_15  reS5_16  imS5_16  
!       reS6_1  imS6_1  reS6_2  imS6_2  reS6_3  imS6_3  reS6_4  imS6_4  
!       reS6_5  imS6_5  reS6_6  imS6_6  reS6_7  imS6_7  reS6_8  imS6_8  
!       reS6_9  imS6_9  reS6_10  imS6_10  reS6_11  imS6_11  reS6_12  imS6_12  
!       reS6_13  imS6_13  reS6_14  imS6_14  reS6_15  imS6_15  reS6_16  imS6_16  
!       reS7_1  imS7_1  reS7_2  imS7_2  reS7_3  imS7_3  reS7_4  imS7_4  
!       reS7_5  imS7_5  reS7_6  imS7_6  reS7_7  imS7_7  reS7_8  imS7_8  
!       reS7_9  imS7_9  reS7_10  imS7_10  reS7_11  imS7_11  reS7_12  imS7_12  
!       reS7_13  imS7_13  reS7_14  imS7_14  reS7_15  imS7_15  reS7_16  imS7_16  
!       reS8_1  imS8_1  reS8_2  imS8_2  reS8_3  imS8_3  reS8_4  imS8_4  
!       reS8_5  imS8_5  reS8_6  imS8_6  reS8_7  imS8_7  reS8_8  imS8_8  
!       reS8_9  imS8_9  reS8_10  imS8_10  reS8_11  imS8_11  reS8_12  imS8_12  
!       reS8_13  imS8_13  reS8_14  imS8_14  reS8_15  imS8_15  reS8_16  imS8_16  
!       reS9_1  imS9_1  reS9_2  imS9_2  reS9_3  imS9_3  reS9_4  imS9_4  
!       reS9_5  imS9_5  reS9_6  imS9_6  reS9_7  imS9_7  reS9_8  imS9_8  
!       reS9_9  imS9_9  reS9_10  imS9_10  reS9_11  imS9_11  reS9_12  imS9_12  
!       reS9_13  imS9_13  reS9_14  imS9_14  reS9_15  imS9_15  reS9_16  imS9_16  
!       reS10_1  imS10_1  reS10_2  imS10_2  reS10_3  imS10_3  reS10_4  imS10_4  
!       reS10_5  imS10_5  reS10_6  imS10_6  reS10_7  imS10_7  reS10_8  imS10_8  
!       reS10_9  imS10_9  reS10_10  imS10_10  reS10_11  imS10_11  reS10_12  imS10_12  
!       reS10_13  imS10_13  reS10_14  imS10_14  reS10_15  imS10_15  reS10_16  imS10_16  
!       reS11_1  imS11_1  reS11_2  imS11_2  reS11_3  imS11_3  reS11_4  imS11_4  
!       reS11_5  imS11_5  reS11_6  imS11_6  reS11_7  imS11_7  reS11_8  imS11_8  
!       reS11_9  imS11_9  reS11_10  imS11_10  reS11_11  imS11_11  reS11_12  imS11_12  
!       reS11_13  imS11_13  reS11_14  imS11_14  reS11_15  imS11_15  reS11_16  imS11_16  
!       reS12_1  imS12_1  reS12_2  imS12_2  reS12_3  imS12_3  reS12_4  imS12_4  
!       reS12_5  imS12_5  reS12_6  imS12_6  reS12_7  imS12_7  reS12_8  imS12_8  
!       reS12_9  imS12_9  reS12_10  imS12_10  reS12_11  imS12_11  reS12_12  imS12_12  
!       reS12_13  imS12_13  reS12_14  imS12_14  reS12_15  imS12_15  reS12_16  imS12_16  
!       reS13_1  imS13_1  reS13_2  imS13_2  reS13_3  imS13_3  reS13_4  imS13_4  
!       reS13_5  imS13_5  reS13_6  imS13_6  reS13_7  imS13_7  reS13_8  imS13_8  
!       reS13_9  imS13_9  reS13_10  imS13_10  reS13_11  imS13_11  reS13_12  imS13_12  
!       reS13_13  imS13_13  reS13_14  imS13_14  reS13_15  imS13_15  reS13_16  imS13_16  
!       reS14_1  imS14_1  reS14_2  imS14_2  reS14_3  imS14_3  reS14_4  imS14_4  
!       reS14_5  imS14_5  reS14_6  imS14_6  reS14_7  imS14_7  reS14_8  imS14_8  
!       reS14_9  imS14_9  reS14_10  imS14_10  reS14_11  imS14_11  reS14_12  imS14_12  
!       reS14_13  imS14_13  reS14_14  imS14_14  reS14_15  imS14_15  reS14_16  imS14_16  
!       reS15_1  imS15_1  reS15_2  imS15_2  reS15_3  imS15_3  reS15_4  imS15_4  
!       reS15_5  imS15_5  reS15_6  imS15_6  reS15_7  imS15_7  reS15_8  imS15_8  
!       reS15_9  imS15_9  reS15_10  imS15_10  reS15_11  imS15_11  reS15_12  imS15_12  
!       reS15_13  imS15_13  reS15_14  imS15_14  reS15_15  imS15_15  reS15_16  imS15_16  
!       reS16_1  imS16_1  reS16_2  imS16_2  reS16_3  imS16_3  reS16_4  imS16_4  
!       reS16_5  imS16_5  reS16_6  imS16_6  reS16_7  imS16_7  reS16_8  imS16_8  
!       reS16_9  imS16_9  reS16_10  imS16_10  reS16_11  imS16_11  reS16_12  imS16_12  
!       reS16_13  imS16_13  reS16_14  imS16_14  reS16_15  imS16_15  reS16_16  imS16_16  
!     
                 0    0.000588377646     1.95180841e-08        0.999411621    -6.60692917e-08      2.8127791e-05     3.71790478e-09    -2.81277626e-05    -9.19620053e-10
                   2.92286041e-11     6.55261207e-11     -2.6256431e-11    -6.79088743e-11     2.99072685e-11     1.09253994e-10    -2.74832867e-11      -1.109499e-10
                  -1.53942596e-12     3.00187383e-12     4.13843927e-12    -4.47052538e-12    -7.99579393e-13     1.01003683e-11      3.2470285e-12    -1.14450518e-11
                   6.91310949e-12    -9.82862985e-13    -4.70804232e-12     3.29813372e-14     6.14317439e-12     1.54960459e-12    -3.15378354e-12    -2.84597019e-12
                      0.999411621    -6.60692917e-08     0.000588377767     1.95182362e-08    -2.81277672e-05    -9.19580737e-10     2.81277887e-05     3.71790105e-09
                  -2.63010979e-11    -6.78909317e-11     2.92107924e-11     6.55161307e-11    -2.74975838e-11     -1.1092984e-10      2.9871007e-11     1.09236964e-10
                   4.11618751e-12     -4.4850477e-12    -1.55850359e-12     2.99384997e-12     3.22482997e-12    -1.14556104e-11    -8.16224252e-13     1.00893446e-11
                  -4.72082047e-12      1.9646855e-14     6.89655788e-12    -9.98695179e-13    -3.17158449e-12    -2.86349796e-12     6.12049528e-12     1.52767275e-12
                    2.8127791e-05     3.71790478e-09    -2.81277672e-05    -9.19580737e-10     0.000587307594       2.128607e-08        0.999412692    -6.81280429e-08
                   3.83210728e-11     1.03530075e-10    -3.81893687e-11    -1.03064588e-10     3.91299252e-11     6.47042711e-11    -3.90395827e-11    -6.43696621e-11
                  -3.90617374e-12     1.36468104e-11     3.87515734e-12    -1.34784199e-11    -2.83847204e-12     4.68207807e-12     2.80794556e-12     -4.5294726e-12
                    7.9493286e-12      3.2916894e-12     -8.0215012e-12    -3.18543624e-12     6.32496196e-12    -6.21912112e-13    -6.42203367e-12     7.60665828e-13
                  -2.81277626e-05    -9.19620053e-10     2.81277887e-05     3.71790105e-09        0.999412692    -6.81280429e-08     0.000587307528     2.12861588e-08
                  -3.81955211e-11    -1.03062009e-10     3.83533537e-11     1.03534251e-10    -3.90265493e-11    -6.43671257e-11     3.91371109e-11     6.47079242e-11
                   3.86761327e-12    -1.34721148e-11    -3.88667516e-12     1.36531658e-11       2.800486e-12    -4.52367185e-12    -2.82044636e-12     4.68826298e-12
                  -8.02168179e-12    -3.17896252e-12     7.95642811e-12     3.29811533e-12     -6.4213532e-12     7.69430427e-13     6.33266666e-12    -6.13162486e-13
                   2.92286041e-11     6.55261207e-11    -2.63010979e-11    -6.78909317e-11     3.83210728e-11     1.03530075e-10    -3.81955211e-11    -1.03062009e-10
                     0.0011309704     4.12547252e-08        0.998869028    -1.33248038e-07     5.25193593e-05     5.96078404e-09    -5.25193076e-05    -3.41362521e-10
                  -3.63636199e-11     1.00693582e-10     4.50899904e-11    -1.08668309e-10     1.18605082e-11     1.47779474e-10    -3.59855409e-12    -1.55191914e-10
                  -3.69342179e-10    -1.56665893e-11     3.76761734e-10     1.06956437e-11    -4.38993236e-10    -1.54203844e-12     4.49010889e-10    -5.23841872e-12
                   -2.6256431e-11    -6.79088743e-11     2.92107924e-11     6.55161307e-11    -3.81893687e-11    -1.03064588e-10     3.83533537e-11     1.03534251e-10
                      0.998869028    -1.33248038e-07      0.00113097024     4.12543513e-08     -5.2519305e-05    -3.41438101e-10     5.25193646e-05     5.96055242e-09
                   4.51097553e-11     -1.0871065e-10    -3.63121481e-11     1.00627338e-10    -3.59059809e-12    -1.55217272e-10     1.18963556e-11     1.47704951e-10
                   3.76723361e-10     1.06614863e-11    -3.69372429e-10    -1.57070573e-11     4.48951259e-10    -5.28624858e-12    -4.39052693e-10    -1.59582066e-12
                   2.99072685e-11     1.09253994e-10    -2.74975838e-11     -1.1092984e-10     3.91299252e-11     6.47042711e-11    -3.90265493e-11    -6.43671257e-11
                   5.25193593e-05     5.96078404e-09     -5.2519305e-05    -3.41438101e-10      0.00113166027      4.1644491e-08        0.998868338    -1.36334093e-07
                  -3.93517143e-11     1.30666626e-10     4.57913308e-11    -1.36586914e-10     9.57751107e-12     9.48455482e-11    -3.48659935e-12    -1.00408371e-10
                  -3.74230966e-10    -9.52662498e-12     3.79736149e-10     5.74939995e-12    -4.45915718e-10    -8.73098721e-12     4.53347115e-10     3.57172382e-12
                  -2.74832867e-11      -1.109499e-10      2.9871007e-11     1.09236964e-10    -3.90395827e-11    -6.43696621e-11     3.91371109e-11     6.47079242e-11
                  -5.25193076e-05    -3.41362521e-10     5.25193646e-05     5.96055242e-09        0.998868338    -1.36334093e-07      0.00113166023     4.16448649e-08
                   4.56929695e-11    -1.36563191e-10    -3.93776224e-11     1.30670728e-10    -3.57560747e-12    -1.00376155e-10     9.54775941e-12     9.48396283e-11
                   3.79643686e-10     5.74049016e-12    -3.74317157e-10    -9.54014221e-12     4.53216972e-10      3.5586473e-12    -4.46044985e-10    -8.74836732e-12
                  -1.53942596e-12     3.00187383e-12     4.11618751e-12     -4.4850477e-12    -3.90617374e-12     1.36468104e-11     3.86761327e-12    -1.34721148e-11
                  -3.63636199e-11     1.00693582e-10     4.51097553e-11     -1.0871065e-10    -3.93517143e-11     1.30666626e-10     4.56929695e-11    -1.36563191e-10
                    0.00221716889     8.32617784e-08        0.997782828    -2.67225271e-07     0.000104170358     1.06495488e-08    -0.000104170249     6.83429309e-10
                  -1.61683077e-10     7.51993616e-11     1.77275368e-10    -8.96006991e-11     -1.5166696e-10      1.0928713e-10     1.72543648e-10    -1.29004518e-10
                   4.13843927e-12    -4.47052538e-12    -1.55850359e-12     2.99384997e-12     3.87515734e-12    -1.34784199e-11    -3.88667516e-12     1.36531658e-11
                   4.50899904e-11    -1.08668309e-10    -3.63121481e-11     1.00627338e-10     4.57913308e-11    -1.36586914e-10    -3.93776224e-11     1.30670728e-10
                      0.997782828    -2.67225271e-07      0.00221716879     8.32601766e-08    -0.000104170248     6.83460915e-10     0.000104170362     1.06498123e-08
                   1.77313268e-10    -8.96372329e-11    -1.61610389e-10     7.51503978e-11     1.72605577e-10    -1.29066179e-10    -1.51591327e-10     1.09232734e-10
                  -7.99579393e-13     1.01003683e-11     3.22482997e-12    -1.14556104e-11    -2.83847204e-12     4.68207807e-12       2.800486e-12    -4.52367185e-12
                   1.18605082e-11     1.47779474e-10    -3.59059809e-12    -1.55217272e-10     9.57751107e-12     9.48455482e-11    -3.57560747e-12    -1.00376155e-10
                   0.000104170358     1.06495488e-08    -0.000104170248     6.83460915e-10      0.00221563024     9.26906959e-08        0.997784367    -2.78821687e-07
                  -1.52012538e-10     1.05606356e-10     1.66231948e-10    -1.18967642e-10    -1.44563838e-10      7.5747015e-11     1.63599839e-10    -9.41201958e-11
                    3.2470285e-12    -1.14450518e-11    -8.16224252e-13     1.00893446e-11     2.80794556e-12     -4.5294726e-12    -2.82044636e-12     4.68826298e-12
                  -3.59855409e-12    -1.55191914e-10     1.18963556e-11     1.47704951e-10    -3.48659935e-12    -1.00408371e-10     9.54775941e-12     9.48396283e-11
                  -0.000104170249     6.83429309e-10     0.000104170362     1.06498123e-08        0.997784367    -2.78821687e-07      0.00221563015     9.26889993e-08
                   1.66279779e-10    -1.18966537e-10    -1.51970615e-10     1.05595343e-10      1.6366646e-10    -9.41303052e-11    -1.44520187e-10     7.57434792e-11
                   6.91310949e-12    -9.82862985e-13    -4.72082047e-12      1.9646855e-14      7.9493286e-12      3.2916894e-12    -8.02168179e-12    -3.17896252e-12
                  -3.69342179e-10    -1.56665893e-11     3.76723361e-10     1.06614863e-11    -3.74230966e-10    -9.52662498e-12     3.79643686e-10     5.74049016e-12
                  -1.61683077e-10     7.51993616e-11     1.77313268e-10    -8.96372329e-11    -1.52012538e-10     1.05606356e-10     1.66279779e-10    -1.18966537e-10
                    0.00438033893      1.6963854e-07        0.995619655    -5.33230519e-07     0.000205635343     1.87725767e-08     -0.00020563512     4.05281217e-09
                  -4.70804232e-12     3.29813372e-14     6.89655788e-12    -9.98695179e-13     -8.0215012e-12    -3.18543624e-12     7.95642811e-12     3.29811533e-12
                   3.76761734e-10     1.06956437e-11    -3.69372429e-10    -1.57070573e-11     3.79736149e-10     5.74939995e-12    -3.74317157e-10    -9.54014221e-12
                   1.77275368e-10    -8.96006991e-11    -1.61610389e-10     7.51503978e-11     1.66231948e-10    -1.18967642e-10    -1.51970615e-10     1.05595343e-10
                      0.995619655    -5.33230519e-07      0.00438033889     1.69639641e-07    -0.000205635119      4.0527715e-09     0.000205635341      1.8773491e-08
                   6.14317439e-12     1.54960459e-12    -3.17158449e-12    -2.86349796e-12     6.32496196e-12    -6.21912112e-13     -6.4213532e-12     7.69430427e-13
                  -4.38993236e-10    -1.54203844e-12     4.48951259e-10    -5.28624858e-12    -4.45915718e-10    -8.73098721e-12     4.53216972e-10      3.5586473e-12
                   -1.5166696e-10      1.0928713e-10     1.72605577e-10    -1.29066179e-10    -1.44563838e-10      7.5747015e-11      1.6366646e-10    -9.41303052e-11
                   0.000205635343     1.87725767e-08    -0.000205635119      4.0527715e-09      0.00437963571     1.79170277e-07        0.995620358    -5.51811453e-07
                  -3.15378354e-12    -2.84597019e-12     6.12049528e-12     1.52767275e-12    -6.42203367e-12     7.60665828e-13     6.33266666e-12    -6.13162486e-13
                   4.49010889e-10    -5.23841872e-12    -4.39052693e-10    -1.59582066e-12     4.53347115e-10     3.57172382e-12    -4.46044985e-10    -8.74836732e-12
                   1.72543648e-10    -1.29004518e-10    -1.51591327e-10     1.09232734e-10     1.63599839e-10    -9.41201958e-11    -1.44520187e-10     7.57434792e-11
                   -0.00020563512     4.05281217e-09     0.000205635341      1.8773491e-08        0.995620358    -5.51811453e-07      0.00437963575     1.79170246e-07

         200000000    0.000714313193     0.000342389456        0.999103009     -0.00852282063     5.35004993e-05     0.000566202546    -4.04938972e-05    -7.44809923e-05
                   2.28183089e-08    -4.48119082e-06     1.76068168e-08     4.52411842e-06     3.04612615e-08    -1.36946858e-07    -3.08497463e-08     1.75665246e-07
                   9.45647884e-09    -1.23390969e-06     2.19451251e-08     1.24101027e-06     8.60503302e-10    -7.48405345e-08    -4.79861035e-09      8.2396296e-08
                   9.46349393e-09    -4.75258621e-07     1.88060977e-08     4.77414235e-07      -6.650157e-10     6.45688395e-09    -4.56268664e-09    -3.49167861e-09
                      0.999103009     -0.00852282063      0.00071380991     0.000342368119     -4.0505772e-05    -7.44797483e-05     5.35072735e-05     0.000566216656
                   1.74795547e-08     4.52376508e-06    -5.51595499e-08    -4.47983828e-06     -1.8107687e-08     1.74986449e-07     2.08834513e-08    -1.37378349e-07
                   2.20394461e-08      1.2408723e-06    -5.27520672e-08    -1.23166784e-06     1.92554123e-09     8.19579883e-08     2.60062872e-09    -7.50885488e-08
                   1.45989715e-08     4.77525509e-07    -4.24238161e-08    -4.72475719e-07     3.27073153e-09    -4.11896407e-09     2.24836021e-09     6.18671308e-09
                   5.35004993e-05     0.000566202546     -4.0505772e-05    -7.44797483e-05     0.000706950179     0.000410423436        0.999109117     -0.00864267441
                   6.95668054e-08    -5.92871763e-07    -8.05072307e-08     6.44933275e-07     3.31820426e-08    -2.75179671e-06    -4.20934554e-09     2.78782329e-06
                   2.88306356e-09     3.49299392e-08    -1.50463514e-08    -2.78885783e-08     8.77852563e-09    -8.37655058e-07     1.56561778e-08     8.42655582e-07
                  -3.69361208e-10     1.48127286e-07    -1.77753993e-08    -1.44954753e-07     8.15163378e-09    -3.57612971e-07     1.69904837e-08     3.58548512e-07
                  -4.04938972e-05    -7.44809923e-05     5.35072735e-05     0.000566216656        0.999109117     -0.00864267441     0.000706223318     0.000410433995
                  -6.69586474e-08     6.43845465e-07     8.10881297e-08    -5.95432075e-07    -1.50691002e-08     2.78780508e-06    -1.15949639e-08    -2.75161277e-06
                   7.01316241e-10    -2.87261693e-08     1.19826499e-08     3.42439674e-08     9.10615315e-09     8.42774368e-07    -3.30499216e-08    -8.36237291e-07
                   3.89876315e-09    -1.46341313e-07     1.44718452e-08     1.47139599e-07     5.93673788e-09     3.59088403e-07    -3.08017045e-08    -3.55532603e-07
                   2.28183089e-08    -4.48119082e-06     1.74795547e-08     4.52376508e-06     6.95668054e-08    -5.92871763e-07    -6.69586474e-08     6.43845465e-07
                    0.00136130211      0.00058523849        0.998212869      -0.0167471284     0.000108457589      0.00106885454    -7.40272907e-05    -7.97746963e-05
                   2.87470368e-08    -5.38292234e-06     1.12932172e-07     5.43003675e-06     1.45382739e-08    -4.86625454e-07    -1.74631492e-08     5.25270255e-07
                   8.29850013e-09    -1.81441702e-06     9.81387255e-08     1.81984799e-06    -5.56225759e-09    -1.64439392e-07      4.6817084e-09     1.72603692e-07
                   1.76068168e-08     4.52411842e-06    -5.51595499e-08    -4.47983828e-06    -8.05072307e-08     6.44933275e-07     8.10881297e-08    -5.95432075e-07
