! Created Mon Apr 12 13:12:17 2021
! List of port names and net name(s): example Port n = <port_name> <net_name1> <net_name2> ...
! Port 1 = P1 P2 P8 
! Port 2 = P2 P2 P8 
! Port 3 = P3 P4 P8 
! Port 4 = P4 P4 P8 
! Port 5 = P9 N__6 N__5 
! Port 6 = P10 N__5 N__6 
! Port 7 = P11 N__8 N__6 
! Port 8 = P12 N__8 N__6 
! Port 9 = P17 N__7 N__3 
! Port 10 = P18 N__7 N__3 
! Port 11 = P19 N__9 N__3 
! Port 12 = P20 N__9 N__3 
! Port 13 = P25 N__15 N__12 
! Port 14 = P26 N__15 N__12 
! Port 15 = P27 N__16 N__12 
! Port 16 = P28 N__16 N__12 
# hz S ri R 50
! 16 Port Network Data from data block
! freq  reS1_1  imS1_1  reS1_2  imS1_2  reS1_3  imS1_3  reS1_4  imS1_4  
!       reS1_5  imS1_5  reS1_6  imS1_6  reS1_7  imS1_7  reS1_8  imS1_8  
!       reS1_9  imS1_9  reS1_10  imS1_10  reS1_11  imS1_11  reS1_12  imS1_12  
!       reS1_13  imS1_13  reS1_14  imS1_14  reS1_15  imS1_15  reS1_16  imS1_16  
!       reS2_1  imS2_1  reS2_2  imS2_2  reS2_3  imS2_3  reS2_4  imS2_4  
!       reS2_5  imS2_5  reS2_6  imS2_6  reS2_7  imS2_7  reS2_8  imS2_8  
!       reS2_9  imS2_9  reS2_10  imS2_10  reS2_11  imS2_11  reS2_12  imS2_12  
!       reS2_13  imS2_13  reS2_14  imS2_14  reS2_15  imS2_15  reS2_16  imS2_16  
!       reS3_1  imS3_1  reS3_2  imS3_2  reS3_3  imS3_3  reS3_4  imS3_4  
!       reS3_5  imS3_5  reS3_6  imS3_6  reS3_7  imS3_7  reS3_8  imS3_8  
!       reS3_9  imS3_9  reS3_10  imS3_10  reS3_11  imS3_11  reS3_12  imS3_12  
!       reS3_13  imS3_13  reS3_14  imS3_14  reS3_15  imS3_15  reS3_16  imS3_16  
!       reS4_1  imS4_1  reS4_2  imS4_2  reS4_3  imS4_3  reS4_4  imS4_4  
!       reS4_5  imS4_5  reS4_6  imS4_6  reS4_7  imS4_7  reS4_8  imS4_8  
!       reS4_9  imS4_9  reS4_10  imS4_10  reS4_11  imS4_11  reS4_12  imS4_12  
!       reS4_13  imS4_13  reS4_14  imS4_14  reS4_15  imS4_15  reS4_16  imS4_16  
!       reS5_1  imS5_1  reS5_2  imS5_2  reS5_3  imS5_3  reS5_4  imS5_4  
!       reS5_5  imS5_5  reS5_6  imS5_6  reS5_7  imS5_7  reS5_8  imS5_8  
!       reS5_9  imS5_9  reS5_10  imS5_10  reS5_11  imS5_11  reS5_12  imS5_12  
!       reS5_13  imS5_13  reS5_14  imS5_14  reS5_15  imS5_15  reS5_16  imS5_16  
!       reS6_1  imS6_1  reS6_2  imS6_2  reS6_3  imS6_3  reS6_4  imS6_4  
!       reS6_5  imS6_5  reS6_6  imS6_6  reS6_7  imS6_7  reS6_8  imS6_8  
!       reS6_9  imS6_9  reS6_10  imS6_10  reS6_11  imS6_11  reS6_12  imS6_12  
!       reS6_13  imS6_13  reS6_14  imS6_14  reS6_15  imS6_15  reS6_16  imS6_16  
!       reS7_1  imS7_1  reS7_2  imS7_2  reS7_3  imS7_3  reS7_4  imS7_4  
!       reS7_5  imS7_5  reS7_6  imS7_6  reS7_7  imS7_7  reS7_8  imS7_8  
!       reS7_9  imS7_9  reS7_10  imS7_10  reS7_11  imS7_11  reS7_12  imS7_12  
!       reS7_13  imS7_13  reS7_14  imS7_14  reS7_15  imS7_15  reS7_16  imS7_16  
!       reS8_1  imS8_1  reS8_2  imS8_2  reS8_3  imS8_3  reS8_4  imS8_4  
!       reS8_5  imS8_5  reS8_6  imS8_6  reS8_7  imS8_7  reS8_8  imS8_8  
!       reS8_9  imS8_9  reS8_10  imS8_10  reS8_11  imS8_11  reS8_12  imS8_12  
!       reS8_13  imS8_13  reS8_14  imS8_14  reS8_15  imS8_15  reS8_16  imS8_16  
!       reS9_1  imS9_1  reS9_2  imS9_2  reS9_3  imS9_3  reS9_4  imS9_4  
!       reS9_5  imS9_5  reS9_6  imS9_6  reS9_7  imS9_7  reS9_8  imS9_8  
!       reS9_9  imS9_9  reS9_10  imS9_10  reS9_11  imS9_11  reS9_12  imS9_12  
!       reS9_13  imS9_13  reS9_14  imS9_14  reS9_15  imS9_15  reS9_16  imS9_16  
!       reS10_1  imS10_1  reS10_2  imS10_2  reS10_3  imS10_3  reS10_4  imS10_4  
!       reS10_5  imS10_5  reS10_6  imS10_6  reS10_7  imS10_7  reS10_8  imS10_8  
!       reS10_9  imS10_9  reS10_10  imS10_10  reS10_11  imS10_11  reS10_12  imS10_12  
!       reS10_13  imS10_13  reS10_14  imS10_14  reS10_15  imS10_15  reS10_16  imS10_16  
!       reS11_1  imS11_1  reS11_2  imS11_2  reS11_3  imS11_3  reS11_4  imS11_4  
!       reS11_5  imS11_5  reS11_6  imS11_6  reS11_7  imS11_7  reS11_8  imS11_8  
!       reS11_9  imS11_9  reS11_10  imS11_10  reS11_11  imS11_11  reS11_12  imS11_12  
!       reS11_13  imS11_13  reS11_14  imS11_14  reS11_15  imS11_15  reS11_16  imS11_16  
!       reS12_1  imS12_1  reS12_2  imS12_2  reS12_3  imS12_3  reS12_4  imS12_4  
!       reS12_5  imS12_5  reS12_6  imS12_6  reS12_7  imS12_7  reS12_8  imS12_8  
!       reS12_9  imS12_9  reS12_10  imS12_10  reS12_11  imS12_11  reS12_12  imS12_12  
!       reS12_13  imS12_13  reS12_14  imS12_14  reS12_15  imS12_15  reS12_16  imS12_16  
!       reS13_1  imS13_1  reS13_2  imS13_2  reS13_3  imS13_3  reS13_4  imS13_4  
!       reS13_5  imS13_5  reS13_6  imS13_6  reS13_7  imS13_7  reS13_8  imS13_8  
!       reS13_9  imS13_9  reS13_10  imS13_10  reS13_11  imS13_11  reS13_12  imS13_12  
!       reS13_13  imS13_13  reS13_14  imS13_14  reS13_15  imS13_15  reS13_16  imS13_16  
!       reS14_1  imS14_1  reS14_2  imS14_2  reS14_3  imS14_3  reS14_4  imS14_4  
!       reS14_5  imS14_5  reS14_6  imS14_6  reS14_7  imS14_7  reS14_8  imS14_8  
!       reS14_9  imS14_9  reS14_10  imS14_10  reS14_11  imS14_11  reS14_12  imS14_12  
!       reS14_13  imS14_13  reS14_14  imS14_14  reS14_15  imS14_15  reS14_16  imS14_16  
!       reS15_1  imS15_1  reS15_2  imS15_2  reS15_3  imS15_3  reS15_4  imS15_4  
!       reS15_5  imS15_5  reS15_6  imS15_6  reS15_7  imS15_7  reS15_8  imS15_8  
!       reS15_9  imS15_9  reS15_10  imS15_10  reS15_11  imS15_11  reS15_12  imS15_12  
!       reS15_13  imS15_13  reS15_14  imS15_14  reS15_15  imS15_15  reS15_16  imS15_16  
!       reS16_1  imS16_1  reS16_2  imS16_2  reS16_3  imS16_3  reS16_4  imS16_4  
!       reS16_5  imS16_5  reS16_6  imS16_6  reS16_7  imS16_7  reS16_8  imS16_8  
!       reS16_9  imS16_9  reS16_10  imS16_10  reS16_11  imS16_11  reS16_12  imS16_12  
!       reS16_13  imS16_13  reS16_14  imS16_14  reS16_15  imS16_15  reS16_16  imS16_16  
!     
                 0    0.000588368804     2.14581196e-08        0.999411631    -6.43622309e-08     2.81279788e-05     3.59233858e-09    -2.81279718e-05    -1.01034912e-09
                  -2.39775943e-09     7.08896655e-11     2.39766642e-09    -7.08464139e-11    -2.37412073e-09     1.15750813e-10     2.37342537e-09    -1.14155492e-10
                    -7.390479e-10     2.42546993e-12     7.38531373e-10    -1.63314153e-12    -8.25663223e-10     7.67563574e-12     8.26206283e-10    -8.64728914e-12
                    1.8852345e-09    -3.16302754e-12    -1.88615792e-09     4.04072845e-12     1.88096971e-09     3.35506099e-13     -1.8819058e-09     5.42447268e-13
                      0.999411631    -6.43622309e-08     0.000588368651     2.14582596e-08    -2.81279686e-05    -1.01036175e-09     2.81279801e-05     3.59234957e-09
                   2.39768027e-09    -7.08579294e-11    -2.39778951e-09     7.08992421e-11     2.37342586e-09    -1.14145982e-10     -2.3741476e-09     1.15762587e-10
                   7.38506361e-10    -1.63684974e-12    -7.39052572e-10     2.43714336e-12     8.26201196e-10    -8.65310858e-12    -8.25643617e-10     7.67138868e-12
                  -1.88616766e-09     4.04084379e-12     1.88521127e-09    -3.16174533e-12    -1.88191601e-09     5.42418145e-13     1.88094694e-09     3.36903033e-13
                   2.81279788e-05     3.59233858e-09    -2.81279686e-05    -1.01036175e-09     0.000587296722     2.28608562e-08        0.999412702    -6.55593776e-08
                  -2.78271384e-09     1.20268218e-10     2.78303659e-09    -1.19119702e-10    -2.75232736e-09     7.90813448e-11     2.75850211e-09    -8.56211378e-11
                   -8.6816349e-10     1.34568075e-11     8.71750124e-10    -1.69512635e-11    -9.73322013e-10     8.09949187e-12     9.69396288e-10    -3.31815088e-12
                   2.20443799e-09    -1.07093779e-11    -2.19888349e-09     6.90322059e-12     2.19956737e-09    -1.37924522e-11    -2.19394549e-09     9.98692052e-12
                  -2.81279718e-05    -1.01034912e-09     2.81279801e-05     3.59234957e-09        0.999412702    -6.55593776e-08     0.000587296788     2.28609931e-08
                   2.78298864e-09    -1.19065145e-10     -2.7826853e-09     1.20213442e-10     2.75844868e-09    -8.56172644e-11    -2.75229654e-09     7.90779537e-11
                   8.71701736e-10    -1.69131609e-11    -8.68139793e-10     1.34147105e-11     9.69371021e-10    -3.31176473e-12    -9.73283423e-10     8.09821798e-12
                  -2.19890806e-09     6.89938066e-12     2.20443519e-09    -1.07193526e-11    -2.19396583e-09     9.98445545e-12     2.19956031e-09    -1.38038993e-11
                  -2.39775943e-09     7.08896655e-11     2.39768027e-09    -7.08579294e-11    -2.78271384e-09     1.20268218e-10     2.78298864e-09    -1.19065145e-10
                    0.00113099752      4.6931628e-08        0.998869002    -1.30768928e-07      5.2542659e-05     5.55171246e-09    -5.25426498e-05    -4.59184281e-10
                   9.05976062e-09     1.12866387e-10     -9.0596871e-09    -1.12199407e-10     1.00142556e-08     1.64834054e-10     -1.0014379e-08    -1.65181106e-10
                  -2.12936403e-08     5.03917971e-11     2.12933596e-08     -4.9894415e-11    -2.12523837e-08     4.97303348e-11     2.12521043e-08    -4.92373216e-11
                   2.39766642e-09    -7.08464139e-11    -2.39778951e-09     7.08992421e-11     2.78303659e-09    -1.19119702e-10     -2.7826853e-09     1.20213442e-10
                      0.998869002    -1.30768928e-07      0.00113099737     4.69313976e-08    -5.25426477e-05    -4.59216762e-10      5.2542666e-05     5.55163428e-09
                  -9.05965859e-09    -1.12163035e-10     9.05975324e-09     1.12903966e-10    -1.00144526e-08    -1.65226663e-10     1.00141886e-08     1.64786835e-10
                   2.12934724e-08    -4.98097338e-11    -2.12935226e-08     5.04790467e-11     2.12522123e-08    -4.91516859e-11    -2.12522716e-08     4.98180104e-11
                  -2.37412073e-09     1.15750813e-10     2.37342586e-09    -1.14145982e-10    -2.75232736e-09     7.90813448e-11     2.75844868e-09    -8.56172644e-11
                    5.2542659e-05     5.55171246e-09    -5.25426477e-05    -4.59216762e-10      0.00113168134     4.62631774e-08        0.998868318    -1.31660618e-07
                   8.96890835e-09      1.3586379e-10    -8.96596403e-09    -1.39543126e-10     9.91064643e-09     1.10170288e-10    -9.91329643e-09    -1.04721773e-10
                  -2.10774651e-08     6.20042607e-11     2.10817313e-08      -6.611183e-11    -2.10366503e-08     4.77647081e-11     2.10409752e-08    -5.18892136e-11
                   2.37342537e-09    -1.14155492e-10     -2.3741476e-09     1.15762587e-10     2.75850211e-09    -8.56211378e-11    -2.75229654e-09     7.90779537e-11
                  -5.25426498e-05    -4.59184281e-10      5.2542666e-05     5.55163428e-09        0.998868318    -1.31660618e-07      0.00113168126     4.62633762e-08
                  -8.96588209e-09    -1.39508004e-10     8.96890589e-09     1.35858261e-10    -9.91334664e-09    -1.04740194e-10     9.91058005e-09      1.1015101e-10
                   2.10818478e-08    -6.60420289e-11    -2.10773182e-08     6.20548793e-11     2.10410902e-08     -5.1819792e-11    -2.10365138e-08     4.78167852e-11
                    -7.390479e-10     2.42546993e-12     7.38506361e-10    -1.63684974e-12     -8.6816349e-10     1.34568075e-11     8.71701736e-10    -1.69131609e-11
                   9.05976062e-09     1.12866387e-10    -9.05965859e-09    -1.12163035e-10     8.96890835e-09      1.3586379e-10    -8.96588209e-09    -1.39508004e-10
                    0.00221717068     9.03797131e-08        0.997782828    -2.56692335e-07     0.000104176211     1.00634774e-08    -0.000104176191     2.01537039e-10
                  -7.77626671e-09      8.9565878e-11     7.78272988e-09    -9.73787629e-11    -7.77224357e-09     1.23432652e-10     7.77882878e-09    -1.31338381e-10
                   7.38531373e-10    -1.63314153e-12    -7.39052572e-10     2.43714336e-12     8.71750124e-10    -1.69512635e-11    -8.68139793e-10     1.34147105e-11
                   -9.0596871e-09    -1.12199407e-10     9.05975324e-09     1.12903966e-10    -8.96596403e-09    -1.39543126e-10     8.96890589e-09     1.35858261e-10
                      0.997782828    -2.56692335e-07      0.00221717072      9.0378749e-08    -0.000104176192     2.01517717e-10     0.000104176211      1.0063737e-08
                   7.78269674e-09    -9.73226017e-11    -7.77629465e-09     8.95673731e-11      7.7787568e-09    -1.31287624e-10    -7.77233096e-09     1.23440066e-10
                  -8.25663223e-10     7.67563574e-12     8.26201196e-10    -8.65310858e-12    -9.73322013e-10     8.09949187e-12     9.69371021e-10    -3.31176473e-12
                   1.00142556e-08     1.64834054e-10    -1.00144526e-08    -1.65226663e-10     9.91064643e-09     1.10170288e-10    -9.91334664e-09    -1.04740194e-10
                   0.000104176211     1.00634774e-08    -0.000104176192     2.01517717e-10       0.0022156246     1.00978511e-07        0.997784376    -2.70538996e-07
                  -8.56044224e-09     1.20409508e-10     8.55325952e-09    -1.09776918e-10    -8.55524063e-09     9.01490871e-11     8.54802512e-09    -7.95721549e-11
                   8.26206283e-10    -8.64728914e-12    -8.25643617e-10     7.67138868e-12     9.69396288e-10    -3.31815088e-12    -9.73283423e-10     8.09821798e-12
                   -1.0014379e-08    -1.65181106e-10     1.00141886e-08     1.64786835e-10    -9.91329643e-09    -1.04721773e-10     9.91058005e-09      1.1015101e-10
                  -0.000104176191     2.01537039e-10     0.000104176211      1.0063737e-08        0.997784376    -2.70538996e-07      0.00221562452     1.00978189e-07
                   8.55324197e-09     -1.0984182e-10    -8.56037231e-09     1.20408764e-10     8.54795059e-09    -7.96302837e-11    -8.55522285e-09     9.01415149e-11
                    1.8852345e-09    -3.16302754e-12    -1.88616766e-09     4.04084379e-12     2.20443799e-09    -1.07093779e-11    -2.19890806e-09     6.89938066e-12
                  -2.12936403e-08     5.03917971e-11     2.12934724e-08    -4.98097338e-11    -2.10774651e-08     6.20042607e-11     2.10818478e-08    -6.60420289e-11
                  -7.77626671e-09      8.9565878e-11     7.78269674e-09    -9.73226017e-11    -8.56044224e-09     1.20409508e-10     8.55324197e-09     -1.0984182e-10
                    0.00438037636     1.88690855e-07        0.995619621    -5.17511127e-07     0.000205671731     1.77911312e-08    -0.000205671661     2.73291451e-09
                  -1.88615792e-09     4.04072845e-12     1.88521127e-09    -3.16174533e-12    -2.19888349e-09     6.90322059e-12     2.20443519e-09    -1.07193526e-11
                   2.12933596e-08     -4.9894415e-11    -2.12935226e-08     5.04790467e-11     2.10817313e-08      -6.611183e-11    -2.10773182e-08     6.20548793e-11
                   7.78272988e-09    -9.73787629e-11    -7.77629465e-09     8.95673731e-11     8.55325952e-09    -1.09776918e-10    -8.56037231e-09     1.20408764e-10
                      0.995619621    -5.17511127e-07      0.00438037621     1.88692251e-07     -0.00020567166     2.73280204e-09     0.000205671732     1.77912748e-08
                   1.88096971e-09     3.35506099e-13    -1.88191601e-09     5.42418145e-13     2.19956737e-09    -1.37924522e-11    -2.19396583e-09     9.98445545e-12
                  -2.12523837e-08     4.97303348e-11     2.12522123e-08    -4.91516859e-11    -2.10366503e-08     4.77647081e-11     2.10410902e-08     -5.1819792e-11
                  -7.77224357e-09     1.23432652e-10      7.7787568e-09    -1.31287624e-10    -8.55524063e-09     9.01490871e-11     8.54795059e-09    -7.96302837e-11
                   0.000205671731     1.77911312e-08     -0.00020567166     2.73280204e-09      0.00437967344     1.96497172e-07        0.995620323    -5.34662672e-07
                   -1.8819058e-09     5.42447268e-13     1.88094694e-09     3.36903033e-13    -2.19394549e-09     9.98692052e-12     2.19956031e-09    -1.38038993e-11
                   2.12521043e-08    -4.92373216e-11    -2.12522716e-08     4.98180104e-11     2.10409752e-08    -5.18892136e-11    -2.10365138e-08     4.78167852e-11
                   7.77882878e-09    -1.31338381e-10    -7.77233096e-09     1.23440066e-10     8.54802512e-09    -7.95721549e-11    -8.55522285e-09     9.01415149e-11
                  -0.000205671661     2.73291451e-09     0.000205671732     1.77912748e-08        0.995620323    -5.34662672e-07      0.00437967341     1.96495367e-07

         200000000    0.000772387997     0.000274780784         0.99915327     -0.00854985269     5.01128806e-05     0.000568900843    -4.36396585e-05    -7.20704471e-05
                   2.37560908e-08      -4.476944e-06     1.58612425e-08     4.52187013e-06     3.04534023e-08    -1.34523985e-07    -3.15349895e-08     1.74537017e-07
                   9.54763057e-09    -1.23313381e-06     2.14588538e-08     1.24108508e-06     7.99121148e-10    -7.48636331e-08     -4.8557741e-09      8.2693963e-08
                   9.42960212e-09    -4.74884447e-07      1.8567501e-08     4.77502936e-07     -6.5823156e-10     6.50104045e-09    -4.59026512e-09     -3.4777121e-09
                       0.99915327     -0.00854985269     0.000771525014     0.000274792371    -4.36443663e-05    -7.20699576e-05     5.01367758e-05     0.000568913494
                   1.62002644e-08      4.5215012e-06    -5.45915154e-08    -4.47665853e-06    -1.86490908e-08     1.74030728e-07     2.07996781e-08    -1.35086277e-07
                   2.21524295e-08     1.24092734e-06    -5.27893413e-08    -1.23172568e-06     1.88326132e-09     8.23458981e-08     2.49215951e-09    -7.50853042e-08
                   1.48375632e-08     4.77527266e-07    -4.25558201e-08    -4.72795715e-07     3.24472391e-09    -3.99888956e-09     2.19412181e-09     6.27643043e-09
                   5.01128806e-05     0.000568900843    -4.36443663e-05    -7.20699576e-05     0.000762473965     0.000414731739        0.999163785     -0.00864300885
                   6.93942271e-08    -5.91569353e-07    -8.12576908e-08     6.44289864e-07     3.25534365e-08    -2.74963699e-06    -4.55222101e-09     2.78684914e-06
                   2.95080339e-09      3.5383774e-08    -1.51569059e-08     -2.8019582e-08     8.76270824e-09    -8.37158196e-07     1.55531257e-08     8.42834909e-07
                  -3.23440452e-10     1.48046095e-07    -1.77364215e-08    -1.45050983e-07     8.06190695e-09    -3.57287599e-07     1.69438418e-08     3.58698207e-07
                  -4.36396585e-05    -7.20704471e-05     5.01367758e-05     0.000568913494        0.999163785     -0.00864300885     0.000761632678     0.000414756984
                  -6.77261014e-08     6.43379731e-07      8.1008031e-08    -5.93987749e-07    -1.51264157e-08     2.78668341e-06    -1.18612555e-08    -2.75005408e-06
                   4.82422154e-10    -2.86422943e-08     1.20044981e-08      3.4818897e-08     8.99589958e-09      8.4286334e-07    -3.30498206e-08    -8.36303892e-07
                   3.79395551e-09    -1.46134961e-07     1.44060227e-08     1.47269575e-07     5.97426816e-09     3.59081729e-07    -3.07999836e-08    -3.55733748e-07
                   2.37560908e-08      -4.476944e-06     1.62002644e-08      4.5215012e-06     6.93942271e-08    -5.91569353e-07    -6.77261014e-08     6.43379731e-07
                    0.00147052043     0.000570294312        0.998319506      -0.0167403292     0.000101447272      0.00106531366    -8.05310819e-05    -8.32293386e-05
                   2.85706149e-08    -5.37852457e-06     1.11070402e-07     5.42891476e-06     1.47043297e-08     -4.8461908e-07    -1.83022321e-08     5.23681655e-07
                   7.68742183e-09    -1.81340272e-06       9.778755e-08     1.81997335e-06    -5.59981519e-09    -1.64375917e-07     4.61866768e-09     1.72500078e-07
                   1.58612425e-08     4.52187013e-06    -5.45915154e-08    -4.47665853e-06    -8.12576908e-08     6.44289864e-07      8.1008031e-08    -5.93987749e-07
