! Created Tue Apr  6 14:10:27 2021
! List of port names and net name(s): example Port n = <port_name> <net_name1> <net_name2> ...
! Port 1 = P1 P1 
! Port 2 = P2 P2 
# hz S ri R 50
! 2 Port Network Data from data block
! freq  reS11  imS11  reS21  imS21  reS12  imS12  reS22  imS22  
!     
                 0    2.73684235e-05                 -0        0.999972632                 -0        0.999972632                 -0     2.73684235e-05                 -0
        8.27425245    2.73684235e-05    -2.67007749e-10        0.999972632    -3.22983535e-09        0.999972632    -3.22983535e-09     2.73684235e-05    -2.69091416e-10
        82.7425245    2.73684235e-05    -2.67007616e-09        0.999972632    -3.22983521e-08        0.999972632    -3.22983521e-08     2.73684235e-05    -2.69091438e-09
        827.425245    2.73684235e-05      -2.670076e-08        0.999972632    -3.22983522e-07        0.999972632    -3.22983522e-07     2.73684235e-05    -2.69091395e-08
        8274.25245    2.73684224e-05    -2.67007615e-07        0.999972632    -3.22983522e-06        0.999972632    -3.22983522e-06     2.73684224e-05    -2.69091396e-07
        10416.6667    2.73684218e-05    -3.36142672e-07        0.999972632    -4.06612163e-06        0.999972632    -4.06612163e-06     2.73684218e-05    -3.38765996e-07
        13113.8064    2.73684208e-05    -4.23178552e-07        0.999972632    -5.11894385e-06        0.999972632    -5.11894385e-06     2.73684207e-05    -4.26481121e-07
        16509.3041    2.73684192e-05    -5.32750233e-07        0.999972632     -6.4443685e-06        0.999972632     -6.4443685e-06     2.73684191e-05    -5.36907921e-07
        20783.9824    2.73684166e-05    -6.70692806e-07        0.999972632    -8.11297926e-06        0.999972632    -8.11297926e-06     2.73684166e-05    -6.75927025e-07
        26165.4837    2.73684126e-05    -8.44352216e-07        0.999972632    -1.02136358e-05        0.999972632    -1.02136358e-05     2.73684126e-05    -8.50941709e-07
        32940.3923    2.73684062e-05    -1.06297646e-06        0.999972631    -1.28582056e-05        0.999972631    -1.28582056e-05     2.73684062e-05    -1.07127214e-06
        41469.4969    2.73683961e-05    -1.33820808e-06        0.999972631    -1.61875218e-05        0.999972631    -1.61875218e-05      2.7368396e-05    -1.34865172e-06
        52207.0035    2.73683801e-05    -1.68470416e-06        0.999972631    -2.03788825e-05        0.999972631    -2.03788825e-05       2.736838e-05    -1.69785192e-06
        65724.7234    2.73683547e-05    -2.12091688e-06        0.999972631    -2.56554931e-05        0.999972631    -2.56554931e-05     2.73683545e-05    -2.13746893e-06
        82742.5245    2.73683144e-05    -2.67007615e-06        0.999972631    -3.22983522e-05        0.999972631    -3.22983522e-05     2.73683141e-05    -2.69091395e-06
        104166.667    2.73682506e-05    -3.36142672e-06        0.999972631    -4.06612163e-05        0.999972631    -4.06612163e-05     2.73682501e-05    -3.38765995e-06
        131138.064    2.73681494e-05    -4.23178551e-06         0.99997263    -5.11894384e-05         0.99997263    -5.11894384e-05     2.73681487e-05    -4.26481119e-06
        165093.041    2.73679891e-05     -5.3275023e-06        0.999972629    -6.44436847e-05        0.999972629    -6.44436847e-05      2.7367988e-05    -5.36907917e-06
        207839.824     2.7367735e-05    -6.70692801e-06        0.999972628    -8.11297921e-05        0.999972628    -8.11297921e-05     2.73677333e-05    -6.75927018e-06
        261654.837    2.73673324e-05    -8.44352206e-06        0.999972625    -0.000102136357        0.999972625    -0.000102136357     2.73673297e-05    -8.50941693e-06
        329403.923    2.73666941e-05    -1.06297644e-05        0.999972622    -0.000128582054        0.999972622    -0.000128582054     2.73666899e-05    -1.07127211e-05
        414694.969    2.73656827e-05    -1.33820804e-05        0.999972616    -0.000161875213        0.999972616    -0.000161875213     2.73656759e-05    -1.34865166e-05
        522070.035    2.73640796e-05    -1.68470407e-05        0.999972607    -0.000203788817        0.999972607    -0.000203788817     2.73640689e-05     -1.6978518e-05
        657247.234    2.73615388e-05     -2.1209167e-05        0.999972592    -0.000256554913        0.999972592    -0.000256554913      2.7361522e-05    -2.13746869e-05
        827425.245     2.7357512e-05    -2.67007579e-05        0.999972569    -0.000322983487        0.999972569    -0.000322983487     2.73574853e-05    -2.69091347e-05
        1041666.67    2.73511299e-05      -3.361426e-05        0.999972532    -0.000406612094        0.999972532    -0.000406612094     2.73510876e-05    -3.38765899e-05
        1311380.64    2.73410151e-05    -4.23178409e-05        0.999972474    -0.000511894247        0.999972474    -0.000511894247      2.7340948e-05    -4.26480927e-05
        1650930.41    2.73249841e-05    -5.32749947e-05        0.999972381    -0.000644436573        0.999972381    -0.000644436573     2.73248777e-05    -5.36907533e-05
        2078398.24    2.72995767e-05    -6.70692235e-05        0.999972235    -0.000811297374        0.999972235    -0.000811297374     2.72994081e-05    -6.75926252e-05
        2616548.37    2.72593088e-05    -8.44351078e-05        0.999972003     -0.00102136247        0.999972003     -0.00102136247     2.72590417e-05    -8.50940165e-05
        3294039.23    2.71954886e-05    -0.000106297419        0.999971635     -0.00128581836        0.999971635     -0.00128581836     2.71950653e-05    -0.000107126906
        4146949.69    2.70943409e-05    -0.000133820354        0.999971052     -0.00161874779        0.999971052     -0.00161874779       2.709367e-05    -0.000134864558
        5220700.35    2.69340335e-05     -0.00016846951        0.999970129      -0.0020378795        0.999970129      -0.0020378795     2.69329705e-05    -0.000169783966
        6572472.34    2.66799661e-05    -0.000212089881        0.999968665     -0.00256553185        0.999968665     -0.00256553185     2.66782819e-05    -0.000213744447
        8274252.45     2.6277303e-05    -0.000267004011        0.999966345     -0.00322980039        0.999966345     -0.00322980039     2.62746349e-05    -0.000269086514
        10416666.7    2.56391414e-05    -0.000336135479        0.999962669     -0.00406605216        0.999962669     -0.00406605216     2.56349161e-05    -0.000338756256
        13113806.4    2.46277648e-05    -0.000423164201        0.999956843      -0.0051188053        0.999956843      -0.0051188053     2.46210765e-05    -0.000426461689
        16509304.1    2.30249449e-05    -0.000532721598        0.999947613     -0.00644409229        0.999947613     -0.00644409229     2.30143652e-05    -0.000536869152
        20783982.4    2.04849076e-05    -0.000670635672        0.999932991      -0.0081124289        0.999932991      -0.0081124289     2.04681917e-05    -0.000675849681
        26165483.7    1.64598748e-05     -0.00084423822        0.999909834        -0.01021254        0.999909834        -0.01021254     1.64335121e-05    -0.000850787417
        32940392.3    1.00822716e-05     -0.00106274901        0.999873175      -0.0128560265        0.999873175      -0.0128560265     1.00408164e-05     -0.00107096439
        41469496.9     -2.142607e-08     -0.00133775426        0.999815179      -0.0161831969        0.999815179      -0.0161831969    -8.63079924e-08     -0.00134803798
        52207003.5   -1.60243806e-05     -0.00168379869        0.999723518      -0.0203703247        0.999723518      -0.0203703247    -1.61251537e-05     -0.00169662833
        65724723.4   -4.13615225e-05      -0.0021191103        0.999578873      -0.0256386381        0.999578873      -0.0256386381    -4.15160783e-05     -0.00213503063
        82742524.5    -8.1453727e-05     -0.00266647182        0.999351124      -0.0322653911        0.999351124      -0.0322653911    -8.16857645e-05     -0.00268605859
         104166667   -0.000144835348     -0.00335423612        0.998993654      -0.0405974396        0.998993654      -0.0405974396    -0.000145170828      -0.0033780026
         117776035   -0.000192515726     -0.00379020496        0.998726605      -0.0458834531        0.998726605      -0.0458834531    -0.000192913658     -0.00381633167
         131449447   -0.000246178378     -0.00422738812        0.998427754      -0.0511886663        0.998427754      -0.0511886663    -0.000246630847     -0.00425562781
         165485049   -0.000404525057     -0.00531134531        0.997554676      -0.0643685625        0.997554676      -0.0643685625    -0.000405041634     -0.00534359499
         208333333   -0.000653121679     -0.00666544158        0.996203118      -0.0809083175        0.996203118      -0.0809083175    -0.000653450518     -0.00669993687
         255251850   -0.000986300622     -0.00813151916        0.994412762      -0.0989542996        0.994412762      -0.0989542996    -0.000985840207     -0.00816467626
         312500000    -0.00147541179      -0.0098916322        0.991800057       -0.120887697        0.991800057       -0.120887697     -0.00147273761     -0.00991794924
         362192145    -0.00196983163      -0.0113892777        0.989154576       -0.139854055        0.989154576       -0.139854055      -0.0019637528      -0.0114056197
         416666667    -0.00258215913      -0.0129941629        0.985851528       -0.160569838        0.985851528       -0.160569838     -0.00257044086      -0.0129962986
         479475254    -0.00337375034       -0.014791028        0.981518201       -0.184353174        0.981518201       -0.184353174     -0.00335281277      -0.0147741953
         546875000    -0.00431786357      -0.0166488884         0.97624019       -0.209744909         0.97624019       -0.209744909       -0.004283782      -0.0166108167
         677083333    -0.00639087061      -0.0200092341        0.964198152       -0.258366017        0.964198152       -0.258366017      -0.0063233174      -0.0199351586
         807291667    -0.00874860353      -0.0230379084        0.949730605       -0.306318502        0.949730605       -0.306318502     -0.00864126152       -0.022942458
         937500000      -0.011343028      -0.0257059409        0.932861555         -0.3534795        0.932861555         -0.3534795      -0.0111953508      -0.0256071191
    1.00260417e+09     -0.0127146503      -0.0268970511         0.92353773       -0.376724793         0.92353773       -0.376724793      -0.0125481308      -0.0268029593
    1.06770833e+09     -0.0141282908      -0.0279892376        0.913628354       -0.399726463        0.913628354       -0.399726463      -0.0139444015      -0.0279036106
     1.1328125e+09     -0.0155781923      -0.0289799931         0.90313958        -0.42246967         0.90313958        -0.42246967      -0.0153786961      -0.0289060545
    1.19791667e+09     -0.0170584921      -0.0298669987        0.892078022        -0.44493982        0.892078022        -0.44493982       -0.016845333      -0.0298074369
    1.26302083e+09     -0.0185631926      -0.0306481392        0.880450713       -0.467122565        0.880450713       -0.467122565         -0.0183384      -0.0306051177
      1.328125e+09     -0.0200861425      -0.0313215254        0.868265068       -0.489003819        0.868265068       -0.489003819      -0.0198517532      -0.0312967147
    1.39322917e+09     -0.0216210282      -0.0318855191         0.85552885       -0.510569751         0.85552885       -0.510569751      -0.0213790239      -0.0318801432
    1.45833333e+09     -0.0231613727      -0.0323387601        0.842250155       -0.531806788        0.842250155       -0.531806788      -0.0229136335      -0.0323536497
     1.5234375e+09     -0.0247005424      -0.0326801925         0.82843738       -0.552701618         0.82843738       -0.552701618       -0.024448812      -0.0327158412
    1.58854167e+09     -0.0262317578      -0.0329090894        0.814099213       -0.573241184        0.814099213       -0.573241184      -0.0259776219       -0.032965709
    1.65364583e+09     -0.0277481097      -0.0330250764        0.799244612       -0.593412682        0.799244612       -0.593412682      -0.0274929824      -0.0331026498
       1.71875e+09     -0.0292425785      -0.0330281515        0.783882794        -0.61320356        0.783882794        -0.61320356      -0.0289876972       -0.033126482
    1.78385417e+09      -0.030708056      -0.0329187039        0.768023223       -0.632601513        0.768023223       -0.632601513      -0.0304544823      -0.0330374597
    1.84895833e+09     -0.0321373692      -0.0326975293        0.751675597       -0.651594478        0.751675597       -0.651594478      -0.0318859946      -0.0328362833
     1.9140625e+09     -0.0335233066      -0.0323658429         0.73484984       -0.670170634         0.73484984       -0.670170634      -0.0332748619      -0.0325241078
    1.97916667e+09     -0.0348586442      -0.0319252904        0.717556095        -0.68831839        0.717556095        -0.68831839      -0.0346137121      -0.0321025484
    2.04427083e+09     -0.0361361741      -0.0313779555        0.699804717       -0.706026386        0.699804717       -0.706026386      -0.0358952035      -0.0315736843
      2.109375e+09     -0.0373487322      -0.0307263662        0.681606267       -0.723283487        0.681606267       -0.723283487      -0.0371120542        -0.03094006
    2.17447917e+09     -0.0384892277      -0.0299734981        0.662971511       -0.740078775        0.662971511       -0.740078775      -0.0382570721      -0.0302046851
    2.23958333e+09      -0.039550672      -0.0291227761        0.643911413       -0.756401549        0.643911413       -0.756401549      -0.0393231846       -0.029371032
     2.3046875e+09     -0.0405262082      -0.0281780733        0.624437136       -0.772241315        0.624437136       -0.772241315      -0.0403034682      -0.0284430313
    2.36979167e+09     -0.0414091404      -0.0271437084        0.604560042       -0.787587786        0.604560042       -0.787587786      -0.0411911775      -0.0274250664
    2.43489583e+09     -0.0421929633      -0.0260244407        0.584291692       -0.802430875        0.584291692       -0.802430875      -0.0419797739      -0.0263219658
           2.5e+09     -0.0428713911      -0.0248254637        0.563643846       -0.816760693        0.563643846       -0.816760693      -0.0426629547      -0.0251389932
      2.578125e+09     -0.0435379014      -0.0232894151        0.538382358       -0.833265323        0.538382358       -0.833265323      -0.0433351393      -0.0236220336
       2.65625e+09     -0.0440340628      -0.0216571919        0.512612707       -0.849000512        0.512612707       -0.849000512      -0.0438369653      -0.0220088813
      2.734375e+09     -0.0443506179      -0.0199401163        0.486356403       -0.863950271        0.486356403       -0.863950271      -0.0441592238      -0.0203109638
        2.8125e+09     -0.0444790211      -0.0181503008        0.459635413       -0.878099013        0.459635413       -0.878099013      -0.0442934401      -0.0185404852
      2.890625e+09     -0.0444115035      -0.0163006062        0.432472173       -0.891431548        0.432472173       -0.891431548      -0.0442319354      -0.0167103811
       2.96875e+09     -0.0441411362      -0.0144045935        0.404889607       -0.903933092        0.404889607       -0.903933092      -0.0439678863      -0.0148342681
      3.046875e+09     -0.0436618907      -0.0124764712        0.376911146        -0.91558928        0.376911146        -0.91558928      -0.0434953815      -0.0129263889
         3.125e+09     -0.0429686954      -0.0105310372        0.348560747       -0.926386177        0.348560747       -0.926386177      -0.0428094743      -0.0110015536
      3.203125e+09     -0.0420574894     -0.00858361629        0.319862911       -0.936310295        0.319862911       -0.936310295      -0.0419062328     -0.00907507605
       3.28125e+09     -0.0409252714     -0.00664999282        0.290842704       -0.945348618        0.290842704       -0.945348618      -0.0407827851     -0.00716270632
      3.359375e+09      -0.039570145     -0.00474633879        0.261525775       -0.953488624        0.261525775       -0.953488624      -0.0394373605     -0.00528055957
        3.4375e+09     -0.0379913589     -0.00288913806        0.231938374       -0.960718322        0.231938374       -0.960718322       -0.037869327     -0.00344504087
      3.515625e+09     -0.0361893418     -0.00109510653        0.202107367       -0.967026278        0.202107367       -0.967026278      -0.0360792224     -0.00167276678
       3.59375e+09      -0.034165732     0.000618891192        0.172060252       -0.972401663        0.172060252       -0.972401663      -0.0340687815     1.95163364e-05
      3.671875e+09     -0.0319234016      0.00223592832        0.141825166       -0.976834288        0.141825166       -0.976834288       -0.031840957      0.00161501674
          3.75e+09     -0.0294664737      0.00373910527        0.111430895       -0.980314655        0.111430895       -0.980314655      -0.0293999352      0.00309698437
      3.828125e+09      -0.026800334      0.00511164147        0.080906881       -0.982834007        0.080906881       -0.982834007      -0.0267511451      0.00444879992
       3.90625e+09     -0.0239316349      0.00633696899       0.0502832145       -0.984384379       0.0502832145       -0.984384379      -0.0239012614      0.00565406582
      3.984375e+09     -0.0208682929      0.00739882778       0.0195906354       -0.984958658       0.0195906354       -0.984958658      -0.0208582006      0.00669669836
        4.0625e+09     -0.0176194794      0.00828136173      -0.0111394795       -0.984550638      -0.0111394795       -0.984550638      -0.0176311111      0.00756102081
      4.140625e+09     -0.0141956025      0.00896921513      -0.0418751324       -0.983155082      -0.0418751324       -0.983155082      -0.0142303552      0.00823185672
       4.21875e+09     -0.0106082833      0.00944762896       -0.072583726       -0.980767788       -0.072583726       -0.980767788      -0.0106674848      0.00869462321
      4.296875e+09    -0.00687032249      0.00970253628       -0.103232092       -0.977385645       -0.103232092       -0.977385645     -0.00695520943       0.0089354234
         4.375e+09    -0.00299566111      0.00972065627       -0.133786523         -0.9730067       -0.133786523         -0.9730067     -0.00310735728      0.00894113755
      4.453125e+09     0.00100066788       0.0094895861       -0.164212821       -0.967630224       -0.164212821       -0.967630224     0.000861171544      0.00869951235
       4.53125e+09     0.00510259477      0.00899789005       -0.194476335       -0.961256767       -0.194476335       -0.961256767      0.00493445864      0.00819924759
      4.609375e+09     0.00929307604      0.00823518527       -0.224542024        -0.95388822       -0.224542024        -0.95388822      0.00909562835      0.00743007973
        4.6875e+09      0.0135541647      0.00719222339       -0.254374518       -0.945527877       -0.254374518       -0.945527877       0.0133269159      0.00638286164
      4.765625e+09      0.0178670874      0.00586096738       -0.283938181        -0.93618048       -0.283938181        -0.93618048       0.0176097422      0.00504963796
       4.84375e+09      0.0222123287      0.00423466305       -0.313197192       -0.925852274       -0.313197192       -0.925852274       0.0219247955      0.00342371535
      4.921875e+09      0.0265697214      0.00230790447       -0.342115623       -0.914551051       -0.342115623       -0.914551051       0.0262521192      0.00149972704
             5e+09      0.0309185426     7.66927665e-05       -0.370657526       -0.902286186       -0.370657526       -0.902286186       0.0305712053    -0.000726308846
