! Created Tue Apr  6 14:37:45 2021
! List of port names and net name(s): example Port n = <port_name> <net_name1> <net_name2> ...
! Port 1 = P1 P1 
! Port 2 = P2 P2 
# hz S ri R 50
! 2 Port Network Data from data block
! freq  reS11  imS11  reS21  imS21  reS12  imS12  reS22  imS22  
!     
                 0       0.346633683                 -0        0.653366316                 -0        0.653366316                 -0        0.346633683                 -0
        8.29389939       0.346633683    -1.58043217e-10        0.653366316    -2.59567812e-10        0.653366316    -2.59567812e-10        0.346633683    -1.58043162e-10
        82.9389939       0.346633683     -1.5804319e-09        0.653366316    -2.59567978e-09        0.653366316    -2.59567978e-09        0.346633683     -1.5804312e-09
        829.389939       0.346633683     -1.5804319e-08        0.653366316    -2.59567978e-08        0.653366316    -2.59567978e-08        0.346633683    -1.58043115e-08
        8293.89939       0.346633683     -1.5804319e-07        0.653366316    -2.59567979e-07        0.653366316    -2.59567979e-07        0.346633683    -1.58043114e-07
        10441.4007       0.346633683    -1.98964588e-07        0.653366316    -3.26776724e-07        0.653366316    -3.26776724e-07        0.346633683    -1.98964493e-07
        13144.9447       0.346633683    -2.50481576e-07        0.653366316    -4.11387522e-07        0.653366316    -4.11387522e-07        0.346633683    -2.50481456e-07
        16548.5049       0.346633683    -3.15337621e-07        0.653366316    -5.17906206e-07        0.653366316    -5.17906206e-07        0.346633683     -3.1533747e-07
        20833.3333       0.346633683    -3.96986545e-07        0.653366316    -6.52005284e-07        0.653366316    -6.52005284e-07        0.346633683    -3.96986354e-07
        26227.6127       0.346633683    -4.99776449e-07        0.653366316     -8.2082602e-07        0.653366316     -8.2082602e-07        0.346633683    -4.99776209e-07
        33018.6082       0.346633683    -6.29181272e-07        0.653366316    -1.03335874e-06        0.653366316    -1.03335874e-06        0.346633683     -6.2918097e-07
        41567.9649       0.346633683    -7.92092292e-07        0.653366316    -1.30092157e-06        0.653366316    -1.30092157e-06        0.346633683    -7.92091912e-07
        52330.9673       0.346633683    -9.97185115e-07        0.653366316    -1.63776323e-06        0.653366316    -1.63776323e-06        0.346633683    -9.97184636e-07
        65880.7846       0.346633683    -1.25538168e-06        0.653366316    -2.06182174e-06        0.653366316    -2.06182174e-06        0.346633683    -1.25538108e-06
        82938.9939       0.346633683     -1.5804319e-06        0.653366316    -2.59567979e-06        0.653366316    -2.59567979e-06        0.346633683    -1.58043114e-06
        104414.007       0.346633683    -1.98964588e-06        0.653366316    -3.26776724e-06        0.653366316    -3.26776724e-06        0.346633683    -1.98964493e-06
        131449.447       0.346633683    -2.50481576e-06        0.653366316    -4.11387522e-06        0.653366316    -4.11387522e-06        0.346633683    -2.50481456e-06
        165485.049       0.346633683    -3.15337621e-06        0.653366316    -5.17906206e-06        0.653366316    -5.17906206e-06        0.346633683     -3.1533747e-06
        208333.333       0.346633683    -3.96986545e-06        0.653366316    -6.52005283e-06        0.653366316    -6.52005283e-06        0.346633683    -3.96986354e-06
        262276.127       0.346633683    -4.99776449e-06        0.653366316    -8.20826019e-06        0.653366316    -8.20826019e-06        0.346633683    -4.99776209e-06
        330186.082       0.346633683    -6.29181272e-06        0.653366316    -1.03335873e-05        0.653366316    -1.03335873e-05        0.346633683     -6.2918097e-06
        415679.649       0.346633683    -7.92092292e-06        0.653366316    -1.30092157e-05        0.653366316    -1.30092157e-05        0.346633683    -7.92091911e-06
        523309.673       0.346633683    -9.97185114e-06        0.653366316    -1.63776322e-05        0.653366316    -1.63776322e-05        0.346633683    -9.97184636e-06
        658807.846       0.346633683    -1.25538168e-05        0.653366315    -2.06182173e-05        0.653366315    -2.06182173e-05        0.346633683    -1.25538108e-05
        829389.939       0.346633683     -1.5804319e-05        0.653366315    -2.59567976e-05        0.653366315    -2.59567976e-05        0.346633683    -1.58043114e-05
        1044140.07       0.346633682    -1.98964588e-05        0.653366314     -3.2677672e-05        0.653366314     -3.2677672e-05        0.346633682    -1.98964492e-05
        1314494.47       0.346633682    -2.50481575e-05        0.653366314    -4.11387514e-05        0.653366314    -4.11387514e-05        0.346633682    -2.50481455e-05
        1654850.49       0.346633681     -3.1533762e-05        0.653366312    -5.17906189e-05        0.653366312    -5.17906189e-05        0.346633681    -3.15337469e-05
        2083333.33        0.34663368    -3.96986543e-05         0.65336631    -6.52005249e-05         0.65336631    -6.52005249e-05         0.34663368    -3.96986352e-05
        2622761.27       0.346633679    -4.99776445e-05        0.653366306    -8.20825951e-05        0.653366306    -8.20825951e-05        0.346633679    -4.99776205e-05
        3301860.82       0.346633676    -6.29181264e-05        0.653366301     -0.00010333586        0.653366301     -0.00010333586        0.346633676    -6.29180962e-05
        4156796.49       0.346633672    -7.92092277e-05        0.653366291     -0.00013009213        0.653366291     -0.00013009213        0.346633672    -7.92091897e-05
        5233096.73       0.346633666    -9.97185085e-05        0.653366277    -0.000163776267        0.653366277    -0.000163776267        0.346633666    -9.97184606e-05
        6588078.46       0.346633656    -0.000125538162        0.653366254    -0.000206182064        0.653366254    -0.000206182064        0.346633656    -0.000125538102
        8293899.39        0.34663364    -0.000158043178        0.653366218     -0.00025956776        0.653366218     -0.00025956776         0.34663364    -0.000158043102
        10441400.7       0.346633615    -0.000198964564        0.653366161    -0.000326776287        0.653366161    -0.000326776287        0.346633615    -0.000198964469
        13144944.7       0.346633575    -0.000250481528        0.653366071     -0.00041138665        0.653366071     -0.00041138665        0.346633575    -0.000250481408
        16548504.9       0.346633512    -0.000315337526        0.653365927    -0.000517904466        0.653365927    -0.000517904466        0.346633512    -0.000315337375
        20833333.3       0.346633413    -0.000396986355          0.6533657    -0.000652001811          0.6533657    -0.000652001811        0.346633413    -0.000396986165
        26227612.7       0.346633255    -0.000499776072         0.65336534    -0.000820819093         0.65336534    -0.000820819093        0.346633255    -0.000499775832
        33018608.2       0.346633004    -0.000629180519        0.653364769     -0.00103334492        0.653364769     -0.00103334492        0.346633004    -0.000629180217
        41567964.9       0.346632607     -0.00079209079        0.653363864       -0.001300894        0.653363864       -0.001300894        0.346632607     -0.00079209041
        52330967.3       0.346631978    -0.000997182118         0.65336243     -0.00163770824         0.65336243     -0.00163770824        0.346631978    -0.000997181639
        65880784.6        0.34663098      -0.0012553757        0.653360159     -0.00206171211        0.653360159     -0.00206171211         0.34663098      -0.0012553751
        82938993.9       0.346629399     -0.00158041997        0.653356562     -0.00259546126        0.653356562     -0.00259546126        0.346629399     -0.00158041921
         104414007       0.346626893     -0.00198962208        0.653350868     -0.00326733193        0.653350868     -0.00326733193        0.346626893     -0.00198962112
         131449447       0.346622922     -0.00250476826        0.653341858     -0.00411300885        0.653341858     -0.00411300885        0.346622922     -0.00250476706
         165485049       0.346616628     -0.00315328145        0.653327616     -0.00517734029        0.653327616     -0.00517734029        0.346616628     -0.00315327993
         208333333       0.346606654     -0.00396967637         0.65330514     -0.00651663897         0.65330514     -0.00651663897        0.346606654     -0.00396967447
         235552071        0.34659913     -0.00448825485        0.653288263     -0.00736698616        0.653288263     -0.00736698616         0.34659913     -0.00448825269
         262898894       0.346590642     -0.00500925159        0.653269299     -0.00822095846        0.653269299     -0.00822095846        0.346590642     -0.00500924919
         330970098       0.346565471     -0.00630599443        0.653213527      -0.0103447806        0.653213527      -0.0103447806        0.346565471      -0.0063059914
         416666667       0.346525581     -0.00793821868        0.653126504      -0.0130141135        0.653126504      -0.0130141135        0.346525581     -0.00793821487
         510503701       0.346471421       -0.009725048        0.653010827      -0.0159305354        0.653010827      -0.0159305354        0.346471422     -0.00972504333
         625000000       0.346390508      -0.0119044947        0.652842781      -0.0194789216        0.652842781      -0.0194789216        0.346390508       -0.011904489
         724384289       0.346307067      -0.0137954583        0.652674753      -0.0225495203        0.652674753      -0.0225495203        0.346307067      -0.0137954517
         833333333       0.346201506       -0.015867376         0.65246876      -0.0259055241         0.65246876      -0.0259055241        0.346201506      -0.0158673683
    1.04166667e+09       0.345958678      -0.0198257394        0.652017201      -0.0322949567        0.652017201      -0.0322949567        0.345958678      -0.0198257299
          1.25e+09       0.345662151      -0.0237784693        0.651496834      -0.0386518196        0.651496834      -0.0386518196        0.345662152      -0.0237784579
    1.45833333e+09       0.345312084      -0.0277244591         0.65091246      -0.0449816303         0.65091246      -0.0449816303        0.345312085      -0.0277244458
    1.66666667e+09       0.344908662      -0.0316626128        0.650265995      -0.0512892842        0.650265995      -0.0512892842        0.344908662      -0.0316625976
    2.08333333e+09       0.343942624      -0.0395110909        0.648786582      -0.0638516382        0.648786582      -0.0638516382        0.343942625       -0.039511072
           2.5e+09       0.342766046      -0.0473154093        0.647052358       -0.076354774        0.647052358       -0.076354774        0.342766047      -0.0473153867
    2.91666667e+09       0.341381338      -0.0550673392        0.645055265      -0.0888017735        0.645055265      -0.0888017735        0.341381339      -0.0550673129
    3.33333333e+09       0.339791287      -0.0627589554        0.642789629       -0.101189057        0.642789629       -0.101189057        0.339791289      -0.0627589255
          3.75e+09       0.337999026      -0.0703826681        0.640252523       -0.113510024        0.640252523       -0.113510024        0.337999029      -0.0703826346
    4.16666667e+09       0.336008006      -0.0779312466        0.637443223       -0.125756854        0.637443223       -0.125756854        0.336008009      -0.0779312095
    4.58333333e+09       0.333821959      -0.0853978355         0.63436263        -0.13792135         0.63436263        -0.13792135        0.333821963      -0.0853977948
             5e+09       0.331444869      -0.0927759643        0.631012829       -0.149995317        0.631012829       -0.149995317        0.331444872      -0.0927759201
    5.41666667e+09       0.328880932       -0.100059549        0.627396787       -0.161970741        0.627396787       -0.161970741        0.328880937       -0.100059502
    5.83333333e+09       0.326134531        -0.10724289        0.623518146       -0.173839865        0.623518146       -0.173839865        0.326134536       -0.107242838
          6.25e+09       0.323210195       -0.114320658        0.619381078       -0.185595228        0.619381078       -0.185595228          0.3232102       -0.114320602
    6.66666667e+09       0.320112577       -0.121287883        0.614990183       -0.197229678        0.614990183       -0.197229678        0.320112583       -0.121287824
    7.08333333e+09       0.316846423       -0.128139937        0.610350418       -0.208736378        0.610350418       -0.208736378        0.316846429       -0.128139874
           7.5e+09       0.313416548       -0.134872508        0.605467037       -0.220108813        0.605467037       -0.220108813        0.313416555       -0.134872441
    7.91666667e+09       0.309827821        -0.14148158        0.600345544       -0.231340784        0.600345544       -0.231340784        0.309827828       -0.141481509
    8.33333333e+09        0.30608514       -0.147963408        0.594991655       -0.242426416        0.594991655       -0.242426416        0.306085148       -0.147963334
          8.75e+09       0.302193429       -0.154314494        0.589411266       -0.253360146        0.589411266       -0.253360146        0.302193439       -0.154314416
    9.16666667e+09       0.298157624       -0.160531562        0.583610421       -0.264136731        0.583610421       -0.264136731        0.298157634        -0.16053148
    9.58333333e+09       0.293982669       -0.166611537         0.57759529        -0.27475124         0.57759529        -0.27475124         0.29398268       -0.166611451
             1e+10       0.289673513       -0.172551524        0.571372139       -0.285199048        0.571372139       -0.285199048        0.289673525       -0.172551434
       1.03125e+10       0.286356559       -0.176912997        0.566572076       -0.292922899        0.566572076       -0.292922899        0.286356572       -0.176912904
        1.0625e+10          0.282969       -0.181193088        0.561661265       -0.300548836        0.561661265       -0.300548836        0.282969014       -0.181192992
       1.09375e+10       0.279512937       -0.185390743        0.556642417       -0.308075242        0.556642417       -0.308075242        0.279512952       -0.185390644
         1.125e+10       0.275990475       -0.189504947        0.551518251       -0.315500592        0.551518251       -0.315500592        0.275990491       -0.189504845
       1.15625e+10       0.272403727       -0.193534727        0.546291489       -0.322823451        0.546291489       -0.322823451        0.272403744       -0.193534622
        1.1875e+10       0.268754816       -0.197479146        0.540964853       -0.330042472        0.540964853       -0.330042472        0.268754834       -0.197479038
       1.21875e+10       0.265045876       -0.201337305        0.535541065       -0.337156395        0.535541065       -0.337156395        0.265045895       -0.201337194
          1.25e+10       0.261279052       -0.205108343        0.530022837       -0.344164046        0.530022837       -0.344164046        0.261279072       -0.205108229
       1.28125e+10       0.257456506       -0.208791434        0.524412872       -0.351064331        0.524412872       -0.351064331        0.257456528       -0.208791317
        1.3125e+10       0.253580415       -0.212385793         0.51871386       -0.357856238         0.51871386       -0.357856238        0.253580438       -0.212385674
       1.34375e+10       0.249652973       -0.215890673        0.512928474       -0.364538832        0.512928474       -0.364538832        0.249652997       -0.215890551
         1.375e+10       0.245676392       -0.219305368        0.507059371       -0.371111254        0.507059371       -0.371111254        0.245676417       -0.219305243
       1.40625e+10       0.241652903       -0.222629215        0.501109185       -0.377572716        0.501109185       -0.377572716         0.24165293       -0.222629087
        1.4375e+10       0.237584757       -0.225861596        0.495080526       -0.383922505        0.495080526       -0.383922505        0.237584786       -0.225861465
       1.46875e+10       0.233474224       -0.229001939        0.488975982       -0.390159971        0.488975982       -0.390159971        0.233474254       -0.229001805
           1.5e+10       0.229323594       -0.232049724        0.482798111       -0.396284533        0.482798111       -0.396284533        0.229323625       -0.232049587
       1.53125e+10       0.225135173        -0.23500448        0.476549445       -0.402295672        0.476549445       -0.402295672        0.225135206       -0.235004341
        1.5625e+10       0.220911287       -0.237865795        0.470232485       -0.408192928        0.470232485       -0.408192928        0.220911322       -0.237865653
       1.59375e+10       0.216654278        -0.24063331        0.463849699         -0.4139759        0.463849699         -0.4139759        0.216654314       -0.240633166
         1.625e+10       0.212366501       -0.243306729        0.457403527       -0.419644242        0.457403527       -0.419644242        0.212366539       -0.243306582
       1.65625e+10       0.208050325       -0.245885817        0.450896372        -0.42519766        0.450896372        -0.42519766        0.208050364       -0.245885667
        1.6875e+10       0.203708128       -0.248370402        0.444330605        -0.43063591        0.444330605        -0.43063591        0.203708168        -0.24837025
       1.71875e+10       0.199342295       -0.250760381        0.437708562       -0.435958797        0.437708562       -0.435958797        0.199342337       -0.250760226
          1.75e+10       0.194955217       -0.253055717        0.431032547       -0.441166169        0.431032547       -0.441166169        0.194955261        -0.25305556
       1.78125e+10       0.190549286       -0.255256446        0.424304824       -0.446257917        0.424304824       -0.446257917        0.190549331       -0.255256286
        1.8125e+10       0.186126892       -0.257362671        0.417527626       -0.451233975        0.417527626       -0.451233975        0.186126939       -0.257362508
       1.84375e+10        0.18169042        -0.25937457        0.410703149        -0.45609431        0.410703149        -0.45609431        0.181690467       -0.259374405
         1.875e+10       0.177242244       -0.261292394        0.403833554        -0.46083893        0.403833554        -0.46083893        0.177242294       -0.261292226
       1.90625e+10        0.17278473       -0.263116466         0.39692097       -0.465467874         0.39692097       -0.465467874        0.172784781       -0.263116295
        1.9375e+10       0.168320223       -0.264847182        0.389967487       -0.469981212        0.389967487       -0.469981212        0.168320276       -0.264847009
       1.96875e+10       0.163851051       -0.266485013        0.382975164       -0.474379046        0.382975164       -0.474379046        0.163851106       -0.266484837
             2e+10       0.159379518       -0.268030501        0.375946026       -0.478661504        0.375946026       -0.478661504        0.159379574       -0.268030323
       2.03125e+10       0.154907899       -0.269484261        0.368882066        -0.48282874        0.368882066        -0.48282874        0.154907957        -0.26948408
        2.0625e+10       0.150438441       -0.270846978        0.361785242       -0.486880934        0.361785242       -0.486880934          0.1504385       -0.270846794
