! Created Tue Apr  6 14:22:18 2021
! List of port names and net name(s): example Port n = <port_name> <net_name1> <net_name2> ...
! Port 1 = P1 P1 
! Port 2 = P2 P2 
# hz S ri R 50
! 2 Port Network Data from data block
! freq  reS11  imS11  reS21  imS21  reS12  imS12  reS22  imS22  
!     
                 0    0.000307961427                  0        0.999692039                 -0        0.999692039                 -0     0.000307961427                  0
        8.23509807    0.000307961427     7.75176243e-11        0.999692039    -3.19058555e-09        0.999692039    -3.19058555e-09     0.000307961427     7.75166112e-11
        82.3509807    0.000307961427     7.75176111e-10        0.999692039    -3.19058656e-08        0.999692039    -3.19058656e-08     0.000307961427     7.75165092e-10
        823.509807    0.000307961427      7.7517606e-09        0.999692039    -3.19058663e-07        0.999692039    -3.19058663e-07     0.000307961427     7.75165065e-09
        8235.09807    0.000307961428     7.75176048e-08        0.999692039    -3.19058663e-06        0.999692039    -3.19058663e-06     0.000307961428     7.75165063e-08
        10367.3742    0.000307961429     9.75888827e-08        0.999692039    -4.01671058e-06        0.999692039    -4.01671058e-06     0.000307961429     9.75874996e-08
        13051.7509    0.000307961431     1.22857124e-07        0.999692039    -5.05673903e-06        0.999692039    -5.05673903e-06     0.000307961431     1.22855383e-07
        16431.1808    0.000307961433     1.54667956e-07        0.999692039    -6.36605726e-06        0.999692039    -6.36605726e-06     0.000307961433     1.54665764e-07
        20685.6311    0.000307961436      1.9471542e-07        0.999692039    -8.01439126e-06        0.999692039    -8.01439126e-06     0.000307961436     1.94712661e-07
        26041.6667    0.000307961442      2.4513219e-07        0.999692038    -1.00895208e-05        0.999692038    -1.00895208e-05     0.000307961442     2.45128716e-07
        32784.5159     0.00030796145     3.08603143e-07        0.999692038    -1.27019541e-05        0.999692038    -1.27019541e-05      0.00030796145      3.0859877e-07
        41273.2602    0.000307961464     3.88508339e-07        0.999692038    -1.59908128e-05        0.999692038    -1.59908128e-05     0.000307961464     3.88502834e-07
        51959.9561    0.000307961486     4.89103021e-07        0.999692038    -2.01312406e-05        0.999692038    -2.01312406e-05     0.000307961486      4.8909609e-07
        65413.7092     0.00030796152     6.15744221e-07        0.999692038    -2.53437303e-05        0.999692038    -2.53437303e-05      0.00030796152     6.15735495e-07
        82350.9807    0.000307961575     7.75176046e-07        0.999692038    -3.19058661e-05        0.999692038    -3.19058661e-05     0.000307961575     7.75165061e-07
        103673.742    0.000307961662      9.7588882e-07        0.999692037    -4.01671054e-05        0.999692037    -4.01671054e-05     0.000307961662     9.75874991e-07
        130517.509    0.000307961799     1.22857123e-06        0.999692036    -5.05673894e-05        0.999692036    -5.05673894e-05     0.000307961799     1.22855382e-06
        164311.808    0.000307962017     1.54667953e-06        0.999692035    -6.36605708e-05        0.999692035    -6.36605708e-05     0.000307962017     1.54665761e-06
        206856.311    0.000307962362     1.94715414e-06        0.999692032     -8.0143909e-05        0.999692032     -8.0143909e-05     0.000307962362     1.94712655e-06
        260416.667    0.000307962908     2.45132179e-06        0.999692029    -0.000100895201        0.999692029    -0.000100895201     0.000307962908     2.45128705e-06
        327845.159    0.000307963775     3.08603121e-06        0.999692023    -0.000127019527        0.999692023    -0.000127019527     0.000307963775     3.08598748e-06
        412732.602    0.000307965148     3.88508295e-06        0.999692014      -0.0001599081        0.999692014      -0.0001599081     0.000307965148     3.88502789e-06
        519599.561    0.000307967325     4.89102932e-06        0.999691999    -0.000201312349        0.999691999    -0.000201312349     0.000307967325        4.89096e-06
        654137.092    0.000307970775     6.15744043e-06        0.999691976     -0.00025343719        0.999691976     -0.00025343719     0.000307970775     6.15735317e-06
        823509.807    0.000307976242     7.75175691e-06        0.999691939    -0.000319058434        0.999691939    -0.000319058434     0.000307976242     7.75164706e-06
        1036737.42    0.000307984907     9.75888112e-06        0.999691881    -0.000401670602        0.999691881    -0.000401670602     0.000307984907     9.75874283e-06
        1305175.09     0.00030799864     1.22856982e-05        0.999691789    -0.000505672992        0.999691789    -0.000505672992      0.00030799864     1.22855241e-05
        1643118.08    0.000308020405     1.54667671e-05        0.999691642    -0.000636603908        0.999691642    -0.000636603908     0.000308020405     1.54665479e-05
        2068563.11    0.000308054899     1.94714852e-05        0.999691411    -0.000801435499        0.999691411    -0.000801435499       0.0003080549     1.94712093e-05
        2604166.67    0.000308109568     2.45131056e-05        0.999691043     -0.00100894485        0.999691043     -0.00100894485     0.000308109569     2.45127583e-05
        3278451.59    0.000308196207      3.0860088e-05        0.999690461     -0.00127018098        0.999690461     -0.00127018098     0.000308196209     3.08596508e-05
        4127326.02     0.00030833351     3.88503823e-05        0.999689539     -0.00159905249        0.999689539     -0.00159905249     0.000308333513      3.8849832e-05
        5195995.61    0.000308551092     4.89094009e-05        0.999688078     -0.00201306662        0.999688078     -0.00201306662     0.000308551097     4.89087082e-05
        6541370.92    0.000308895867     6.15726234e-05        0.999685762     -0.00253425848        0.999685762     -0.00253425848     0.000308895875     6.15717518e-05
        8235098.07    0.000309442123      7.7514014e-05        0.999682095     -0.00319035821        0.999682095     -0.00319035821     0.000309442136     7.75129175e-05
        10367374.2    0.000310307442     9.75817127e-05        0.999676288     -0.00401625536        0.999676288     -0.00401625536     0.000310307462     9.75803337e-05
        13051750.9    0.000311677776     0.000122842802        0.999667099     -0.00505583237        0.999667099     -0.00505583237     0.000311677808     0.000122841069
        16431180.8    0.000313846843     0.000154639326        0.999652569     -0.00636425342        0.999652569     -0.00636425342     0.000313846894      0.00015463715
        20685631.1     0.00031727766     0.000194658133        0.999629628     -0.00801080837        0.999629628     -0.00801080837      0.00031727774     0.000194655405
        26041666.7    0.000322697831     0.000245017376        0.999593481      -0.0100824228        0.999593481      -0.0100824228     0.000322697956     0.000245013964
        29444008.8    0.000326772312     0.000276992192        0.999566386      -0.0113975113        0.999566386      -0.0113975113     0.000326772472     0.000276988354
        32862361.7    0.000331354868     0.000309103563        0.999535988      -0.0127180116        0.999535988      -0.0127180116     0.000331355065     0.000309099305
        41371262.2    0.000344856888     0.000388962263        0.999446881      -0.0160011325        0.999446881      -0.0160011325     0.000344857193     0.000388956991
        52083333.3    0.000365990133     0.000489314292        0.999308684      -0.0201253493        0.999308684      -0.0201253493     0.000365990595     0.000489307828
        63812962.6    0.000394180228     0.000598893067        0.999126493      -0.0246282457        0.999126493      -0.0246282457     0.000394180884     0.000598885423
          78125000    0.000435260094     0.000732033721        0.998864685      -0.0301023561        0.998864685      -0.0301023561     0.000435260996     0.000732024841
        90548036.1    0.000476386628     0.000846967935        0.998606017      -0.0348354774        0.998606017      -0.0348354774     0.000476387739     0.000846958176
         104166667    0.000526722786     0.000972129772        0.998292725      -0.0400047551        0.998292725      -0.0400047551     0.000526724101     0.000972119266
         130208333    0.000635971628      0.00120842968        0.997618469      -0.0498375905        0.997618469      -0.0498375905      0.00063597322      0.00120841836
         156250000    0.000758532792      0.00143977529        0.996858339      -0.0596125013        0.996858339      -0.0596125013     0.000758534458      0.00143976389
         182291667    0.000890283085      0.00166517784        0.996020478      -0.0693420657        0.996020478      -0.0693420657     0.000890284608      0.00166516696
         208333333     0.00102769807      0.00188393035        0.995107398      -0.0790369011        0.995107398      -0.0790369011      0.00102769926      0.00188392043
         260416667     0.00130890094      0.00230028356        0.993051681      -0.0983510703        0.993051681      -0.0983510703      0.00130890105      0.00230027628
         312500000     0.00158732822      0.00268923032        0.990674802       -0.117589774        0.990674802       -0.117589774      0.00158732702      0.00268922598
         364583333     0.00185639651      0.00305418375        0.987959599       -0.136763466        0.987959599       -0.136763466      0.00185639399      0.00305418216
         416666667     0.00211466835      0.00339958209        0.984894346       -0.155871091        0.984894346       -0.155871091       0.0021146646      0.00339958286
         481770833     0.00242439684      0.00381012775         0.98056079       -0.179653742         0.98056079       -0.179653742      0.00242439167      0.00381013088
         546875000     0.00272413304      0.00420296809        0.975664823       -0.203309559        0.975664823       -0.203309559      0.00272412652      0.00420297303
         611979167     0.00301914106      0.00458236623        0.970206256       -0.226823549        0.970206256       -0.226823549      0.00301913316      0.00458237258
         677083333      0.0033141211      0.00495086605        0.964187726       -0.250181342        0.964187726       -0.250181342      0.00331411175      0.00495087355
         742187500     0.00361291274      0.00530978802        0.957613365        -0.27336938        0.957613365        -0.27336938      0.00361290182      0.00530979653
         807291667     0.00391850629      0.00565963909        0.950488064       -0.296374809        0.950488064       -0.296374809      0.00391849367      0.00565964857
         872395833     0.00423316027      0.00600040632        0.942817093         -0.3191853        0.942817093         -0.3191853      0.00423314581      0.00600041679
         937500000     0.00455853812      0.00633175408        0.934605921       -0.341788885        0.934605921       -0.341788885      0.00455852168      0.00633176561
    1.00260417e+09     0.00489583194       0.0066531521        0.925860142       -0.364173824        0.925860142       -0.364173824       0.0048958134      0.00665316481
    1.06770833e+09     0.00524586413      0.00696395734        0.916585466       -0.386328519        0.916585466       -0.386328519      0.00524584336      0.00696397137
     1.1328125e+09     0.00560916736      0.00726346592        0.906787732       -0.408241456        0.906787732       -0.408241456      0.00560914426      0.00726348145
    1.19791667e+09     0.00598604612      0.00755094585        0.896472938       -0.429901171        0.896472938       -0.429901171      0.00598602059      0.00755096306
    1.26302083e+09     0.00637662371      0.00782565773        0.885647273       -0.451296242        0.885647273       -0.451296242      0.00637659567      0.00782567683
      1.328125e+09     0.00678087797      0.00808686777        0.874317138       -0.472415291        0.874317138       -0.472415291      0.00678084736      0.00808688897
    1.39322917e+09     0.00719866856      0.00833385602        0.862489177       -0.493246991        0.862489177       -0.493246991      0.00719863533      0.00833387954
    1.45833333e+09     0.00762975783      0.00856592152        0.850170287       -0.513780085        0.850170287       -0.513780085      0.00762972195      0.00856594759
     1.5234375e+09     0.00807382694       0.0087823856        0.837367635         -0.5340034        0.837367635         -0.5340034       0.0080737884      0.00878241446
    1.58854167e+09     0.00853048839      0.00898259398         0.82408866       -0.553905868         0.82408866       -0.553905868      0.00853044718      0.00898262586
    1.65364583e+09     0.00899929586      0.00916591806        0.810341082       -0.573476544        0.810341082       -0.573476544      0.00899925199      0.00916595322
       1.71875e+09       0.009479752      0.00933175588        0.796132897       -0.592704624        0.796132897       -0.592704624       0.0094797055      0.00933179455
    1.78385417e+09     0.00997131468       0.0094795327         0.78147238       -0.611579457         0.78147238       -0.611579457      0.00997126559      0.00947957513
    1.84895833e+09      0.0104734021      0.00960870147        0.766368076       -0.630090567        0.766368076       -0.630090567       0.0104733505      0.00960874791
     1.9140625e+09      0.0109853969      0.00971874322        0.750828797       -0.648227661        0.750828797       -0.648227661       0.0109853428      0.00971879392
    1.97916667e+09      0.0115066497      0.00980916741        0.734863618        -0.66598064        0.734863618        -0.66598064       0.0115065933       0.0098092226
    2.04427083e+09      0.0120364821      0.00987951224        0.718481865       -0.683339616        0.718481865       -0.683339616       0.0120364234      0.00987957217
      2.109375e+09      0.0125741892      0.00992934499        0.701693113       -0.700294915        0.701693113       -0.700294915       0.0125741283       0.0099294099
    2.17447917e+09      0.0131190415      0.00995826237        0.684507177        -0.71683709        0.684507177        -0.71683709       0.0131189787      0.00995833249
    2.23958333e+09      0.0136702876      0.00996589086          0.6669341       -0.732956925          0.6669341       -0.732956925       0.0136702229      0.00996596641
     2.3046875e+09       0.014227155      0.00995188707        0.648984153       -0.748645447        0.648984153       -0.748645447       0.0142270886      0.00995196828
    2.36979167e+09      0.0147888527      0.00991593817        0.630667823       -0.763893926        0.630667823       -0.763893926       0.0147887848      0.00991602525
    2.43489583e+09      0.0153545719      0.00985776222        0.611995803       -0.778693888        0.611995803       -0.778693888       0.0153545027      0.00985785539
           2.5e+09      0.0159234881      0.00977710863        0.592978992       -0.793037113        0.592978992       -0.793037113       0.0159234177      0.00977720808
      2.578125e+09      0.0166092247      0.00965034793        0.569719323       -0.809634908        0.569719323       -0.809634908       0.0166091532      0.00965045518
       2.65625e+09      0.0172968798      0.00949058896        0.545998655       -0.825550323        0.545998655       -0.825550323       0.0172968076      0.00949070426
      2.734375e+09      0.0179849535      0.00929758238        0.521836879       -0.840770681        0.521836879       -0.840770681       0.0179848809      0.00929770598
        2.8125e+09      0.0186719241      0.00907114759        0.497254236       -0.855283886        0.497254236       -0.855283886       0.0186718515      0.00907127971
      2.890625e+09      0.0193562516      0.00881117366        0.472271303       -0.869078421        0.472271303       -0.869078421       0.0193561792      0.00881131451
       2.96875e+09      0.0200363805      0.00851762033        0.446908976       -0.882143366        0.446908976       -0.882143366       0.0200363089       0.0085177701
      3.046875e+09      0.0207107431      0.00819051895        0.421188448         -0.8944684        0.421188448         -0.8944684       0.0207106727      0.00819067779
         3.125e+09      0.0213777625      0.00782997329        0.395131196       -0.906043815        0.395131196       -0.906043815       0.0213776937      0.00783014136
      3.203125e+09      0.0220358555      0.00743616042        0.368758962       -0.916860519        0.368758962       -0.916860519       0.0220357888      0.00743633782
       3.28125e+09      0.0226834362       0.0070093314        0.342093733       -0.926910043        0.342093733       -0.926910043        0.022683372      0.00700951824
      3.359375e+09      0.0233189187        0.006549812        0.315157727       -0.936184552        0.315157727       -0.936184552       0.0233188575      0.00655000833
        3.4375e+09      0.0239407208       0.0060580032        0.287973373       -0.944676849        0.287973373       -0.944676849        0.023940663      0.00605820908
      3.515625e+09       0.024547267      0.00553438177        0.260563293       -0.952380378        0.260563293       -0.952380378       0.0245472132       0.0055345972
       3.59375e+09      0.0251369923      0.00497950055        0.232950282       -0.959289236        0.232950282       -0.959289236       0.0251369429      0.00497972553
      3.671875e+09      0.0257083453      0.00439398877        0.205157295       -0.965398171        0.205157295       -0.965398171       0.0257083008      0.00439422327
          3.75e+09      0.0262597919      0.00377855218         0.17720742       -0.970702591         0.17720742       -0.970702591       0.0262597528      0.00377879613
      3.828125e+09      0.0267898188      0.00313397302        0.149123868       -0.975198568        0.149123868       -0.975198568       0.0267897856      0.00313422633
       3.90625e+09      0.0272969374       0.0024611099        0.120929946       -0.978882839        0.120929946       -0.978882839       0.0272969107      0.00246137245
      3.984375e+09      0.0277796872      0.00176089754       0.0926490441        -0.98175281       0.0926490441        -0.98175281       0.0277796674      0.00176116918
        4.0625e+09      0.0282366398      0.00103434625       0.0643046124       -0.983806559       0.0643046124       -0.983806559       0.0282366273       0.0010346268
      4.140625e+09      0.0286664025     0.000282541365        0.035920143       -0.985042837        0.035920143       -0.985042837        0.028666398      0.00028283063
       4.21875e+09      0.0290676226    -0.000493357578      0.00751915018        -0.98546107      0.00751915018        -0.98546107       0.0290676264    -0.000493059832
      4.296875e+09      0.0294389906     -0.00129211783      -0.0208748492        -0.98506136      -0.0208748492        -0.98506136       0.0294390032     -0.00129181186
         4.375e+09      0.0297792448     -0.00211243459      -0.0492383553       -0.983844482      -0.0492383553       -0.983844482       0.0297792668     -0.00211212068
      4.453125e+09      0.0300871749     -0.00295293242      -0.0775479048       -0.981811887      -0.0775479048       -0.981811887       0.0300872067     -0.00295261089
       4.53125e+09      0.0303616261     -0.00381216682       -0.105780091       -0.978965699       -0.105780091       -0.978965699       0.0303616681     -0.00381183801
      4.609375e+09      0.0306015027     -0.00468862604       -0.133911583       -0.975308714       -0.133911583       -0.975308714       0.0306015554     -0.00468829031
