! Port 1 = P1 P2 
! Port 2 = P2 P2 
# hz S ri R 50
! freq  reS11  imS11  reS21  imS21  reS12  imS12  reS22  imS22  
!
2.5000e+05    0.0053822751   -0.0001024524    0.9946160707   -0.0002676700    0.9946160707   -0.0002676700    0.0053822726   -0.0001024524
1.0025e+08    0.0030052601   -0.0335645971    0.9890932954   -0.0876414592    0.9890932954   -0.0876414592    0.0030052586   -0.0335645982
2.0025e+08   -0.0049465904   -0.0662032649    0.9747328949   -0.1731224066    0.9747328949   -0.1731224066   -0.0049465933   -0.0662032623
3.0025e+08   -0.0181053458   -0.0970763992    0.9519379098   -0.2557442191    0.9519379098   -0.2557442191   -0.0181053472   -0.0970764010
4.0025e+08   -0.0360986990   -0.1252820097    0.9214150018   -0.3344978224    0.9214150018   -0.3344978224   -0.0360986949   -0.1252820089
5.0025e+08   -0.0583604118   -0.1499939680    0.8840084370   -0.4085961387    0.8840084370   -0.4085961387   -0.0583604097   -0.1499939692
6.0025e+08   -0.0841566199   -0.1705323755    0.8406123634   -0.4774675918    0.8406123634   -0.4774675918   -0.0841566181   -0.1705323762
7.0025e+08   -0.1126342744   -0.1864018237    0.7921297841   -0.5407240713    0.7921297841   -0.5407240713   -0.1126342748   -0.1864018232
8.0025e+08   -0.1428779510   -0.1973041704    0.7394487210   -0.5981371870    0.7394487210   -0.5981371870   -0.1428779495   -0.1973041696
9.0025e+08   -0.1739984159   -0.2031542733    0.6833843461   -0.6496440907    0.6833843461   -0.6496440907   -0.1739984139   -0.2031542754
1.0002e+09   -0.2051288344   -0.2040177958    0.6247055353   -0.6952851669    0.6247055353   -0.6952851669   -0.2051288382   -0.2040177985
1.1002e+09   -0.2354902605   -0.2001098292    0.5640815379   -0.7352092597    0.5640815379   -0.7352092597   -0.2354902575   -0.2001098267
1.2002e+09   -0.2643850394   -0.1917502747    0.5020965413   -0.7696329130    0.5020965413   -0.7696329130   -0.2643850385   -0.1917502719
1.3002e+09   -0.2912197978   -0.1793421436    0.4392299087   -0.7988227453    0.4392299087   -0.7988227453   -0.2912197988   -0.1793421442
1.4002e+09   -0.3154992776   -0.1633431245    0.3758650946   -0.8230681653    0.3758650946   -0.8230681653   -0.3154992792   -0.1633431246
1.5002e+09   -0.3368168934   -0.1442455607    0.3123019412   -0.8426608850    0.3123019412   -0.8426608850   -0.3368168887   -0.1442455624
1.6002e+09   -0.3548571697   -0.1225613154    0.2487558030   -0.8578793995    0.2487558030   -0.8578793995   -0.3548571742   -0.1225613218
1.7002e+09   -0.3693807016   -0.0988097483    0.1853765925   -0.8689745352    0.1853765925   -0.8689745352   -0.3693807007   -0.0988097436
1.8002e+09   -0.3802291270   -0.0735054915    0.1222442220   -0.8761570901    0.1222442220   -0.8761570901   -0.3802291259   -0.0735054908
1.9002e+09   -0.3872696147   -0.0471715989    0.0594440444   -0.8796010906    0.0594440444   -0.8796010906   -0.3872696156   -0.0471715997
2.0002e+09   -0.3904597700   -0.0203133008    0.0030105925    0.8794263150    0.0030105925    0.8794263150   -0.3904597695   -0.0203132996
2.1002e+09   -0.3897987935    0.0065699052    0.0651102682    0.8757027178    0.0651102682    0.8757027178   -0.3897987888    0.0065699060
2.2002e+09   -0.3853354901    0.0329884357    0.1268515691    0.8684474996    0.1268515691    0.8684474996   -0.3853354935    0.0329884369
2.3002e+09   -0.3771607196    0.0584558702    0.1882121396    0.8576318450    0.1882121396    0.8576318450   -0.3771607155    0.0584558777
2.4002e+09   -0.3654176346    0.0824971014    0.2491554985    0.8431780766    0.2491554985    0.8431780766   -0.3654176350    0.0824971037
2.5002e+09   -0.3502988623    0.1046446365    0.3096095012    0.8249686381    0.3096095012    0.8249686381   -0.3502988676    0.1046446396
2.6002e+09   -0.3320518350    0.1244426936    0.3694581624    0.8028522738    0.3694581624    0.8028522738   -0.3320518324    0.1244426854
2.7002e+09   -0.3109833114    0.1414521918    0.4285315996    0.7766532694    0.4285315996    0.7766532694   -0.3109833099    0.1414521858
2.8002e+09   -0.2874639626    0.1552577380    0.4865961537    0.7461838953    0.4865961537    0.7461838953   -0.2874639646    0.1552577507
2.9002e+09   -0.2619322649    0.1654784332    0.5433484066    0.7112579088    0.5433484066    0.7112579088   -0.2619322569    0.1654784401
3.0002e+09   -0.2348967139    0.1717801305    0.5984087434    0.6717090720    0.5984087434    0.6717090720   -0.2348967089    0.1717801261
3.1002e+09   -0.2069348295    0.1738921258    0.6513224484    0.6274085536    0.6513224484    0.6274085536   -0.2069348263    0.1738921306
3.2002e+09   -0.1786885445    0.1716240254    0.7015614020    0.5782875019    0.7015614020    0.5782875019   -0.1786885334    0.1716240321
3.3002e+09   -0.1508586548    0.1648842662    0.7485229927    0.5243732599    0.7485229927    0.5243732599   -0.1508586482    0.1648842640
3.4002e+09   -0.1241713601    0.1537012644    0.7915885731    0.4657511169    0.7915885731    0.4657511169   -0.1241713492    0.1537012610
3.5002e+09   -0.0993822879    0.1382319687    0.8300788822    0.4026695804    0.8300788822    0.4026695804   -0.0993822805    0.1382319668
3.6002e+09   -0.0772319862    0.1187788087    0.8633259882    0.3354979098    0.8633259882    0.3354979098   -0.0772319790    0.1187788073
3.7002e+09   -0.0584152617    0.0957894503    0.8906982393    0.2647363897    0.8906982393    0.2647363897   -0.0584152532    0.0957894500
3.8002e+09   -0.0435498087    0.0698535867    0.9116288683    0.1910267106    0.9116288683    0.1910267106   -0.0435497992    0.0698535852
3.9002e+09   -0.0331397443    0.0416861046    0.9256547704    0.1151301452    0.9256547704    0.1151301452   -0.0331397380    0.0416861059
4.0002e+09   -0.0275455641    0.0120990007    0.9324467408    0.0379005286    0.9324467408    0.0379005286   -0.0275455530    0.0120989998
4.1002e+09   -0.0269573619   -0.0180215940    0.9318314238   -0.0397428302    0.9318314238   -0.0397428302   -0.0269573491   -0.0180215941
4.2002e+09   -0.0313828378   -0.0477775014    0.9238049918   -0.1168570344    0.9238049918   -0.1168570344   -0.0313828243   -0.0477775001
4.3002e+09   -0.0406587951   -0.0762878134    0.9085342508   -0.1925166701    0.9085342508   -0.1925166701   -0.0406587810   -0.0762878142
4.4002e+09   -0.0544507544   -0.1027227777    0.8863461433   -0.2658531189    0.8863461433   -0.2658531189   -0.0544507401   -0.1027227742
4.5002e+09   -0.0722709096   -0.1263538957    0.8577058831   -0.3360908090    0.8577058831   -0.3360908090   -0.0722708961   -0.1263539036
4.6002e+09   -0.0935146271   -0.1465761598    0.8231870717   -0.4025731501    0.8231870717   -0.4025731501   -0.0935146176   -0.1465761600
4.7002e+09   -0.1174921677   -0.1629242318    0.7834401616   -0.4647743127    0.7834401616   -0.4647743127   -0.1174921467   -0.1629242407
4.8002e+09   -0.1434668329   -0.1750826900    0.7391533330   -0.5223120650    0.7391533330   -0.5223120650   -0.1434668210   -0.1750827116
4.9002e+09   -0.1706869461   -0.1828819693    0.6910217551   -0.5749389417    0.6910217551   -0.5749389417   -0.1706869332   -0.1828819946
5.0002e+09   -0.1984165029   -0.1862893075    0.6397170000   -0.6225327932    0.6397170000   -0.6225327932   -0.1984164820   -0.1862893230
5.1002e+09   -0.2259581640   -0.1853930054    0.5858651223   -0.6650782449    0.5858651223   -0.6650782449   -0.2259581579   -0.1853930300
5.2002e+09   -0.2526709629   -0.1803841185    0.5300299549   -0.7026464869    0.5300299549   -0.7026464869   -0.2526709541   -0.1803841411
5.3002e+09   -0.2779812737   -0.1715369571    0.4727034615   -0.7353733576    0.4727034615   -0.7353733576   -0.2779812464   -0.1715369838
5.4002e+09   -0.3013888445   -0.1591901819    0.4143012393   -0.7634381960    0.4143012393   -0.7634381960   -0.3013888327   -0.1591902200
5.5002e+09   -0.3224741648   -0.1437274151    0.3551514503   -0.7870474166    0.3551514503   -0.7870474166   -0.3224741615   -0.1437274474
5.6002e+09   -0.3408717564   -0.1255715684    0.2955471324   -0.8064030984    0.2955471324   -0.8064030984   -0.3408717489   -0.1255716003
5.7002e+09   -0.3563041641   -0.1051607563    0.2356815760   -0.8217111073    0.2356815760   -0.8217111073   -0.3563041538   -0.1051607758
5.8002e+09   -0.3685506201   -0.0829475239    0.1757069405   -0.8331532770    0.1757069405   -0.8331532770   -0.3685506217   -0.0829475513
5.9002e+09   -0.3774502554   -0.0593894080    0.1157278777   -0.8408831993    0.1157278777   -0.8408831993   -0.3774502524   -0.0593894381
6.0002e+09   -0.3828951132   -0.0349462675    0.0558174655   -0.8450191550    0.0558174655   -0.8450191550   -0.3828951076   -0.0349462977
6.1002e+09   -0.3848273878   -0.0100770292    0.0039742527    0.8456401048    0.0039742527    0.8456401048   -0.3848273831   -0.0100770590
6.2002e+09   -0.3832366172    0.0147616000    0.0636087864    0.8427833811    0.0636087864    0.8427833811   -0.3832366194    0.0147615656
6.3002e+09   -0.3781584170    0.0391158761    0.1230479793    0.8364441695    0.1230479793    0.8364441695   -0.3781584224    0.0391158419
6.4002e+09   -0.3696747455    0.0625362695    0.1822442107    0.8265765452    0.1822442107    0.8265765452   -0.3696747529    0.0625362312
6.5002e+09   -0.3579152078    0.0845782441    0.2411286306    0.8130964868    0.2411286306    0.8130964868   -0.3579152218    0.0845782044
6.6002e+09   -0.3430598204    0.1048046598    0.2996012160    0.7958865945    0.2996012160    0.7958865945   -0.3430598300    0.1048046294
6.7002e+09   -0.3253425251    0.1227894426    0.3575207554    0.7748028359    0.3575207554    0.7748028359   -0.3253425446    0.1227894118
6.8002e+09   -0.3050551041    0.1381232421    0.4146961284    0.7496832557    0.4146961284    0.7496832557   -0.3050551218    0.1381232045
6.9002e+09   -0.2825507865    0.1504212737    0.4708785221    0.7203589493    0.4708785221    0.7203589493   -0.2825508074    0.1504212453
7.0002e+09   -0.2582470736    0.1593333290    0.5257549101    0.6866677966    0.5257549101    0.6866677966   -0.2582470927    0.1593333027
7.1002e+09   -0.2326266433    0.1645564512    0.5789448343    0.6484700983    0.5789448343    0.6484700983   -0.2326266747    0.1645564316
7.2002e+09   -0.2062355880    0.1658495967    0.6299999591    0.6056665170    0.6299999591    0.6056665170   -0.2062356159    0.1658495680
7.3002e+09   -0.1796773854    0.1630499017    0.6784090360    0.5582164777    0.6784090360    0.5582164777   -0.1796774189    0.1630498681
7.4002e+09   -0.1536027701    0.1560892352    0.7236065281    0.5061576796    0.7236065281    0.5061576796   -0.1536027955    0.1560892171
7.5002e+09   -0.1286940790    0.1450097765    0.7649874640    0.4496242213    0.7649874640    0.4496242213   -0.1286941077    0.1450097692
7.6002e+09   -0.1056441992    0.1299769773    0.8019279387    0.3888615337    0.8019279387    0.3888615337   -0.1056442301    0.1299769570
7.7002e+09   -0.0851307381    0.1112876893    0.8338103953    0.3242373112    0.8338103953    0.3242373112   -0.0851307718    0.1112876796
7.8002e+09   -0.0677858295    0.0893713559    0.8600541730    0.2562422162    0.8600541730    0.2562422162   -0.0677858678    0.0893713479
7.9002e+09   -0.0541657030    0.0647836824    0.8801451112    0.1854876602    0.8801451112    0.1854876602   -0.0541657419    0.0647836746
8.0002e+09   -0.0447202948    0.0381910512    0.8936662069    0.1126911019    0.8936662069    0.1126911019   -0.0447203247    0.0381910446
8.1002e+09   -0.0397663938    0.0103467440    0.9003239114    0.0386535256    0.9003239114    0.0386535256   -0.0397664269    0.0103467411
8.2002e+09   -0.0394671625   -0.0179357243    0.8999675862   -0.0357704950    0.8999675862   -0.0357704950   -0.0394671932   -0.0179357260
8.3002e+09   -0.0438230520   -0.0458324650    0.8926001459   -0.1097071033    0.8926001459   -0.1097071033   -0.0438230819   -0.0458324629
8.4002e+09   -0.0526738207   -0.0725365074    0.8783780448   -0.1823017706    0.8783780448   -0.1823017706   -0.0526738504   -0.0725365068
8.5002e+09   -0.0657083557   -0.0972903209    0.8576015006   -0.2527514804    0.8576015006   -0.2527514804   -0.0657083807   -0.0972903190
8.6002e+09   -0.0824789386   -0.1194260578    0.8306954564   -0.3203362254    0.8306954564   -0.3203362254   -0.0824789613   -0.1194260502
8.7002e+09   -0.1024311393   -0.1383875956    0.7981829442   -0.3844430917    0.7981829442   -0.3844430917   -0.1024311568   -0.1383875834
8.8002e+09   -0.1249340573   -0.1537454707    0.7606553184   -0.4445792448    0.7606553184   -0.4445792448   -0.1249340654   -0.1537454688
8.9002e+09   -0.1493115621   -0.1652036571    0.7187411241   -0.5003775123    0.7187411241   -0.5003775123   -0.1493115706   -0.1652036608
9.0002e+09   -0.1748724647   -0.1725986504    0.6730765350   -0.5515930654    0.6730765350   -0.5515930654   -0.1748724716   -0.1725986464
9.1002e+09   -0.2009367796   -0.1758910725    0.6242795642   -0.5980937880    0.6242795642   -0.5980937880   -0.2009367963   -0.1758910774
9.2002e+09   -0.2268572089   -0.1751527148    0.5729293303   -0.6398452598    0.5729293303   -0.6398452598   -0.2268572011   -0.1751527132
9.3002e+09   -0.2520351900   -0.1705506824    0.5195510759   -0.6768928095    0.5195510759   -0.6768928095   -0.2520351906   -0.1705506874
9.4002e+09   -0.2759315375   -0.1623303202    0.4646067729   -0.7093422552    0.4646067729   -0.7093422552   -0.2759315336   -0.1623303280
9.5002e+09   -0.2980722045   -0.1507986409    0.4084911713   -0.7373408512    0.4084911713   -0.7373408512   -0.2980722022   -0.1507986505
9.6002e+09   -0.3180507375   -0.1363092537    0.3515314432   -0.7610596365    0.3515314432   -0.7610596365   -0.3180507385   -0.1363092559
9.7002e+09   -0.3355269311   -0.1192487148    0.2939904443   -0.7806781641    0.2939904443   -0.7806781641   -0.3355269231   -0.1192487295
9.8002e+09   -0.3502240217   -0.1000262943    0.2360736353   -0.7963705576    0.2360736353   -0.7963705576   -0.3502240174   -0.1000263093
9.9002e+09   -0.3619248110   -0.0790655038    0.1779365657   -0.8082948641    0.1779365657   -0.8082948641   -0.3619248188   -0.0790655221
1.0000e+10   -0.3704674806   -0.0567979510    0.1196939752   -0.8165846391    0.1196939752   -0.8165846391   -0.3704674797   -0.0567979791
1.0100e+10   -0.3757416736   -0.0336591038    0.0614294406   -0.8213426782    0.0614294406   -0.8213426782   -0.3757416871   -0.0336591388
1.0200e+10   -0.3776852980   -0.0100855054    0.0032054649   -0.8226367945    0.0032054649   -0.8226367945   -0.3776853116   -0.0100855440
1.0300e+10   -0.3762823202    0.0134870039    0.0549263254    0.8204973848    0.0549263254    0.8204973848   -0.3762823233    0.0134869667
1.0400e+10   -0.3715616171    0.0366244909    0.1129149398    0.8149169861    0.1129149398    0.8149169861   -0.3715616232    0.0366244428
1.0500e+10   -0.3635979766    0.0588961325    0.1706996425    0.8058508022    0.1706996425    0.8058508022   -0.3635979982    0.0588960783
1.0600e+10   -0.3525122856    0.0798762300    0.2282012492    0.7932198452    0.2282012492    0.7932198452   -0.3525122989    0.0798761832
1.0700e+10   -0.3384751195    0.0991464715    0.2853111906    0.7769147786    0.2853111906    0.7769147786   -0.3384751487    0.0991464086
1.0800e+10   -0.3217078230    0.1162991620    0.3418826436    0.7568034051    0.3418826436    0.7568034051   -0.3217078539    0.1162991007
1.0900e+10   -0.3024885681    0.1309438642    0.3977224563    0.7327372720    0.3977224563    0.7327372720   -0.3024885953    0.1309438028
1.1000e+10   -0.2811537378    0.1427142795    0.4525837642    0.7045631871    0.4525837642    0.7045631871   -0.2811537873    0.1427142219
1.1100e+10   -0.2581004617    0.1512780399    0.5061606079    0.6721354790    0.5061606079    0.6721354790   -0.2581005234    0.1512779786
1.1200e+10   -0.2337870232    0.1563485491    0.5580849426    0.6353307140    0.5580849426    0.6353307140   -0.2337870857    0.1563484871
1.1300e+10   -0.2087306564    0.1576985434    0.6079267898    0.5940639607    0.6079267898    0.5940639607   -0.2087307256    0.1576984882
1.1400e+10   -0.1835020101    0.1551749041    0.6551977932    0.5483069614    0.6551977932    0.5483069614   -0.1835020897    0.1551748443
1.1500e+10   -0.1587149521    0.1487145795    0.6993616794    0.4981034469    0.6993616794    0.4981034469   -0.1587150429    0.1487145199
1.1600e+10   -0.1350114010    0.1383570344    0.7398465090    0.4435877987    0.7398465090    0.4435877987   -0.1350114973    0.1383569836
1.1700e+10   -0.1130426067    0.1242570124    0.7760638738    0.3849975558    0.7760638738    0.3849975558   -0.1130427072    0.1242569723
1.1800e+10   -0.0934448678    0.1066913272    0.8074324012    0.3226826415    0.8074324012    0.3226826415   -0.0934449819    0.1066912849
1.1900e+10   -0.0768125312    0.0860600010    0.8334045123    0.2571082160    0.8334045123    0.2571082160   -0.0768126500    0.0860599700
1.2000e+10   -0.0636694377    0.0628801332    0.8534947528    0.1888502379    0.8534947528    0.1888502379   -0.0636695649    0.0628801127
1.2100e+10   -0.0544413642    0.0377717623    0.8673071728    0.1185828921    0.8673071728    0.1185828921   -0.0544414922    0.0377717492
1.2200e+10   -0.0494315048    0.0114365517    0.8745592860    0.0470581724    0.8745592860    0.0470581724   -0.0494316416    0.0114365485
1.2300e+10   -0.0488024059   -0.0153689056    0.8751001315   -0.0249204596    0.8751001315   -0.0249204596   -0.0488025472   -0.0153688961
1.2400e+10   -0.0525667758   -0.0418721780    0.8689202282   -0.0965313618    0.8689202282   -0.0965313618   -0.0525669155   -0.0418721579
1.2500e+10   -0.0605865000   -0.0673156562    0.8561522178   -0.1669669934    0.8561522178   -0.1669669934   -0.0605866388   -0.0673156295
1.2600e+10   -0.0725834555   -0.0909871327    0.8370626743   -0.2354636264    0.8370626743   -0.2354636264   -0.0725835965   -0.0909870893
1.2700e+10   -0.0881522923   -0.1122513479    0.8120351313   -0.3013335369    0.8120351313   -0.3013335369   -0.0881524292   -0.1122512984
1.2800e+10   -0.1067852526   -0.1305743732    0.7815471044   -0.3639838579    0.7815471044   -0.3639838579   -0.1067853803   -0.1305743164
1.2900e+10   -0.1278998323   -0.1455379625    0.7461430773   -0.4229311690    0.7461430773   -0.4229311690   -0.1278999667   -0.1455378915
1.3000e+10   -0.1508674258   -0.1568468407    0.7064061592   -0.4778073018    0.7064061592   -0.4778073018   -0.1508675438   -0.1568467582
1.3100e+10   -0.1750408630   -0.1643286855    0.6629309865   -0.5283576962    0.6629309865   -0.5283576962   -0.1750409836   -0.1643286033
1.3200e+10   -0.1997795082   -0.1679283879    0.6162997889   -0.5744326414    0.6162997889   -0.5744326414   -0.1997796117   -0.1679283031
1.3300e+10   -0.2244675860   -0.1676941608    0.5670624982   -0.6159767178    0.5670624982   -0.6159767178   -0.2244676829   -0.1676940617
1.3400e+10   -0.2485335847   -0.1637681719    0.5157214420   -0.6530100233    0.5157214420   -0.6530100233   -0.2485336689   -0.1637680722
1.3500e+10   -0.2714572641   -0.1563681358    0.4627246201   -0.6856111388    0.4627246201   -0.6856111388   -0.2714573372   -0.1563680299
1.3600e+10   -0.2927786681   -0.1457728857    0.4084570906   -0.7139018204    0.4084570906   -0.7139018204   -0.2927787395   -0.1457727757
1.3700e+10   -0.3120995752   -0.1323083118    0.3532427373   -0.7380287408    0.3532427373   -0.7380287408   -0.3120996425   -0.1323082024
1.3800e+10   -0.3290837521   -0.1163349788    0.2973462468   -0.7581492870    0.2973462468   -0.7581492870   -0.3290838064   -0.1163348692
1.3900e+10   -0.3434549688   -0.0982378129    0.2409781863   -0.7744187415    0.2409781863   -0.7744187415   -0.3434550094   -0.0982376966
1.4000e+10   -0.3549939742   -0.0784179618    0.1843020123   -0.7869798497    0.1843020123   -0.7869798497   -0.3549940055   -0.0784178530
1.4100e+10   -0.3635348928   -0.0572865875    0.1274420986   -0.7959544362    0.1274420986   -0.7959544362   -0.3635349279   -0.0572864788
1.4200e+10   -0.3689618802   -0.0352605532    0.0704930714   -0.8014371934    0.0704930714   -0.8014371934   -0.3689618987   -0.0352604520
