! Port 1 = P1 P2 
! Port 2 = P2 P2 
# hz S ri R 50
! freq  reS11  imS11  reS21  imS21  reS12  imS12  reS22  imS22  
!
2.5000e+05    0.0065089219   -0.0001032034    0.9719217076   -0.0002612051    0.9719217076   -0.0002612051    0.0520072870   -0.0000987551
1.0025e+08    0.0040990574   -0.0338080892    0.9665464911   -0.0855268250    0.9665464911   -0.0855268250    0.0497133016   -0.0323526157
2.0025e+08   -0.0039418344   -0.0666703187    0.9525754026   -0.1689574541    0.9525754026   -0.1689574541    0.0420435746   -0.0638126642
3.0025e+08   -0.0172366862   -0.0977343322    0.9303937277   -0.2496207555    0.9303937277   -0.2496207555    0.0293525819   -0.0935711218
4.0025e+08   -0.0354009726   -0.1260871392    0.9006824194   -0.3265406113    0.9006824194   -0.3265406113    0.0119946034   -0.1207564759
5.0025e+08   -0.0578531652   -0.1508997998    0.8642508015   -0.3989491957    0.8642508015   -0.3989491957   -0.0094802008   -0.1445726231
6.0025e+08   -0.0838464546   -0.1714928441    0.8219606788   -0.4662861946    0.8219606788   -0.4662861946   -0.0343647240   -0.1643627825
7.0025e+08   -0.1125171450   -0.1873739839    0.7746858865   -0.5281677733    0.7746858865   -0.5281677733   -0.0618387053   -0.1796482560
8.0025e+08   -0.1429416387   -0.1982518767    0.7232864986   -0.5843618919    0.7232864986   -0.5843618919   -0.0910157462   -0.1901414229
9.0025e+08   -0.1742255365   -0.2040476521    0.6685563491   -0.6347993757    0.6685563491   -0.6347993757   -0.1210383090   -0.1957599477
1.0002e+09   -0.2054989240   -0.2048330732    0.6112467670   -0.6795125814    0.6112467670   -0.6795125814   -0.1510708601   -0.1965676966
1.1002e+09   -0.2359814167   -0.2008293114    0.5520126464   -0.7186404642    0.5520126464   -0.7186404642   -0.1803606667   -0.1927722544
1.2002e+09   -0.2649750257   -0.1923611871    0.4914274181   -0.7523901016    0.4914274181   -0.7523901016   -0.2082351959   -0.1846826031
1.3002e+09   -0.2918868614   -0.1798358714    0.4299625728   -0.7810186328    0.4299625728   -0.7810186328   -0.2341223013   -0.1726881925
1.4002e+09   -0.3162224760   -0.1637146114    0.3679955690   -0.8048067197    0.3679955690   -0.8048067197   -0.2575445051   -0.1572303644
1.5002e+09   -0.3375763609   -0.1444926083    0.3058221416   -0.8240381316    0.3058221416   -0.8240381316   -0.2781102086   -0.1387840672
1.6002e+09   -0.3556343299   -0.1226840565    0.2436551959   -0.8389840037    0.2436551959   -0.8389840037   -0.2955150914   -0.1178432201
1.7002e+09   -0.3701580758   -0.0988102753    0.1816431473   -0.8498892502    0.1816431473   -0.8498892502   -0.3095289148   -0.0949081859
1.8002e+09   -0.3809903650   -0.0733875013    0.1198657413   -0.8569596539    0.1198657413   -0.8569596539   -0.3199991804   -0.0704749469
1.9002e+09   -0.3879995633   -0.0469401931    0.0584079891   -0.8603647753    0.0584079891   -0.8603647753   -0.3267972691   -0.0450478382
2.0002e+09   -0.3911441433   -0.0199748351    0.0027158947    0.8602217169    0.0027158947    0.8602217169   -0.3298826657   -0.0191133994
2.1002e+09   -0.3904242048    0.0070079175    0.0634954699    0.8565985390    0.0634954699    0.8565985390   -0.3292543009    0.0068470198
2.2002e+09   -0.3858894593    0.0335174245    0.1239259698    0.8495114548    0.1239259698    0.8495114548   -0.3249583011    0.0323612910
2.3002e+09   -0.3776314886    0.0590660558    0.1839842402    0.8389321129    0.1839842402    0.8389321129   -0.3170822340    0.0569607464
2.4002e+09   -0.3657942514    0.0831775010    0.2436329659    0.8247841796    0.2436329659    0.8247841796   -0.3057635172    0.0801871766
2.5002e+09   -0.3505712779    0.1053830570    0.3027994898    0.8069522859    0.3027994898    0.8069522859   -0.2911867637    0.1015893099
2.6002e+09   -0.3322109025    0.1252254683    0.3613682876    0.7852887538    0.3613682876    0.7852887538   -0.2735904517    0.1207274212
2.7002e+09   -0.3110210216    0.1422641409    0.4191706283    0.7596221896    0.4191706283    0.7596221896   -0.2532698517    0.1371774701
2.8002e+09   -0.2873736832    0.1560821366    0.4759749496    0.7297699686    0.4759749496    0.7297699686   -0.2305816663    0.1505378521
2.9002e+09   -0.2617090357    0.1662967421    0.5314816856    0.6955520043    0.5314816856    0.6955520043   -0.2059490147    0.1604405178
3.0002e+09   -0.2345376983    0.1725720222    0.5853166491    0.6568086462    0.5853166491    0.6568086462   -0.1798624103    0.1665622769
3.1002e+09   -0.2064398315    0.1746355494    0.6370324628    0.6134179607    0.6370324628    0.6134179607   -0.1528789405    0.1686409621
3.2002e+09   -0.1780607211    0.1722951778    0.6861112305    0.5653180292    0.6861112305    0.5653180292   -0.1256187081    0.1664924047
3.3002e+09   -0.1501053661    0.1654580134    0.7319635119    0.5125420096    0.7319635119    0.5125420096   -0.0987585466    0.1600277868
3.4002e+09   -0.1233049870    0.1541517330    0.7739860660    0.4551803137    0.7739860660    0.4551803137   -0.0729995722    0.1492743197
3.5002e+09   -0.0984213589    0.1385335767    0.8115192713    0.3934829957    0.8115192713    0.3934829957   -0.0490718069    0.1343837973
3.6002e+09   -0.0762019106    0.1189079335    0.8439171472    0.3278170023    0.8439171472    0.3278170023   -0.0276901872    0.1156485360
3.7002e+09   -0.0573485823    0.0957266455    0.8705714751    0.2586750914    0.8705714751    0.2586750914   -0.0095249674    0.0935010444
3.8002e+09   -0.0424857746    0.0695861922    0.8909392999    0.1866848301    0.8909392999    0.1866848301    0.0048279836    0.0685110243
3.9002e+09   -0.0321225446    0.0412109619    0.9045789057    0.1125865876    0.9045789057    0.1125865876    0.0148829578    0.0413685693
4.0002e+09   -0.0266213174    0.0114245391    0.9111776398    0.0372072284    0.9111776398    0.0372072284    0.0202931489    0.0128570274
4.1002e+09   -0.0261703116   -0.0188744977    0.9105720670   -0.0385655071    0.9105720670   -0.0385655071    0.0208757106   -0.0161690804
4.2002e+09   -0.0307711108   -0.0487763464    0.9027599439   -0.1138221455    0.9027599439   -0.1138221455    0.0166236843   -0.0448439937
4.3002e+09   -0.0402507774   -0.0773910005    0.8879012960   -0.1876696702    0.8879012960   -0.1876696702    0.0076947664   -0.0723187802
4.4002e+09   -0.0542628995   -0.1038832635    0.8663092352   -0.2592684150    0.8663092352   -0.2592684150   -0.0055887977   -0.0977937670
4.5002e+09   -0.0723070782   -0.1275233302    0.8384296988   -0.3278662868    0.8384296988   -0.3278662868   -0.0227569343   -0.1205668509
4.6002e+09   -0.0937670011   -0.1477086771    0.8048138663   -0.3928238804    0.8048138663   -0.3928238804   -0.0432268081   -0.1400548001
4.7002e+09   -0.1179433187   -0.1639792306    0.7660889233   -0.4536266494    0.7660889233   -0.4536266494   -0.0663339249   -0.1558089945
4.8002e+09   -0.1440922517   -0.1760266054    0.7229203878   -0.5098980909    0.7229203878   -0.5098980909   -0.0913683219   -0.1675252712
4.9002e+09   -0.1714576074   -0.1836890041    0.6759824432   -0.5613920739    0.6759824432   -0.5613920739   -0.1176053969   -0.1750400220
5.0002e+09   -0.1993011577   -0.1869412543    0.6259281770   -0.6079846023    0.6259281770   -0.6079846023   -0.1443360722   -0.1783215317
5.1002e+09   -0.2269251286   -0.1858786573    0.5733676355   -0.6496560740    0.5733676355   -0.6496560740   -0.1708884204   -0.1774547131
5.2002e+09   -0.2536894464   -0.1806983932    0.5188511774   -0.6864718372    0.5188511774   -0.6864718372   -0.1966446434   -0.1726234197
5.3002e+09   -0.2790222378   -0.1716798411    0.4628597747   -0.7185611548    0.4628597747   -0.7185611548   -0.2210522275   -0.1640916517
5.4002e+09   -0.3024255240   -0.1591658037    0.4058001938   -0.7460962916    0.4058001938   -0.7460962916   -0.2436291835   -0.1521853149
5.5002e+09   -0.3234823164   -0.1435431742    0.3479939905   -0.7692764307    0.3479939905   -0.7692764307   -0.2639709931   -0.1372735294
5.6002e+09   -0.3418297172   -0.1252374485    0.2897285511   -0.7882970042    0.2897285511   -0.7882970042   -0.2817254604   -0.1197632076
5.7002e+09   -0.3571927724   -0.1046886738    0.2311938023   -0.8033574144    0.2311938023   -0.8033574144   -0.2966248580   -0.1000758920
5.8002e+09   -0.3693531125   -0.0823509220    0.1725394904   -0.8146336864    0.1725394904   -0.8146336864   -0.3084557925   -0.0786470831
5.9002e+09   -0.3781520550   -0.0586828897    0.1138689718   -0.8222745091    0.1138689718   -0.8222745091   -0.3170626627   -0.0559170949
6.0002e+09   -0.3834836948   -0.0341453898    0.0552548013   -0.8263940500    0.0552548013   -0.8263940500   -0.3223406077   -0.0323286380
6.1002e+09   -0.3852921610   -0.0091981587    0.0032528497    0.8270680056    0.0032528497    0.8270680056   -0.3242327210   -0.0083236978
6.2002e+09   -0.3835687778    0.0157013773    0.0616149469    0.8243315635    0.0616149469    0.8243315635   -0.3227279668    0.0156576986
6.3002e+09   -0.3783509179    0.0400987824    0.1197925380    0.8181787148    0.1197925380    0.8181787148   -0.3178595241    0.0391781211
6.4002e+09   -0.3697223198    0.0635438542    0.1777370956    0.8085632871    0.1777370956    0.8085632871   -0.3097050018    0.0618039295
6.5002e+09   -0.3578143800    0.0855913751    0.2353790397    0.7954022047    0.2353790397    0.7954022047   -0.2983883784    0.0831060570
6.6002e+09   -0.3428090463    0.1058035369    0.2926179091    0.7785799811    0.2926179091    0.7785799811   -0.2840821093    0.1026622782
6.7002e+09   -0.3249423749    0.1237536442    0.3493125515    0.7579554866    0.3493125515    0.7579554866   -0.2670107191    0.1200607546
6.8002e+09   -0.3045084416    0.1390317796    0.4052727408    0.7333708017    0.4052727408    0.7333708017   -0.2474550127    0.1349056249
6.9002e+09   -0.2818630498    0.1512527261    0.4602515615    0.7046619539    0.4602515615    0.7046619539   -0.2257551912    0.1468245543
7.0002e+09   -0.2574265775    0.1600660527    0.5139392135    0.6716725972    0.5139392135    0.6716725972   -0.2023136891    0.1554784156
7.1002e+09   -0.2316848891    0.1651688284    0.5659602688    0.6342695410    0.5659602688    0.6342695410   -0.1775963611    0.1605737739
7.2002e+09   -0.2051876289    0.1663204267    0.6158735186    0.5923603052    0.6158735186    0.5923603052   -0.1521304314    0.1618769918
7.3002e+09   -0.1785421963    0.1633589419    0.6631773097    0.5459110807    0.6631773097    0.5459110807   -0.1264987063    0.1592300975
7.4002e+09   -0.1524036054    0.1562178613    0.7073186818    0.4949656255    0.7073186818    0.4949656255   -0.1013298817    0.1525669056
7.5002e+09   -0.1274587751    0.1449419413    0.7477082792    0.4396624225    0.7477082792    0.4396624225   -0.0772831038    0.1419279523
7.6002e+09   -0.1044052981    0.1297004662    0.7837407766    0.3802485061    0.7837407766    0.3802485061   -0.0550274466    0.1274730582
7.7002e+09   -0.0839252858    0.1107956301    0.8148197742    0.3170891462    0.8148197742    0.3170891462   -0.0352170711    0.1094891610
7.8002e+09   -0.0666546086    0.0886640088    0.8403871238    0.2506673958    0.8403871238    0.2506673958   -0.0184617838    0.0883911015
7.9002e+09   -0.0531516802    0.0638702232    0.8599509220    0.1815809979    0.8599509220    0.1815809979   -0.0052976569    0.0647153981
8.0002e+09   -0.0438662404    0.0370909288    0.8731142098    0.1105274966    0.8731142098    0.1105274966    0.0038419669    0.0391049995
8.1002e+09   -0.0391117257    0.0090902263    0.8795989632    0.0382824106    0.8795989632    0.0382824106    0.0086523562    0.0122861647
8.2002e+09   -0.0390444535   -0.0193082656    0.8792637610   -0.0343291144    0.8792637610   -0.0343291144    0.0089768492   -0.0149572657
8.3002e+09   -0.0436548866   -0.0472726849    0.8721134045   -0.1064643734    0.8721134045   -0.1064643734    0.0048152826   -0.0418318011
8.4002e+09   -0.0527705533   -0.0739913518    0.8582987784   -0.1772991871    0.8582987784   -0.1772991871   -0.0036779541   -0.0675604560
8.5002e+09   -0.0660672412   -0.0987059209    0.8381079657   -0.2460579292    0.8381079657   -0.2460579292   -0.0162034329   -0.0914139044
8.6002e+09   -0.0830848027   -0.1207515601    0.8119488053   -0.3120434442    0.8119488053   -0.3120434442   -0.0323304885   -0.1127490781
8.7002e+09   -0.1032582302   -0.1395783258    0.7803240812   -0.3746602570    0.7803240812   -0.3746602570   -0.0515257949   -0.1310303572
8.8002e+09   -0.1259486548   -0.1547650892    0.7438035176   -0.4334275216    0.7438035176   -0.4334275216   -0.0731823844   -0.1458438854
8.9002e+09   -0.1504748814   -0.1660251827    0.7029941802   -0.4879851126    0.7029941802   -0.4879851126   -0.0966498885   -0.1569041019
9.0002e+09   -0.1761433496   -0.1732045440    0.6585118996   -0.5380909982    0.6585118996   -0.5380909982   -0.1212632939   -0.1640528965
9.1002e+09   -0.2022739676   -0.1762726255    0.6109561414   -0.5836124702    0.6109561414   -0.5836124702   -0.1463682722   -0.1672515108
9.2002e+09   -0.2282210840   -0.1753089495    0.5608896982   -0.6245120042    0.5608896982   -0.6245120042   -0.1713419281   -0.1665680671
9.3002e+09   -0.2533889664   -0.1704871062    0.5088237518   -0.6608299717    0.5088237518   -0.6608299717   -0.1956081147   -0.1621623427
9.4002e+09   -0.2772419784   -0.1620576539    0.4552085031   -0.6926660234    0.4552085031   -0.6926660234   -0.2186475467   -0.1542693204
9.5002e+09   -0.2993099694   -0.1503316043    0.4004291117   -0.7201606074    0.4004291117   -0.7201606074   -0.2400035865   -0.1431832999
9.6002e+09   -0.3191904466   -0.1356655455    0.3448051733   -0.7434776491    0.3448051733   -0.7434776491   -0.2592842856   -0.1292434913
9.7002e+09   -0.3365470550   -0.1184481803    0.2885937692   -0.7627896474    0.2885937692   -0.7627896474   -0.2761611962   -0.1128208215
9.8002e+09   -0.3511066502   -0.0990902345    0.2319962074   -0.7782640448    0.2319962074   -0.7782640448   -0.2903668231   -0.0943082597
9.9002e+09   -0.3626553795   -0.0780161928    0.1751652454   -0.7900527389    0.1751652454   -0.7900527389   -0.3016907002   -0.0741126534
1.0000e+10   -0.3710345059   -0.0556582942    0.1182139840   -0.7982838148    0.1182139840   -0.7982838148   -0.3099753884   -0.0526488493
1.0100e+10   -0.3761364872   -0.0324523843    0.0612253138   -0.8030554727    0.0612253138   -0.8030554727   -0.3151130347   -0.0303357233
1.0200e+10   -0.3779018478   -0.0088352495    0.0042617778   -0.8044318231    0.0042617778   -0.8044318231   -0.3170419946   -0.0075934875
1.0300e+10   -0.3763170448    0.0147571079    0.0526244147    0.8024405252    0.0526244147    0.8024405252   -0.3157449367    0.0151579702
1.0400e+10   -0.3714133501    0.0378906531    0.1093813696    0.7970724365    0.1093813696    0.7970724365   -0.3112478786    0.0375002518
1.0500e+10   -0.3632679538    0.0601344925    0.1659472998    0.7882821431    0.1659472998    0.7882821431   -0.3036211074    0.0590175873
1.0600e+10   -0.3520042131    0.0810629134    0.2222419912    0.7759910962    0.2222419912    0.7759910962   -0.2929793520    0.0792987882
1.0700e+10   -0.3377952708    0.1002576724    0.2781561452    0.7600915386    0.2781561452    0.7600915386   -0.2794856154    0.0979394679
1.0800e+10   -0.3208652147    0.1173112831    0.3335426749    0.7404539145    0.3335426749    0.7404539145   -0.2633519759    0.1145452050
1.0900e+10   -0.3014951658    0.1318337263    0.3882088953    0.7169334933    0.3882088953    0.7169334933   -0.2448456337    0.1287379609
1.1000e+10   -0.2800246440    0.1434593931    0.4419094631    0.6893818496    0.4419094631    0.6893818496   -0.2242903695    0.1401628371
1.1100e+10   -0.2568541403    0.1518569870    0.4943412928    0.6576589731    0.4943412928    0.6576589731   -0.2020688569    0.1484975771
1.1200e+10   -0.2324454935    0.1567414695    0.5451409342    0.6216477934    0.5451409342    0.6216477934   -0.1786231233    0.1534641495
1.1300e+10   -0.2073196251    0.1578877015    0.5938851654    0.5812701613    0.5938851654    0.5812701613   -0.1544525076    0.1548418905
1.1400e+10   -0.1820509610    0.1551454081    0.6400949199    0.5365044864    0.6400949199    0.5365044864   -0.1301080987    0.1524819193
1.1500e+10   -0.1572571268    0.1484552449    0.6832460138    0.4874004233    0.6832460138    0.4874004233   -0.1061827839    0.1463225821
1.1600e+10   -0.1335836043    0.1378613728    0.7227816479    0.4340966154    0.7227816479    0.4340966154   -0.0832966290    0.1364014629
1.1700e+10   -0.1116847630    0.1235244216    0.7581313948    0.3768320895    0.7581313948    0.3768320895   -0.0620784623    0.1228676881
1.1800e+10   -0.0921991865    0.1057283913    0.7887341852    0.3159543628    0.7887341852    0.3159543628   -0.0431424442    0.1059882910
1.1900e+10   -0.0757221453    0.0848817453    0.8140640310    0.2519211831    0.8140640310    0.2519211831   -0.0270619037    0.0861492560
1.2000e+10   -0.0627764104    0.0615110665    0.8336567626    0.1852953896    0.8336567626    0.1852953896   -0.0143418097    0.0638492448
1.2100e+10   -0.0537840829    0.0362463385    0.8471355194    0.1167322107    0.8471355194    0.1167322107   -0.0053923067    0.0396858685
1.2200e+10   -0.0490417152    0.0097986867    0.8542327578    0.0469595039    0.8542327578    0.0469595039   -0.0005053553    0.0143349712
1.2300e+10   -0.0487022550   -0.0170674293    0.8548066558   -0.0232471701    0.8548066558   -0.0232471701    0.0001624824   -0.0114750836
1.2400e+10   -0.0527664303   -0.0435744443    0.8488500586   -0.0930957608    0.8488500586   -0.0930957608   -0.0034012584   -0.0370009681
1.2500e+10   -0.0610828640   -0.0689631695    0.8364910562   -0.1618078424    0.8364910562   -0.1618078424   -0.0110642707   -0.0615137521
1.2600e+10   -0.0733601845   -0.0925236401    0.8179854459   -0.2286463538    0.8179854459   -0.2286463538   -0.0225597622   -0.0843281450
1.2700e+10   -0.0891811403   -0.1136263581    0.7937010937   -0.2929462019    0.7937010937   -0.2929462019   -0.0374987614   -0.1048327020
1.2800e+10   -0.1080284615   -0.1317458742    0.7640965688   -0.3541323229    0.7640965688   -0.3541323229   -0.0553939430   -0.1225131800
1.2900e+10   -0.1293130498   -0.1464740845    0.7296957201   -0.4117340325    0.7296957201   -0.4117340325   -0.0756860653   -0.1369663264
1.3000e+10   -0.1524027181   -0.1575264556    0.6910607173   -0.4653911277    0.6910607173   -0.4653911277   -0.0977713999   -0.1479068654
1.3100e+10   -0.1766494886   -0.1647410778    0.6487660222   -0.5148528015    0.6487660222   -0.5148528015   -0.1210282723   -0.1551675412
1.3200e+10   -0.2014141552   -0.1680722940    0.6033751810   -0.5599696176    0.6033751810   -0.5599696176   -0.1448409518   -0.1586936252
1.3300e+10   -0.2260840370   -0.1675764281    0.5554213673   -0.6006836770    0.5554213673   -0.6006836770   -0.1686174220   -0.1585295290
1.3400e+10   -0.2500918200   -0.1634022450    0.5053923480   -0.6370105598    0.5053923480   -0.6370105598   -0.1918078077   -0.1548100220
1.3500e+10   -0.2729220598   -0.1557726045    0.4537237358   -0.6690229425    0.4537237358   -0.6690229425   -0.2139112271   -0.1477424433
1.3600e+10   -0.2941198180   -0.1449701493    0.4007904368   -0.6968357609    0.4007904368   -0.6968357609   -0.2344843593   -0.1375930033
1.3700e+10   -0.3132918242   -0.1313234222    0.3469082339   -0.7205884817    0.3469082339   -0.7205884817   -0.2531429390   -0.1246732947
1.3800e+10   -0.3301065613   -0.1151947302    0.2923355861   -0.7404312215    0.2923355861   -0.7404312215   -0.2695619422   -0.1093284175
1.3900e+10   -0.3442921774   -0.0969700353    0.2372785353   -0.7565122388    0.2372785353   -0.7565122388   -0.2834737265   -0.0919272437
1.4000e+10   -0.3556334220   -0.0770509810    0.1818974687   -0.7689677547    0.1818974687   -0.7689677547   -0.2946652148   -0.0728545445
1.4100e+10   -0.3639680586   -0.0558488717    0.1263149397   -0.7779137509    0.1263149397   -0.7779137509   -0.3029744966   -0.0525050808
1.4200e+10   -0.3691835740   -0.0337804804    0.0706247652   -0.7834398832    0.0706247652   -0.7834398832   -0.3082875920   -0.0312795454
