! Port 1 = P1 P2 
! Port 2 = P2 P2 
# hz S ri R 50
! freq  reS11  imS11  reS21  imS21  reS12  imS12  reS22  imS22  
!
2.5000e+05    0.0038266918   -0.0001014681    1.0147728782   -0.0002734492    1.0147728782   -0.0002734492   -0.0362387954   -0.0001055528
1.0025e+08    0.0014909174   -0.0332451671    1.0091160519   -0.0895314332    1.0091160519   -0.0895314332   -0.0386842534   -0.0345810000
2.0025e+08   -0.0063489712   -0.0655888774    0.9944012182   -0.1768423968    0.9944012182   -0.1768423968   -0.0468695737   -0.0682090931
3.0025e+08   -0.0193360057   -0.0962070298    0.9710492022   -0.2612077379    0.9710492022   -0.2612077379   -0.0604161262   -0.1000199081
4.0025e+08   -0.0371126568   -0.1242106744    0.9397919603   -0.3415881911    0.9397919603   -0.3415881911   -0.0789368252   -0.1290864961
5.0025e+08   -0.0591306512   -0.1487779386    0.9015074620   -0.4171799020    0.9015074620   -0.4171799020   -0.1018534970   -0.1545577868
6.0025e+08   -0.0846716922   -0.1692287957    0.8571206635   -0.4874028933    0.8571206635   -0.4874028933   -0.1284112712   -0.1757341440
7.0025e+08   -0.1128957597   -0.1850648599    0.8075611693   -0.5518665497    0.8075611693   -0.5518665497   -0.1577292568   -0.1921060714
8.0025e+08   -0.1428975407   -0.1959804702    0.7537422950   -0.6103482339    0.7537422950   -0.6103482339   -0.1888697048   -0.2033652319
9.0025e+08   -0.1737945766   -0.2018834504    0.6964975662   -0.6627923182    0.6964975662   -0.6627923182   -0.2209171862   -0.2094231440
1.0002e+09   -0.2047246469   -0.2028327944    0.6366100993   -0.7092466530    0.6366100993   -0.7092466530   -0.2529770324   -0.2103462034
1.1002e+09   -0.2349111616   -0.1990362293    0.5747610884   -0.7498701058    0.5747610884   -0.7498701058   -0.2842494675   -0.2063544734
1.2002e+09   -0.2636576536   -0.1908077597    0.5115431461   -0.7848875866    0.5115431461   -0.7848875866   -0.3140149164   -0.1977763269
1.3002e+09   -0.2903710498   -0.1785453846    0.4474415459   -0.8145733727    0.4474415459   -0.8145733727   -0.3416602705   -0.1850256385
1.4002e+09   -0.3145555384   -0.1627020618    0.3828446433   -0.8392246726    0.3828446433   -0.8392246726   -0.3666755449   -0.1685734721
1.5002e+09   -0.3358037534   -0.1437663759    0.3180555095   -0.8591395970    0.3180555095   -0.8591395970   -0.3886404408   -0.1489267844
1.6002e+09   -0.3537991794   -0.1222470615    0.2532914227   -0.8746023479    0.2532914227   -0.8746023479   -0.4072287001   -0.1266126260
1.7002e+09   -0.3683012489   -0.0986606626    0.1887037768   -0.8858687652    0.1887037768   -0.8858687652   -0.4221930088   -0.1021667903
1.8002e+09   -0.3791504912   -0.0735195251    0.1243727865   -0.8931536187    0.1243727865   -0.8931536187   -0.4333693577   -0.0761201462
1.9002e+09   -0.3862128836   -0.0473446614    0.0603843219   -0.8966345080    0.0603843219   -0.8966345080   -0.4406207184   -0.0490119769
2.0002e+09   -0.3894450472   -0.0206394403    0.0032486296    0.8964335206    0.0032486296    0.8964335206   -0.4439030433   -0.0213640991
2.1002e+09   -0.3888452292    0.0060983473    0.0665171956    0.8926222145    0.0665171956    0.8926222145   -0.4432155625    0.0063079666
2.2002e+09   -0.3844612889    0.0323806886    0.1294188942    0.8852187435    0.1294188942    0.8852187435   -0.4386094703    0.0334994235
2.3002e+09   -0.3763832797    0.0577229376    0.1919317078    0.8741941153    0.1919317078    0.8741941153   -0.4301786270    0.0597080488
2.4002e+09   -0.3647534879    0.0816517542    0.2540196762    0.8594697382    0.2540196762    0.8594697382   -0.4180713483    0.0844439202
2.5002e+09   -0.3497635632    0.1037014318    0.3156110869    0.8409265389    0.3156110869    0.8409265389   -0.4024876704    0.1072256448
2.6002e+09   -0.3316598983    0.1234183371    0.3765894856    0.8184105242    0.3765894856    0.8184105242   -0.3836830395    0.1275833740
2.7002e+09   -0.3107479360    0.1403656112    0.4367841522    0.7917426096    0.4367841522    0.7917426096   -0.3619745898    0.1450652505
2.8002e+09   -0.2873967058    0.1541301365    0.4959600380    0.7607310017    0.4959600380    0.7607310017   -0.3377455938    0.1592444946
2.9002e+09   -0.2620426114    0.1643336633    0.5538107763    0.7251843122    0.5538107763    0.7251843122   -0.3114479451    0.1697293689
3.0002e+09   -0.2351914866    0.1706446684    0.6099526874    0.6849306158    0.6099526874    0.6849306158   -0.2836059065    0.1761770070
3.1002e+09   -0.2074175187    0.1727949821    0.6639254901    0.6398348993    0.6639254901    0.6398348993   -0.2548148113    0.1783102121
3.2002e+09   -0.1793583489    0.1705967937    0.7151927985    0.5898216867    0.7151927985    0.5898216867   -0.2257349691    0.1759339184
3.3002e+09   -0.1517094209    0.1639605850    0.7631411163    0.5349123694    0.7631411163    0.5349123694   -0.1970874695    0.1689549493
3.4002e+09   -0.1251905884    0.1529160819    0.8071387279    0.4751864983    0.8071387279    0.4751864983   -0.1696194625    0.1574036290
3.5002e+09   -0.1005496698    0.1376203194    0.8464888964    0.4108897464    0.8464888964    0.4108897464   -0.1441075126    0.1414417129
3.6002e+09   -0.0785184859    0.1183738036    0.8805036291    0.3423919110    0.8805036291    0.3423919110   -0.1213130254    0.1213805216
3.7002e+09   -0.0597827475    0.0956196245    0.9085293209    0.2701986819    0.9085293209    0.2701986819   -0.1019508436    0.0976806667
3.8002e+09   -0.0449513718    0.0699397650    0.9299761897    0.1949636085    0.9299761897    0.1949636085   -0.0866561113    0.0709483683
3.9002e+09   -0.0345216636    0.0420380689    0.9443601277    0.1174666888    0.9443601277    0.1174666888   -0.0759478009    0.0419188830
4.0002e+09   -0.0288507502    0.0127128597    0.9513355333    0.0385867378    0.9513355333    0.0385867378   -0.0701976699    0.0114276603
4.1002e+09   -0.0281297161   -0.0171646988    0.9507190339   -0.0407270996    0.9507190339   -0.0407270996   -0.0696016715   -0.0196134617
4.2002e+09   -0.0323722771   -0.0467107130    0.9425052284   -0.1195001967    0.9425052284   -0.1195001967   -0.0741683664   -0.0502798327
4.3002e+09   -0.0414256337   -0.0750558706    0.9268677762   -0.1967765805    0.9268677762   -0.1967765805   -0.0837306037   -0.0796643033
4.4002e+09   -0.0549684456   -0.1013780296    0.9041472654   -0.2716607060    0.9041472654   -0.2716607060   -0.0979442462   -0.1069122797
4.5002e+09   -0.0725271204   -0.1249516350    0.8748277097   -0.3433557891    0.8748277097   -0.3433557891   -0.1163074786   -0.1312732556
4.6002e+09   -0.0935105073   -0.1451702864    0.8395041594   -0.4111904219    0.8395041594   -0.4111904219   -0.1381983517   -0.1521236257
4.7002e+09   -0.1172402830   -0.1615640463    0.7988487138   -0.4746296396    0.7988487138   -0.4746296396   -0.1629065663   -0.1689835735
4.8002e+09   -0.1429885708   -0.1738107121    0.7535701342   -0.5332872353    0.7535701342   -0.5332872353   -0.1896735529   -0.1815274352
4.9002e+09   -0.1700098110   -0.1817328618    0.7043822196   -0.5869156759    0.7043822196   -0.5869156759   -0.2177252620   -0.1895796991
5.0002e+09   -0.1975716643   -0.1852898649    0.6519724992   -0.6353952174    0.6519724992   -0.6353952174   -0.2463029238   -0.1931058228
5.1002e+09   -0.2249784885   -0.1845625310    0.5969806059   -0.6787147564    0.5969806059   -0.6787147564   -0.2746876000   -0.1921960725
5.2002e+09   -0.2515894909   -0.1797351339    0.5399817207   -0.7169509156    0.5399817207   -0.7169509156   -0.3022184071   -0.1870468140
5.3002e+09   -0.2768301911   -0.1710762145    0.4814769185   -0.7502452614    0.4814769185   -0.7502452614   -0.3283031322   -0.1779404711
5.4002e+09   -0.3001987794   -0.1589195132    0.4218891806   -0.7787831593    0.4218891806   -0.7787831593   -0.3524254463   -0.1652261321
5.5002e+09   -0.3212737459   -0.1436445840    0.3615522441   -0.8027771667    0.3615522441   -0.8027771667   -0.3741525075   -0.1492994374
5.6002e+09   -0.3396874686   -0.1256709776    0.3007640010   -0.8224348318    0.3007640010   -0.8224348318   -0.3931067316   -0.1305968894
5.7002e+09   -0.3551602797   -0.1054341321    0.2397207384   -0.8379673805    0.2397207384   -0.8379673805   -0.4090017602   -0.1095708136
5.8002e+09   -0.3674691934   -0.0833843617    0.1785768739   -0.8495615628    0.1785768739   -0.8495615628   -0.4216102038   -0.0866885511
5.9002e+09   -0.3764513067   -0.0599773889    0.1174384130   -0.8573750362    0.1174384130   -0.8573750362   -0.4307660666   -0.0624226363
6.0002e+09   -0.3819967036   -0.0356715004    0.0563791651   -0.8615296129    0.0563791651   -0.8615296129   -0.4363585385   -0.0372479998
6.1002e+09   -0.3840456951   -0.0109242332    0.0045506756    0.8621071612    0.0045506756    0.8621071612   -0.4383289655   -0.0116384316
6.2002e+09   -0.3825860955    0.0138089966    0.0653128131    0.8591469488    0.0653128131    0.8591469488   -0.4366672522    0.0139346328
6.3002e+09   -0.3776518000    0.0380757017    0.1258695494    0.8526454126    0.1258695494    0.8526454126   -0.4314112245    0.0390030775
6.4002e+09   -0.3693230061    0.0614275934    0.1861739165    0.8425571375    0.1861739165    0.8425571375   -0.4226468288    0.0631034926
6.5002e+09   -0.3577275482    0.0834214332    0.2461575945    0.8287975716    0.2461575945    0.8287975716   -0.4105087292    0.0857777951
6.6002e+09   -0.3430434914    0.1036214009    0.3057209690    0.8112480178    0.3057209690    0.8112480178   -0.3951837713    0.1065759285
6.7002e+09   -0.3255025974    0.1216027336    0.3647229691    0.7897622973    0.3647229691    0.7897622973   -0.3769144712    0.1250596308
6.8002e+09   -0.3053942223    0.1369574269    0.4229719624    0.7641752546    0.4229719624    0.7641752546   -0.3560023291    0.1408080628
6.9002e+09   -0.2830687927    0.1493019538    0.4802179348    0.7343139247    0.4802179348    0.7343139247   -0.3328121223    0.1534260877
7.0002e+09   -0.2589405713    0.1582871851    0.5361456741    0.7000112956    0.5361456741    0.7000112956   -0.3077746585    0.1625543831
7.1002e+09   -0.2334885363    0.1636110631    0.5903709916    0.6611218534    0.5903709916    0.6611218534   -0.2813871435    0.1678823205
7.2002e+09   -0.2072545179    0.1650330349    0.6424400743    0.6175399060    0.6424400743    0.6175399060   -0.2542118207    0.1691630633
7.3002e+09   -0.1808371490    0.1623901493    0.6918340052    0.5692182767    0.6918340052    0.5692182767   -0.2268698166    0.1662302421
7.4002e+09   -0.1548817119    0.1556134554    0.7379767084    0.5161883211    0.7379767084    0.5161883211   -0.2000302576    0.1590146301
7.5002e+09   -0.1300645332    0.1447431838    0.7802496802    0.4585789737    0.7802496802    0.4585789737   -0.1743947732    0.1475602502
7.6002e+09   -0.1070721272    0.1299413239    0.8180124127    0.3966327964    0.8180124127    0.3966327964   -0.1506759339    0.1320376517
7.7002e+09   -0.0865756946    0.1114994188    0.8506277885    0.3307182022    0.8506277885    0.3307182022   -0.1295704811    0.1127522398
7.8002e+09   -0.0692016140    0.0898393488    0.8774938380    0.2613314796    0.8774938380    0.2613314796   -0.1117287839    0.0901456265
7.9002e+09   -0.0555019373    0.0655069238    0.8980749089    0.1890956207    0.8980749089    0.1890956207   -0.0977235986    0.0647894112
8.0002e+09   -0.0459249900    0.0391567085    0.9119342679    0.1147459953    0.9119342679    0.1147459953   -0.0880184373    0.0373691652
8.1002e+09   -0.0407895401    0.0115291130    0.9187629123    0.0391072006    0.9187629123    0.0391072006   -0.0829401351    0.0086603197
8.2002e+09   -0.0402648322   -0.0165748348    0.9184010083   -0.0369384703    0.9184010083   -0.0369384703   -0.0826575529   -0.0204992746
8.3002e+09   -0.0443612031   -0.0443417113    0.9108495018   -0.1124876755    0.9108495018   -0.1124876755   -0.0871717151   -0.0492607088
8.4002e+09   -0.0529312032   -0.0709715991    0.8962703190   -0.1866573166    0.8962703190   -0.1866573166   -0.0963180749   -0.0767921475
8.5002e+09   -0.0656779079   -0.0957097870    0.8749755690   -0.2586189351    0.8749755690   -0.2586189351   -0.1097764988   -0.1023124830
8.6002e+09   -0.0821674500   -0.1178869931    0.8474066522   -0.3276317535    0.8474066522   -0.3276317535   -0.1270856485   -0.1251328706
8.7002e+09   -0.1018575882   -0.1369420434    0.8141057847   -0.3930674954    0.8141057847   -0.3930674954   -0.1476740676   -0.1446795534
8.8002e+09   -0.1241270440   -0.1524378410    0.7756844053   -0.4544232515    0.7756844053   -0.4544232515   -0.1708913099   -0.1605092902
8.9002e+09   -0.1483063680   -0.1640693658    0.7327905791   -0.5113263104    0.7327905791   -0.5113263104   -0.1960399114   -0.1723164236
9.0002e+09   -0.1737082708   -0.1716637260    0.6860786228   -0.5635300694    0.6860786228   -0.5635300694   -0.2224066807   -0.1799320352
9.1002e+09   -0.1996542674   -0.1751725245    0.6361828233   -0.6109035345    0.6361828233   -0.6109035345   -0.2492899485   -0.1833153929
9.2002e+09   -0.2254966626   -0.1746594457    0.5836964361   -0.6534153843    0.5836964361   -0.6534153843   -0.2760213683   -0.1825405853
9.3002e+09   -0.2506351519   -0.1702845833    0.5291567661   -0.6911154706    0.5291567661   -0.6911154706   -0.3019829419   -0.1777802969
9.4002e+09   -0.2745279119   -0.1622874274    0.4730358959   -0.7241150798    0.4730358959   -0.7241150798   -0.3266180365   -0.1692881752
9.5002e+09   -0.2966977570   -0.1509702979    0.4157368034   -0.7525673220    0.4157368034   -0.7525673220   -0.3494371424   -0.1573817010
9.6002e+09   -0.3167348675   -0.1366830925    0.3575932410   -0.7766493037    0.3575932410   -0.7766493037   -0.3700207557   -0.1424266545
9.7002e+09   -0.3342956442   -0.1198094888    0.2988731370   -0.7965466218    0.2988731370   -0.7965466218   -0.3880180883   -0.1248228880
9.8002e+09   -0.3491000595   -0.1007565915    0.2397857145   -0.8124390669    0.2397857145   -0.8124390669   -0.4031438970   -0.1049937839
9.9002e+09   -0.3609278227   -0.0799462541    0.1804891433   -0.8244899664    0.1804891433   -0.8244899664   -0.4151747626   -0.0833773632
1.0000e+10   -0.3696142151   -0.0578088073    0.1210997970   -0.8328376562    0.1210997970   -0.8328376562   -0.4239448082   -0.0604198472
1.0100e+10   -0.3750462161   -0.0347787262    0.0617021001   -0.8375889492    0.0617021001   -0.8375889492   -0.4293413054   -0.0365713309
1.0200e+10   -0.3771592175   -0.0112917214    0.0023587438   -0.8388150146    0.0023587438   -0.8388150146   -0.4313016298   -0.0122827396
1.0300e+10   -0.3759347793    0.0122171028    0.0568789649    0.8365488346    0.0568789649    0.8365488346   -0.4298109217    0.0119960433
1.0400e+10   -0.3713994595    0.0353144941    0.1159606754    0.8307846272    0.1159606754    0.8307846272   -0.4249005917    0.0358173840
1.0500e+10   -0.3636256976    0.0575702913    0.1748264966    0.8214784393    0.1748264966    0.8214784393   -0.4166495298    0.0587372820
1.0600e+10   -0.3527319411    0.0785594289    0.2333981652    0.8085512416    0.2333981652    0.8085512416   -0.4051841548    0.0803173888
1.0700e+10   -0.3388862038    0.0978641969    0.2915678769    0.7918926249    0.2915678769    0.7918926249   -0.3906818877    0.1001273206
1.0800e+10   -0.3223070387    0.1150774116    0.3491892753    0.7713684147    0.3491892753    0.7713684147   -0.3733723340    0.1177480046
1.0900e+10   -0.3032695483    0.1298089971    0.4060692012    0.7468271726    0.4060692012    0.7468271726   -0.3535435066    0.1327785005
1.1000e+10   -0.2821067554    0.1416928062    0.4619599459    0.7181116762    0.4619599459    0.7181116762   -0.3315428743    0.1448429510
1.1100e+10   -0.2592120806    0.1503962908    0.5165536631    0.6850713074    0.5165536631    0.6850713074   -0.3077802031    0.1536006232
1.1200e+10   -0.2350397379    0.1556322158    0.5694789908    0.6475768425    0.5694789908    0.6475768425   -0.2827278527    0.1587580394
1.1300e+10   -0.2101025665    0.1571721271    0.6203007113    0.6055369078    0.6203007113    0.6055369078   -0.2569183980    0.1600827455
1.1400e+10   -0.1849665009    0.1548609434    0.6685229348    0.5589166118    0.6685229348    0.5589166118   -0.2309390965    0.1574184594
1.1500e+10   -0.1602404764    0.1486326967    0.7135991658    0.5077533866    0.7135991658    0.5077533866   -0.2054214454    0.1507014158
1.1600e+10   -0.1365614121    0.1385227719    0.7549441859    0.4521765561    0.7549441859    0.4521765561   -0.1810256072    0.1399730003
1.1700e+10   -0.1145757540    0.1246803788    0.7919532959    0.3924209099    0.7919532959    0.3924209099   -0.1584213680    0.1253929469
1.1800e+10   -0.0949156537    0.1073751305    0.8240262610    0.3288371839    0.8240262610    0.3288371839   -0.1382633906    0.1072463500
1.1900e+10   -0.0781725617    0.0869981365    0.8505949291    0.2618961033    0.8505949291    0.2618961033   -0.1211633064    0.0859450138
1.2000e+10   -0.0648694699    0.0640560139    0.8711531802    0.1921848317    0.8711531802    0.1921848317   -0.1076605747    0.0620212746
1.2100e+10   -0.0554341528    0.0391573296    0.8852862721    0.1203946533    0.8852862721    0.1203946533   -0.0981940209    0.0361136845
1.2200e+10   -0.0501751815    0.0129923118    0.8926968124    0.0472999904    0.8926968124    0.0472999904   -0.0930763415    0.0089451970
1.2300e+10   -0.0492640090   -0.0136925692    0.8932246622   -0.0262693983    0.8932246622   -0.0262693983   -0.0924753798   -0.0187042304
1.2400e+10   -0.0527252591   -0.0401323350    0.8868579324   -0.0994638606    0.8868579324   -0.0994638606   -0.0964045016   -0.0460379705
1.2500e+10   -0.0604345929   -0.0655731345    0.8737336560   -0.1714483942    0.8737336560   -0.1714483942   -0.1047212759   -0.0722744038
1.2600e+10   -0.0721281187   -0.0893023929    0.8541288485   -0.2414343862    0.8541288485   -0.2414343862   -0.1171386532   -0.0966785852
1.2700e+10   -0.0874136833   -0.1106805709    0.8284420932   -0.3087133952    0.8284420932   -0.3087133952   -0.1332381401   -0.1185948901
1.2800e+10   -0.1057945021   -0.1291663481    0.7971688208   -0.3726766130    0.7971688208   -0.3726766130   -0.1524952790   -0.1374723123
1.2900e+10   -0.1266961847   -0.1443320543    0.7608727027   -0.4328295705    0.7608727027   -0.4328295705   -0.1743083304   -0.1528792886
1.3000e+10   -0.1494951995   -0.1558720558    0.7201560092   -0.4887975330    0.7201560092   -0.4887975330   -0.1980278482   -0.1645113393
1.3100e+10   -0.1735466141   -0.1636037387    0.6756315299   -0.5403231173    0.6756315299   -0.5403231173   -0.2229851381   -0.1721910817
1.3200e+10   -0.1982096853   -0.1674624261    0.6278981096   -0.5872568030    0.6278981096   -0.5872568030   -0.2485181702   -0.1758623763
1.3300e+10   -0.2228667326   -0.1674879134    0.5775204168   -0.6295457140    0.5775204168   -0.6295457140   -0.2739907617   -0.1755759307
1.3400e+10   -0.2469430999   -0.1638153261    0.5250135032   -0.6672140965    0.5250135032   -0.6672140965   -0.2988124322   -0.1714797307
1.3500e+10   -0.2699146489   -0.1566566789    0.4708361762   -0.7003457968    0.4708361762   -0.7003457968   -0.3224458841   -0.1637999414
1.3600e+10   -0.2913171576   -0.1462863641    0.4153823748   -0.7290685639    0.4153823748   -0.7290685639   -0.3444164076   -0.1528259582
1.3700e+10   -0.3107480564   -0.1330269522    0.3589831174   -0.7535353523    0.3589831174   -0.7535353523   -0.3643132461   -0.1388958516
1.3800e+10   -0.3278668803   -0.1172365937    0.3019086149   -0.7739098657    0.3019086149   -0.7739098657   -0.3817900138   -0.1223834243
1.3900e+10   -0.3423933851   -0.0992985108    0.2443735506   -0.7903535258    0.2443735506   -0.7903535258   -0.3965627318   -0.1036875973
1.4000e+10   -0.3541046089   -0.0796127104    0.1865442243   -0.8030147672    0.1865442243   -0.8030147672   -0.4084063840   -0.0832238192
1.4100e+10   -0.3628312500   -0.0585895954    0.1285467980   -0.8120206002    0.1285467980   -0.8120206002   -0.4171514952   -0.0614176522
1.4200e+10   -0.3684542955   -0.0366455296    0.0704767792   -0.8174702513    0.0704767792   -0.8174702513   -0.4226804514   -0.0387002007
