! Port 1 = P1 P2 
! Port 2 = P2 P2 
# hz S ri R 50
! freq  reS11  imS11  reS21  imS21  reS12  imS12  reS22  imS22  
!
2.5000e+05    0.0053822726   -0.0001024524    0.9946160729   -0.0002676700    0.9946160729   -0.0002676700    0.0053822724   -0.0001024524
1.0025e+08    0.0030052622   -0.0335645935    0.9890932914   -0.0876414655    0.9890932914   -0.0876414655    0.0030052645   -0.0335645872
2.0025e+08   -0.0049465896   -0.0662032622    0.9747328938   -0.1731224098    0.9747328938   -0.1731224098   -0.0049465918   -0.0662032582
3.0025e+08   -0.0181053450   -0.0970764025    0.9519379049   -0.2557442155    0.9519379049   -0.2557442155   -0.0181053368   -0.0970764019
4.0025e+08   -0.0360986982   -0.1252820093    0.9214150018   -0.3344978246    0.9214150018   -0.3344978246   -0.0360986970   -0.1252820050
5.0025e+08   -0.0583604114   -0.1499939655    0.8840084394   -0.4085961436    0.8840084394   -0.4085961436   -0.0583604176   -0.1499939647
6.0025e+08   -0.0841566191   -0.1705323844    0.8406123531   -0.4774675808    0.8406123531   -0.4774675808   -0.0841565933   -0.1705323796
7.0025e+08   -0.1126342744   -0.1864018233    0.7921297837   -0.5407240711    0.7921297837   -0.5407240711   -0.1126342732   -0.1864018231
8.0025e+08   -0.1428779500   -0.1973041789    0.7394487082   -0.5981371786    0.7394487082   -0.5981371786   -0.1428779241   -0.1973041625
9.0025e+08   -0.1739984187   -0.2031542787    0.6833843404   -0.6496440794    0.6833843404   -0.6496440794   -0.1739983907   -0.2031542789
1.0002e+09   -0.2051288323   -0.2040177941    0.6247055342   -0.6952851707    0.6247055342   -0.6952851707   -0.2051288413   -0.2040177915
1.1002e+09   -0.2354902612   -0.2001098318    0.5640815354   -0.7352092545    0.5640815354   -0.7352092545   -0.2354902471   -0.2001098306
1.2002e+09   -0.2643850393   -0.1917502751    0.5020965412   -0.7696329128    0.5020965412   -0.7696329128   -0.2643850379   -0.1917502728
1.3002e+09   -0.2912198031   -0.1793421376    0.4392299247   -0.7988227399    0.4392299247   -0.7988227399   -0.2912198019   -0.1793421783
1.4002e+09   -0.3154992757   -0.1633431213    0.3758650996   -0.8230681698    0.3758650996   -0.8230681698   -0.3154992891   -0.1633431336
1.5002e+09   -0.3368168943   -0.1442455643    0.3123019320   -0.8426608823    0.3123019320   -0.8426608823   -0.3368168803   -0.1442455406
1.6002e+09   -0.3548571713   -0.1225613161    0.2487557986   -0.8578793946    0.2487557986   -0.8578793946   -0.3548571599   -0.1225613099
1.7002e+09   -0.3693807070   -0.0988097475    0.1853765956   -0.8689745227    0.1853765956   -0.8689745227   -0.3693806748   -0.0988097538
1.8002e+09   -0.3802291228   -0.0735054872    0.1222442325   -0.8761570985    0.1222442325   -0.8761570985   -0.3802291437   -0.0735055143
1.9002e+09   -0.3872696181   -0.0471715997    0.0594440418   -0.8796010829    0.0594440418   -0.8796010829   -0.3872696000   -0.0471715930
2.0002e+09   -0.3904597702   -0.0203133015    0.0030105940    0.8794263153    0.0030105940    0.8794263153   -0.3904597716   -0.0203132965
2.1002e+09   -0.3897987966    0.0065698996    0.0651102831    0.8757027161    0.0651102831    0.8757027161   -0.3897987964    0.0065699413
2.2002e+09   -0.3853354927    0.0329884362    0.1268515692    0.8684474913    0.1268515692    0.8684474913   -0.3853354745    0.0329884426
2.3002e+09   -0.3771607189    0.0584558741    0.1882121292    0.8576318452    0.1882121292    0.8576318452   -0.3771607129    0.0584558544
2.4002e+09   -0.3654176416    0.0824970978    0.2491555119    0.8431780648    0.2491555119    0.8431780648   -0.3654176223    0.0824971400
2.5002e+09   -0.3502988620    0.1046446380    0.3096094964    0.8249686366    0.3096094964    0.8249686366   -0.3502988580    0.1046446314
2.6002e+09   -0.3320518319    0.1244426961    0.3694581548    0.8028522767    0.3694581548    0.8028522767   -0.3320518281    0.1244426706
2.7002e+09   -0.3109833073    0.1414521939    0.4285315920    0.7766532747    0.4285315920    0.7766532747   -0.3109833120    0.1414521668
2.8002e+09   -0.2874639600    0.1552577367    0.4865961501    0.7461839006    0.4865961501    0.7461839006   -0.2874639660    0.1552577351
2.9002e+09   -0.2619322650    0.1654784343    0.5433484036    0.7112579067    0.5433484036    0.7112579067   -0.2619322495    0.1654784361
3.0002e+09   -0.2348967133    0.1717801323    0.5984087402    0.6717090673    0.5984087402    0.6717090673   -0.2348966937    0.1717801315
3.1002e+09   -0.2069348278    0.1738921289    0.6513224420    0.6274085532    0.6513224420    0.6274085532   -0.2069348204    0.1738921220
3.2002e+09   -0.1786885449    0.1716240217    0.7015614091    0.5782875084    0.7015614091    0.5782875084   -0.1786885535    0.1716240314
3.3002e+09   -0.1508586514    0.1648842713    0.7485229823    0.5243732551    0.7485229823    0.5243732551   -0.1508586286    0.1648842610
3.4002e+09   -0.1241713599    0.1537012652    0.7915885734    0.4657511155    0.7915885734    0.4657511155   -0.1241713499    0.1537012647
3.5002e+09   -0.0993822903    0.1382319735    0.8300788847    0.4026695706    0.8300788847    0.4026695706   -0.0993822798    0.1382319854
3.6002e+09   -0.0772319839    0.1187788143    0.8633259820    0.3354979014    0.8633259820    0.3354979014   -0.0772319651    0.1187788194
3.7002e+09   -0.0584152657    0.0957894496    0.8906982482    0.2647363898    0.8906982482    0.2647363898   -0.0584152691    0.0957894527
3.8002e+09   -0.0435498053    0.0698535823    0.9116288628    0.1910267181    0.9116288628    0.1910267181   -0.0435497904    0.0698535737
3.9002e+09   -0.0331397462    0.0416861038    0.9256547738    0.1151301463    0.9256547738    0.1151301463   -0.0331397438    0.0416861031
4.0002e+09   -0.0275455637    0.0120989990    0.9324467404    0.0379005313    0.9324467404    0.0379005313   -0.0275455523    0.0120989961
4.1002e+09   -0.0269573663   -0.0180215968    0.9318314294   -0.0397428220    0.9318314294   -0.0397428220   -0.0269573543   -0.0180216107
4.2002e+09   -0.0313828286   -0.0477775002    0.9238049790   -0.1168570422    0.9238049790   -0.1168570422   -0.0313828110   -0.0477774808
4.3002e+09   -0.0406588002   -0.0762878109    0.9085342610   -0.1925166681    0.9085342610   -0.1925166681   -0.0406587953   -0.0762878266
4.4002e+09   -0.0544507506   -0.1027227816    0.8863461332   -0.2658531162    0.8863461332   -0.2658531162   -0.0544507236   -0.1027227679
4.5002e+09   -0.0722709114   -0.1263538927    0.8577058907   -0.3360908101    0.8577058907   -0.3360908101   -0.0722709095   -0.1263539129
4.6002e+09   -0.0935146251   -0.1465761635    0.8231870627   -0.4025731478    0.8231870627   -0.4025731478   -0.0935146008   -0.1465761499
4.7002e+09   -0.1174921649   -0.1629242332    0.7834401572   -0.4647743159    0.7834401572   -0.4647743159   -0.1174921489   -0.1629242318
4.8002e+09   -0.1434668264   -0.1750826928    0.7391533219   -0.5223120737    0.7391533219   -0.5223120737   -0.1434668244   -0.1750826853
4.9002e+09   -0.1706869450   -0.1828819759    0.6910217421   -0.5749389379    0.6910217421   -0.5749389379   -0.1706869144   -0.1828819745
5.0002e+09   -0.1984164952   -0.1862893086    0.6397169937   -0.6225328077    0.6397169937   -0.6225328077   -0.1984165068   -0.1862893027
5.1002e+09   -0.2259581590   -0.1853930087    0.5858651102   -0.6650782506    0.5858651102   -0.6650782506   -0.2259581572   -0.1853930001
5.2002e+09   -0.2526709665   -0.1803841190    0.5300299549   -0.7026464795    0.5300299549   -0.7026464795   -0.2526709389   -0.1803841439
5.3002e+09   -0.2779812700   -0.1715369601    0.4727034522   -0.7353733677    0.4727034522   -0.7353733677   -0.2779812667   -0.1715369578
5.4002e+09   -0.3013888464   -0.1591901812    0.4143012396   -0.7634381936    0.4143012396   -0.7634381936   -0.3013888283   -0.1591902173
5.5002e+09   -0.3224741644   -0.1437274139    0.3551514533   -0.7870474168    0.3551514533   -0.7870474168   -0.3224741601   -0.1437274559
5.6002e+09   -0.3408717590   -0.1255715695    0.2955471290   -0.8064030914    0.2955471290   -0.8064030914   -0.3408717304   -0.1255715917
5.7002e+09   -0.3563041596   -0.1051607605    0.2356815679   -0.8217111175    0.2356815679   -0.8217111175   -0.3563041752   -0.1051607601
5.8002e+09   -0.3685506153   -0.0829475201    0.1757069514   -0.8331532881    0.1757069514   -0.8331532881   -0.3685506442   -0.0829475800
5.9002e+09   -0.3774502538   -0.0593894090    0.1157278754   -0.8408832036    0.1157278754   -0.8408832036   -0.3774502639   -0.0593894343
6.0002e+09   -0.3828951158   -0.0349462659    0.0558174671   -0.8450191487    0.0558174671   -0.8450191487   -0.3828950953   -0.0349462965
6.1002e+09   -0.3848273872   -0.0100770271    0.0039742469    0.8456401072    0.0039742469    0.8456401072   -0.3848273874   -0.0100770739
6.2002e+09   -0.3832366140    0.0147615944    0.0636087967    0.8427833910    0.0636087967    0.8427833910   -0.3832366443    0.0147615809
6.3002e+09   -0.3781584237    0.0391158812    0.1230479772    0.8364441507    0.1230479772    0.8364441507   -0.3781583852    0.0391158597
6.4002e+09   -0.3696747484    0.0625362794    0.1822441945    0.8265765285    0.1822441945    0.8265765285   -0.3696747018    0.0625362197
6.5002e+09   -0.3579152099    0.0845782478    0.2411286298    0.8130964767    0.2411286298    0.8130964767   -0.3579152017    0.0845782222
6.6002e+09   -0.3430598224    0.1048046612    0.2996012171    0.7958865888    0.2996012171    0.7958865888   -0.3430598219    0.1048046401
6.7002e+09   -0.3253425294    0.1227894407    0.3575207649    0.7748028326    0.3575207649    0.7748028326   -0.3253425542    0.1227894288
6.8002e+09   -0.3050551022    0.1381232448    0.4146961221    0.7496832557    0.4146961221    0.7496832557   -0.3050551156    0.1381231953
6.9002e+09   -0.2825507880    0.1504212808    0.4708785150    0.7203589363    0.4708785150    0.7203589363   -0.2825507806    0.1504212565
7.0002e+09   -0.2582470680    0.1593333281    0.5257549013    0.6866678063    0.5257549013    0.6866678063   -0.2582470914    0.1593332754
7.1002e+09   -0.2326266433    0.1645564470    0.5789448396    0.6484701063    0.5789448396    0.6484701063   -0.2326266921    0.1645564237
7.2002e+09   -0.2062355881    0.1658496007    0.6299999570    0.6056665114    0.6299999570    0.6056665114   -0.2062356100    0.1658495759
7.3002e+09   -0.1796773828    0.1630499047    0.6784090295    0.5582164733    0.6784090295    0.5582164733   -0.1796774034    0.1630498711
7.4002e+09   -0.1536027681    0.1560892343    0.7236065261    0.5061576836    0.7236065261    0.5061576836   -0.1536027969    0.1560892088
7.5002e+09   -0.1286940818    0.1450097699    0.7649874717    0.4496242344    0.7649874717    0.4496242344   -0.1286941268    0.1450097485
7.6002e+09   -0.1056442029    0.1299769726    0.8019279442    0.3888615431    0.8019279442    0.3888615431   -0.1056442383    0.1299769389
7.7002e+09   -0.0851307402    0.1112876958    0.8338103992    0.3242373004    0.8338103992    0.3242373004   -0.0851307790    0.1112876967
7.8002e+09   -0.0677858243    0.0893713556    0.8600541628    0.2562422157    0.8600541628    0.2562422157   -0.0677858512    0.0893713485
7.9002e+09   -0.0541656995    0.0647836795    0.8801451017    0.1854876635    0.8801451017    0.1854876635   -0.0541657222    0.0647836722
8.0002e+09   -0.0447202994    0.0381910479    0.8936662146    0.1126911111    0.8936662146    0.1126911111   -0.0447203344    0.0381910252
8.1002e+09   -0.0397663998    0.0103467419    0.9003239184    0.0386535344    0.9003239184    0.0386535344   -0.0397664294    0.0103467215
8.2002e+09   -0.0394671618   -0.0179357161    0.8999675937   -0.0357705084    0.8999675937   -0.0357705084   -0.0394672163   -0.0179357137
8.3002e+09   -0.0438230592   -0.0458324682    0.8926001522   -0.1097070898    0.8926001522   -0.1097070898   -0.0438230748   -0.0458324882
8.4002e+09   -0.0526738128   -0.0725365086    0.8783780320   -0.1823017800    0.8783780320   -0.1823017800   -0.0526738441   -0.0725364786
8.5002e+09   -0.0657083577   -0.0972903176    0.8576015080   -0.2527514815    0.8576015080   -0.2527514815   -0.0657083892   -0.0972903281
8.6002e+09   -0.0824789359   -0.1194260521    0.8306954616   -0.3203362366    0.8306954616   -0.3203362366   -0.0824789816   -0.1194260444
8.7002e+09   -0.1024311409   -0.1383875977    0.7981829415   -0.3844430863    0.7981829415   -0.3844430863   -0.1024311444   -0.1383875817
8.8002e+09   -0.1249340550   -0.1537454721    0.7606553160   -0.4445792487    0.7606553160   -0.4445792487   -0.1249340719   -0.1537454636
8.9002e+09   -0.1493115566   -0.1652036613    0.7187411140   -0.5003775199    0.7187411140   -0.5003775199   -0.1493115776   -0.1652036389
9.0002e+09   -0.1748724728   -0.1725986523    0.6730765374   -0.5515930464    0.6730765374   -0.5515930464   -0.1748724364   -0.1725986637
9.1002e+09   -0.2009367855   -0.1758910682    0.6242795753   -0.5980937777    0.6242795753   -0.5980937777   -0.2009367779   -0.1758911051
9.2002e+09   -0.2268572054   -0.1751527146    0.5729293319   -0.6398452699    0.5729293319   -0.6398452699   -0.2268572285   -0.1751527141
9.3002e+09   -0.2520351949   -0.1705506812    0.5195510780   -0.6768927997    0.5195510780   -0.6768927997   -0.2520351707   -0.1705506911
9.4002e+09   -0.2759315311   -0.1623303160    0.4646067832   -0.7093422697    0.4646067832   -0.7093422697   -0.2759315656   -0.1623303519
9.5002e+09   -0.2980722136   -0.1507986356    0.4084911845   -0.7373408316    0.4084911845   -0.7373408316   -0.2980721623   -0.1507986786
9.6002e+09   -0.3180507404   -0.1363092481    0.3515314583   -0.7610596284    0.3515314583   -0.7610596284   -0.3180507198   -0.1363092942
9.7002e+09   -0.3355269387   -0.1192487157    0.2939904387   -0.7806781494    0.2939904387   -0.7806781494   -0.3355268951   -0.1192487072
9.8002e+09   -0.3502240170   -0.1000262983    0.2360736311   -0.7963705733    0.2360736311   -0.7963705733   -0.3502240579   -0.1000263124
9.9002e+09   -0.3619248124   -0.0790655025    0.1779365683   -0.8082948598    0.1779365683   -0.8082948598   -0.3619248091   -0.0790655298
1.0000e+10   -0.3704674840   -0.0567979506    0.1196939726   -0.8165846315    0.1196939726   -0.8165846315   -0.3704674672   -0.0567979687
1.0100e+10   -0.3757416710   -0.0336591074    0.0614294351   -0.8213426860    0.0614294351   -0.8213426860   -0.3757417061   -0.0336591338
1.0200e+10   -0.3776852989   -0.0100855116    0.0032054510   -0.8226367992    0.0032054510   -0.8226367992   -0.3776853341   -0.0100855202
1.0300e+10   -0.3762823168    0.0134870028    0.0549263233    0.8204973948    0.0549263233    0.8204973948   -0.3762823411    0.0134869524
1.0400e+10   -0.3715616250    0.0366244855    0.1129149616    0.8149169780    0.1129149616    0.8149169780   -0.3715616355    0.0366244966
1.0500e+10   -0.3635979753    0.0588961313    0.1706996414    0.8058508050    0.1706996414    0.8058508050   -0.3635979977    0.0588960722
1.0600e+10   -0.3525122743    0.0798762286    0.2282012305    0.7932198665    0.2282012305    0.7932198665   -0.3525123060    0.0798761179
1.0700e+10   -0.3384751186    0.0991464754    0.2853111851    0.7769147696    0.2853111851    0.7769147696   -0.3384751230    0.0991464222
1.0800e+10   -0.3217078227    0.1162991583    0.3418826491    0.7568034126    0.3418826491    0.7568034126   -0.3217078724    0.1162990949
1.0900e+10   -0.3024885758    0.1309438523    0.3977224863    0.7327372858    0.3977224863    0.7327372858   -0.3024886671    0.1309438185
1.1000e+10   -0.2811537372    0.1427142854    0.4525837554    0.7045631769    0.4525837554    0.7045631769   -0.2811537598    0.1427142312
1.1100e+10   -0.2581004530    0.1512780387    0.5061605923    0.6721354884    0.5061605923    0.6721354884   -0.2581005025    0.1512779485
1.1200e+10   -0.2337870208    0.1563485499    0.5580849378    0.6353307127    0.5580849378    0.6353307127   -0.2337870737    0.1563484888
1.1300e+10   -0.2087306557    0.1576985500    0.6079267843    0.5940639495    0.6079267843    0.5940639495   -0.2087307115    0.1576985042
1.1400e+10   -0.1835020090    0.1551749004    0.6551977925    0.5483069672    0.6551977925    0.5483069672   -0.1835020904    0.1551748363
1.1500e+10   -0.1587149549    0.1487145817    0.6993616854    0.4981034425    0.6993616854    0.4981034425   -0.1587150540    0.1487145288
1.1600e+10   -0.1350113960    0.1383570349    0.7398465004    0.4435877965    0.7398465004    0.4435877965   -0.1350114825    0.1383569910
1.1700e+10   -0.1130426082    0.1242570159    0.7760638768    0.3849975493    0.7760638768    0.3849975493   -0.1130427131    0.1242569826
1.1800e+10   -0.0934448619    0.1066913308    0.8074323925    0.3226826320    0.8074323925    0.3226826320   -0.0934449687    0.1066913052
1.1900e+10   -0.0768125384    0.0860600031    0.8334045262    0.2571082175    0.8334045262    0.2571082175   -0.0768126717    0.0860599591
1.2000e+10   -0.0636694385    0.0628801350    0.8534947552    0.1888502366    0.8534947552    0.1888502366   -0.0636695691    0.0628801115
1.2100e+10   -0.0544413596    0.0377717567    0.8673071604    0.1185828959    0.8673071604    0.1185828959   -0.0544414709    0.0377717557
1.2200e+10   -0.0494315128    0.0114365495    0.8745592931    0.0470581849    0.8745592931    0.0470581849   -0.0494316355    0.0114365227
1.2300e+10   -0.0488024094   -0.0153689068    0.8751001337   -0.0249204525    0.8751001337   -0.0249204525   -0.0488025413   -0.0153689108
1.2400e+10   -0.0525667761   -0.0418721811    0.8689202243   -0.0965313580    0.8689202243   -0.0965313580   -0.0525669070   -0.0418721595
1.2500e+10   -0.0605865008   -0.0673156445    0.8561522372   -0.1669670041    0.8561522372   -0.1669670041   -0.0605866729   -0.0673156477
1.2600e+10   -0.0725834518   -0.0909871239    0.8370626847   -0.2354636399    0.8370626847   -0.2354636399   -0.0725836286   -0.0909870962
1.2700e+10   -0.0881522943   -0.1122513508    0.8120351263   -0.3013335291    0.8120351263   -0.3013335291   -0.0881524085   -0.1122512969
1.2800e+10   -0.1067852530   -0.1305743779    0.7815470936   -0.3639838557    0.7815470936   -0.3639838557   -0.1067853687   -0.1305742916
1.2900e+10   -0.1278998315   -0.1455379582    0.7461430851   -0.4229311723    0.7461430851   -0.4229311723   -0.1278999766   -0.1455379081
1.3000e+10   -0.1508674236   -0.1568468350    0.7064061716   -0.4778073086    0.7064061716   -0.4778073086   -0.1508675649   -0.1568467824
1.3100e+10   -0.1750408587   -0.1643286906    0.6629309744   -0.5283577057    0.6629309744   -0.5283577057   -0.1750410015   -0.1643285751
1.3200e+10   -0.1997795096   -0.1679283844    0.6162997946   -0.5744326368    0.6162997946   -0.5744326368   -0.1997795968   -0.1679283138
1.3300e+10   -0.2244675863   -0.1676941570    0.5670625081   -0.6159767171    0.5670625081   -0.6159767171   -0.2244676811   -0.1676940840
1.3400e+10   -0.2485335809   -0.1637681708    0.5157214441   -0.6530100348    0.5157214441   -0.6530100348   -0.2485336996   -0.1637680743
1.3500e+10   -0.2714572619   -0.1563681327    0.4627246261   -0.6856111458    0.4627246261   -0.6856111458   -0.2714573542   -0.1563680421
1.3600e+10   -0.2927786613   -0.1457728895    0.4084570864   -0.7139018363    0.4084570864   -0.7139018363   -0.2927787751   -0.1457727750
1.3700e+10   -0.3120995754   -0.1323083152    0.3532427296   -0.7380287423    0.3532427296   -0.7380287423   -0.3120996496   -0.1323081908
1.3800e+10   -0.3290837546   -0.1163349874    0.2973462264   -0.7581492893    0.2973462264   -0.7581492893   -0.3290838255   -0.1163348281
1.3900e+10   -0.3434549773   -0.0982378096    0.2409781861   -0.7744187199    0.2409781861   -0.7744187199   -0.3434549687   -0.0982376748
1.4000e+10   -0.3549939784   -0.0784179615    0.1843020087   -0.7869798422    0.1843020087   -0.7869798422   -0.3549939969   -0.0784178402
1.4100e+10   -0.3635348930   -0.0572865869    0.1274421000   -0.7959544338    0.1274421000   -0.7959544338   -0.3635349205   -0.0572864819
1.4200e+10   -0.3689618805   -0.0352605550    0.0704930681   -0.8014371944    0.0704930681   -0.8014371944   -0.3689619023   -0.0352604462
