! Port 1 = P1 P2 
! Port 2 = P2 P2 
# hz S ri R 50
! freq  reS11  imS11  reS21  imS21  reS12  imS12  reS22  imS22  
!
2.5000e+05   -0.0018479105   -0.0000980107    1.0147568622   -0.0002743425    1.0147568622   -0.0002743425   -0.0280678791   -0.0001019676
1.0025e+08   -0.0040440500   -0.0321224268    1.0090522762   -0.0898207735    1.0090522762   -0.0898207735   -0.0304418862   -0.0334046341
2.0025e+08   -0.0114993995   -0.0634258891    0.9941906106   -0.1773892565    0.9941906106   -0.1773892565   -0.0383780603   -0.0658783481
3.0025e+08   -0.0238933919   -0.0931406617    0.9706090463   -0.2619523517    0.9706090463   -0.2619523517   -0.0515038763   -0.0965781286
4.0025e+08   -0.0409212838   -0.1204186293    0.9390645769   -0.3424508063    0.9390645769   -0.3424508063   -0.0694393826   -0.1246025773
5.0025e+08   -0.0620922558   -0.1444600580    0.9004612368   -0.4180668798    0.9004612368   -0.4180668798   -0.0916112938   -0.1491305921
6.0025e+08   -0.0867443182   -0.1645862877    0.8557538065   -0.4882182843    0.8557538065   -0.4882182843   -0.1172809680   -0.1694907778
7.0025e+08   -0.1140853927   -0.1802840926    0.8059003254   -0.5525231431    0.8059003254   -0.5525231431   -0.1455941725   -0.1851979362
8.0025e+08   -0.1432468434   -0.1912254853    0.7518346054   -0.6107715445    0.7518346054   -0.6107715445   -0.1756386270   -0.1959645050
9.0025e+08   -0.1733710249   -0.1972902817    0.6944052983   -0.6629267086    0.6944052983   -0.6629267086   -0.2065313344   -0.2017139679
1.0002e+09   -0.2036102673   -0.1985087117    0.6344042372   -0.7090576645    0.6344042372   -0.7090576645   -0.2374138988   -0.2025180022
1.1002e+09   -0.2331945687   -0.1950632116    0.5725138871   -0.7493415843    0.5725138871   -0.7493415843   -0.2675170986   -0.1985951845
1.2002e+09   -0.2614281070   -0.1872453952    0.5093241942   -0.7840208082    0.5093241942   -0.7840208082   -0.2961528337   -0.1902660323
1.3002e+09   -0.2877146072   -0.1754350243    0.4453144891   -0.8133841864    0.4453144891   -0.8133841864   -0.3227363682   -0.1779316508
1.4002e+09   -0.3115532887   -0.1600711317    0.3808647598   -0.8377395522    0.3808647598   -0.8377395522   -0.3467802787   -0.1620466122
1.5002e+09   -0.3325308634   -0.1416315731    0.3162690187   -0.8573933186    0.3162690187   -0.8573933186   -0.3678843038   -0.1430987859
1.6002e+09   -0.3503249931   -0.1206172873    0.2517352523   -0.8726352425    0.2517352523   -0.8726352425   -0.3857377123   -0.1215945905
1.7002e+09   -0.3646898869   -0.0975392999    0.1874056735   -0.8837246777    0.1874056735   -0.8837246777   -0.4001050555   -0.0980480989
1.8002e+09   -0.3754617823   -0.0729061564    0.1233519105   -0.8908782823    0.1233519105   -0.8908782823   -0.4108305080   -0.0729683102
1.9002e+09   -0.3825034761   -0.0472357549    0.0596517112   -0.8942742115    0.0596517112   -0.8942742115   -0.4177829938   -0.0468724550
2.0002e+09   -0.3857694802   -0.0210293945    0.0036895409    0.8940343552    0.0036895409    0.8940343552   -0.4209211568   -0.0202604239
2.1002e+09   -0.3852571492    0.0052171368    0.0666700969    0.8902291984    0.0666700969    0.8902291984   -0.4202444717    0.0063736893
2.2002e+09   -0.3810146718    0.0310181175    0.1292940474    0.8828748307    0.1292940474    0.8828748307   -0.4158011839    0.0325456523
2.3002e+09   -0.3731331579    0.0558917136    0.1915461028    0.8719400880    0.1915461028    0.8719400880   -0.4076814236    0.0577741133
2.4002e+09   -0.3617568845    0.0793683955    0.2533966983    0.8573431627    0.2533966983    0.8573431627   -0.3960267397    0.0815890582
2.5002e+09   -0.3470800477    0.1009877757    0.3147801075    0.8389606326    0.3147801075    0.8389606326   -0.3810273878    0.1035279104
2.6002e+09   -0.3293516058    0.1203030460    0.3755861343    0.8166335356    0.3755861343    0.8166335356   -0.3629279481    0.1231395460
2.7002e+09   -0.3088792741    0.1368863523    0.4356496698    0.7901761997    0.4356496698    0.7901761997   -0.3420313605    0.1399892945
2.8002e+09   -0.2860332712    0.1503360539    0.4947402081    0.7593885647    0.4947402081    0.7593885647   -0.3187035183    0.1536655088
2.9002e+09   -0.2612492026    0.1602875578    0.5525552335    0.7240696292    0.5525552335    0.7240696292   -0.2933774442    0.1637902982
3.0002e+09   -0.2350290406    0.1664254261    0.6087126759    0.6840360130    0.6087126759    0.6840360130   -0.2665553802    0.1700314193
3.1002e+09   -0.2079387168    0.1684993919    0.6627508819    0.6391398726    0.6627508819    0.6391398726   -0.2388081386    0.1721185419
3.2002e+09   -0.1806020673    0.1663399292    0.7141291148    0.5892923799    0.7141291148    0.5892923799   -0.2107709079    0.1698601197
3.3002e+09   -0.1536938266    0.1598746287    0.7622250322    0.5345018274    0.7622250322    0.5345018274   -0.1831382740    0.1631616303
3.4002e+09   -0.1279063854    0.1491467791    0.8063934633    0.4748367677    0.8063934633    0.4748367677   -0.1566316426    0.1520469346
3.5002e+09   -0.1039531101    0.1343198495    0.8459205185    0.4105353826    0.8459205185    0.4105353826   -0.1320034079    0.1366675905
3.6002e+09   -0.0825268102    0.1156908674    0.8800978371    0.3419654447    0.8800978371    0.3419654447   -0.1099931749    0.1173203784
3.7002e+09   -0.0642730959    0.0936870189    0.9082502348    0.2696374343    0.9082502348    0.2696374343   -0.0912969830    0.0944480953
3.8002e+09   -0.0497647439    0.0688608953    0.9297682190    0.1942167631    0.9297682190    0.1942167631   -0.0765349653    0.0686375973
3.9002e+09   -0.0394720631    0.0418749571    0.9441519844    0.1165019469    0.9441519844    0.1165019469   -0.0662140262    0.0406031700
4.0002e+09   -0.0337389528    0.0134779910    0.9510466670    0.0373952443    0.9510466670    0.0373952443   -0.0606964273    0.0111582795
4.1002e+09   -0.0327598195   -0.0155107418    0.9502680134   -0.0421286514    0.9502680134   -0.0421286514   -0.0601716026   -0.0188080966
4.2002e+09   -0.0365677577   -0.0442551529    0.9418179992   -0.1210703733    0.9418179992   -0.1210703733   -0.0646439938   -0.0483952237
4.3002e+09   -0.0450423999   -0.0719241127    0.9258851067   -0.1984527888    0.9258851067   -0.1984527888   -0.0739449837   -0.0767215207
4.4002e+09   -0.0579030355   -0.0977203109    0.9028306537   -0.2733653923    0.9028306537   -0.2733653923   -0.0877332888   -0.1029592135
4.5002e+09   -0.0747190544   -0.1209287758    0.8731624281   -0.3450038529    0.8731624281   -0.3450038529   -0.1055149035   -0.1263850801
4.6002e+09   -0.0949396202   -0.1409408700    0.8374995364   -0.4126968687    0.8374995364   -0.4126968687   -0.1266810427   -0.1464020701
4.7002e+09   -0.1179205506   -0.1572744691    0.7965359951   -0.4759167772    0.7965359951   -0.4759167772   -0.1505403383   -0.1625541992
4.8002e+09   -0.1429600386   -0.1695889824    0.7509982534   -0.5342899815    0.7509982534   -0.5342899815   -0.1763578147   -0.1745356927
4.9002e+09   -0.1693304168   -0.1776858287    0.7016125554   -0.5875848676    0.7016125554   -0.5875848676   -0.2033864144   -0.1821858887
5.0002e+09   -0.1963099028   -0.1815030574    0.6490734309   -0.6356992487    0.6490734309   -0.6356992487   -0.2308967191   -0.1854788182
5.1002e+09   -0.2232076239   -0.1811019174    0.5940224793   -0.6786391504    0.5940224793   -0.6786391504   -0.2581994482   -0.1845075742
5.2002e+09   -0.2493834106   -0.1766498391    0.5370326916   -0.7164966960    0.5370326916   -0.7164966960   -0.2846622975   -0.1794657969
5.3002e+09   -0.2742606868   -0.1684014961    0.4785998509   -0.7494268278    0.4785998509   -0.7494268278   -0.3097199091   -0.1706280371
5.4002e+09   -0.2973341130   -0.1566797099    0.4191395703   -0.7776255382    0.4191395703   -0.7776255382   -0.3328797744   -0.1583315860
5.5002e+09   -0.3181780974   -0.1418557744    0.3589771490   -0.8013132604    0.3589771490   -0.8013132604   -0.3537293048   -0.1429574683
5.6002e+09   -0.3364210763   -0.1243427972    0.2984014209   -0.8207033751    0.2984014209   -0.8207033751   -0.3719087714   -0.1249248017
5.7002e+09   -0.3517798602   -0.1045716878    0.2375997638   -0.8360105618    0.2375997638   -0.8360105618   -0.3871453366   -0.1046673211
5.8002e+09   -0.3640287542   -0.0829892642    0.1767181176   -0.8474233431    0.1767181176   -0.8474233431   -0.3992221339   -0.0826331273
5.9002e+09   -0.3730029836   -0.0600485176    0.1158544288   -0.8550998897    0.1158544288   -0.8550998897   -0.4079808510   -0.0592747114
6.0002e+09   -0.3785917061   -0.0362053171    0.0550750819   -0.8591613925    0.0550750819   -0.8591613925   -0.4133155445   -0.0350470285
6.1002e+09   -0.3807352107   -0.0119147436    0.0055764993    0.8596882222    0.0055764993    0.8596882222   -0.4151698699   -0.0104042874
6.2002e+09   -0.3794220937    0.0123705843    0.0660684149    0.8567174891    0.0660684149    0.8567174891   -0.4135338207    0.0142018035
6.3002e+09   -0.3746877382    0.0362016842    0.1263688561    0.8502428086    0.1263688561    0.8502428086   -0.4084431094    0.0383222454
6.4002e+09   -0.3666143272    0.0591347963    0.1864362849    0.8402152939    0.1864362849    0.8402152939   -0.3999793881    0.0615120466
6.5002e+09   -0.3553319031    0.0807325189    0.2462075978    0.8265462246    0.2462075978    0.8265462246   -0.3882710012    0.0833314068
6.6002e+09   -0.3410205835    0.1005665048    0.3055879238    0.8091119056    0.3055879238    0.8091119056   -0.3734962807    0.1033476303
6.7002e+09   -0.3239135081    0.1182213451    0.3644403657    0.7877602380    0.3644403657    0.7877602380   -0.3558871035    0.1211387462
6.8002e+09   -0.3043000974    0.1333003951    0.4225768231    0.7623189896    0.4225768231    0.7623189896   -0.3357319405    0.1362994387
6.9002e+09   -0.2825286823    0.1454335089    0.4797496525    0.7326069908    0.4797496525    0.7326069908   -0.3133803704    0.1484483458
7.0002e+09   -0.2590082943    0.1542866901    0.5356443939    0.6984478784    0.5356443939    0.6984478784   -0.2892457188    0.1572378620
7.1002e+09   -0.2342084921    0.1595741027    0.5898755250    0.6596858130    0.5898755250    0.6596858130   -0.2638056014    0.1623668581
7.2002e+09   -0.2086564580    0.1610713839    0.6419851115    0.6162043283    0.6419851115    0.6162043283   -0.2376010334    0.1635949645
7.3002e+09   -0.1829301785    0.1586300041    0.6914467640    0.5679458719    0.6914467640    0.5679458719   -0.2112306820    0.1607586445
7.4002e+09   -0.1576481121    0.1521914005    0.7376734535    0.5149328307    0.7376734535    0.5149328307   -0.1853407676    0.1537881199
7.5002e+09   -0.1334542805    0.1417994712    0.7800322643    0.4572880831    0.7800322643    0.4572880831   -0.1606102773    0.1427229294
7.6002e+09   -0.1109993822    0.1276105075    0.8178656378    0.3952525297    0.8178656378    0.3952525297   -0.1377302788    0.1277254020
7.7002e+09   -0.0909185983    0.1098990083    0.8505182953    0.3291983795    0.8505182953    0.3291983795   -0.1173776526    0.1090898751
7.8002e+09   -0.0738064625    0.0890578961    0.8773709585    0.2596319372    0.8773709585    0.2596319372   -0.1001849877    0.0872441721
7.9002e+09   -0.0601920762    0.0655935101    0.8978739186    0.1871921725    0.8978739186    0.1871921725   -0.0867094478    0.0627439074
8.0002e+09   -0.0505137188    0.0401140462    0.9115817918    0.1126349869    0.9115817918    0.1126349869   -0.0774008508    0.0362571028
8.1002e+09   -0.0450952149    0.0133119080    0.9181839480    0.0368080782    0.9181839480    0.0368080782   -0.0725744140    0.0085396655
8.2002e+09   -0.0441256349   -0.0140556550    0.9175265641   -0.0393832225    0.9175265641   -0.0393832225   -0.0723895064   -0.0195924283
8.3002e+09   -0.0476469738   -0.0412096369    0.9096237229   -0.1150155257    0.9096237229   -0.1150155257   -0.0768404749   -0.0473138992
8.4002e+09   -0.0555506136   -0.0673719752    0.8946561287   -0.1891907305    0.8946561287   -0.1891907305   -0.0857596302   -0.0738188866
8.5002e+09   -0.0675803787   -0.0917964257    0.8729582171   -0.2610719479    0.8729582171   -0.2610719479   -0.0988283339   -0.0983541196
8.6002e+09   -0.0833403025   -0.1138101371    0.8449946573   -0.3299172705    0.8449946573   -0.3299172705   -0.1155923429   -0.1202587010
8.7002e+09   -0.1023198818   -0.1328392097    0.8113295158   -0.3951040522    0.8113295158   -0.3951040522   -0.1354931547   -0.1389857786
8.8002e+09   -0.1239217822   -0.1484281411    0.7725927253   -0.4561406085    0.7725927253   -0.4561406085   -0.1578989314   -0.1541163316
8.9002e+09   -0.1474925745   -0.1602511152    0.7294460898   -0.5126693980    0.7294460898   -0.5126693980   -0.1821354143   -0.1653644836
9.0002e+09   -0.1723540098   -0.1681146323    0.6825524953   -0.5644610396    0.6825524953   -0.5644610396   -0.2075161418   -0.1725758789
9.1002e+09   -0.1978311497   -0.1719515944    0.6325497297   -0.6114020760    0.6325497297   -0.6114020760   -0.2333680027   -0.1757185948
9.2002e+09   -0.2232759908   -0.1718098013    0.5800300354   -0.6534776883    0.5800300354   -0.6534776883   -0.2590515321   -0.1748694430
9.3002e+09   -0.2480855339   -0.1678365136    0.5255262231   -0.6907522213    0.5255262231   -0.6907522213   -0.2839767346   -0.1701985285
9.4002e+09   -0.2717140642   -0.1602612821    0.4695033663   -0.7233489026    0.4695033663   -0.7233489026   -0.3076129313   -0.1619522184
9.5002e+09   -0.2936801979   -0.1493789759    0.4123557922   -0.7514300912    0.4123557922   -0.7514300912   -0.3294938323   -0.1504365783
9.6002e+09   -0.3135701820   -0.1355340224    0.3544078800   -0.7751795113    0.3544078800   -0.7751795113   -0.3492199685   -0.1360031206
9.7002e+09   -0.3310371070   -0.1191061067    0.2959180499   -0.7947870394    0.2959180499   -0.7947870394   -0.3664573233   -0.1190353006
9.8002e+09   -0.3457984688   -0.1004993356    0.2370862521   -0.8104347182    0.2370862521   -0.8104347182   -0.3809340104   -0.0999384663
9.9002e+09   -0.3576323919   -0.0801331351    0.1780619825   -0.8222865041    0.1780619825   -0.8222865041   -0.3924369044   -0.0791318840
1.0000e+10   -0.3663734675   -0.0584356085    0.1189536726   -0.8304800442    0.1189536726   -0.8304800442   -0.4008074531   -0.0570427571
1.0100e+10   -0.3719088228   -0.0358388676    0.0598384803   -0.8351204512    0.0598384803   -0.8351204512   -0.4059376252   -0.0341018710
1.0200e+10   -0.3741747299   -0.0127758148    0.0007725999   -0.8362763606    0.0007725999   -0.8362763606   -0.4077669508   -0.0107411916
1.0300e+10   -0.3731542029    0.0103219796    0.0581984715    0.8339776004    0.0581984715    0.8339776004   -0.4062805977    0.0126079149
1.0400e+10   -0.3688756370    0.0330258109    0.1170296428    0.8282146106    0.1170296428    0.8282146106   -0.4015078474    0.0355160822
1.0500e+10   -0.3614134041    0.0549113412    0.1756656809    0.8189391000    0.1756656809    0.8189391000   -0.3935234677    0.0575569096
1.0600e+10   -0.3508876154    0.0755608270    0.2340324109    0.8060671296    0.2340324109    0.8060671296   -0.3824478977    0.0783089108
1.0700e+10   -0.3374672156    0.0945655998    0.2920255520    0.7894826533    0.2920255520    0.7894826533   -0.3684505461    0.0973580437
1.0800e+10   -0.3213703301    0.1115293135    0.3495015079    0.7690451177    0.3495015079    0.7690451177   -0.3517511246    0.1143005703
1.0900e+10   -0.3028695452    0.1260744857    0.4062688952    0.7445958926    0.4062688952    0.7445958926   -0.3326257045    0.1287497345
1.1000e+10   -0.2822924141    0.1378490485    0.4620805093    0.7159697036    0.4620805093    0.7159697036   -0.3114078130    0.1403425893
1.1100e+10   -0.2600229923    0.1465353913    0.5166272672    0.6830072101    0.5166272672    0.6830072101   -0.2884913561    0.1487494888
1.1200e+10   -0.2365013550    0.1518610363    0.5695343736    0.6455701090    0.5695343736    0.6455701090   -0.2643310956    0.1536858536
1.1300e+10   -0.2122207503    0.1536105783    0.6203605272    0.6035581000    0.6203605272    0.6035581000   -0.2394404458    0.1549256886
1.1400e+10   -0.1877219082    0.1516382298    0.6686007980    0.5569284135    0.6686007980    0.5569284135   -0.2143864765    0.1523162750
1.1500e+10   -0.1635835723    0.1458811872    0.7136966574    0.5057127856    0.7136966574    0.5057127856   -0.1897799790    0.1457942099
1.1600e+10   -0.1404091518    0.1363694618    0.7550483363    0.4500381836    0.7550483363    0.4500381836   -0.1662604148    0.1353982734
1.1700e+10   -0.1188111704    0.1232364556    0.7920350662    0.3901416423    0.7920350662    0.3901416423   -0.1444774780    0.1212824995
1.1800e+10   -0.0993913733    0.1067248051    0.8240406341    0.3263815610    0.8240406341    0.3263815610   -0.1250667183    0.1037234916
1.1900e+10   -0.0827187079    0.0871884990    0.8504830077    0.2592418422    0.8504830077    0.2592418422   -0.1086218110    0.0831222063
1.2000e+10   -0.0693055428    0.0650899299    0.8708464176    0.1893277007    0.8708464176    0.1893277007   -0.0956655580    0.0599977659
1.2100e+10   -0.0595833744    0.0409911117    0.8847124884    0.1173517381    0.8847124884    0.1173517381   -0.0866214671    0.0349731246
1.2200e+10   -0.0538789994    0.0155390065    0.8917872330    0.0441106164    0.8917872330    0.0441106164   -0.0817884100    0.0087531332
1.2300e+10   -0.0523942840   -0.0105546772    0.8919210745   -0.0295452625    0.8919210745   -0.0295452625   -0.0813225580   -0.0179033573
1.2400e+10   -0.0551920868   -0.0365475875    0.8851188245   -0.1027496569    0.8851188245   -0.1027496569   -0.0852285495   -0.0442236747
1.2500e+10   -0.0621888887   -0.0616950900    0.8715385188   -0.1746568983    0.8715385188   -0.1746568983   -0.0933592731   -0.0694526165
1.2600e+10   -0.0731593226   -0.0852814126    0.8514802657   -0.2444745154    0.8514802657   -0.2444745154   -0.1054280510   -0.0928836252
1.2700e+10   -0.0877437281   -0.1066540838    0.8253653844   -0.3114971357    0.8253653844   -0.3114971357   -0.1210227139   -0.1138898760
1.2800e+10   -0.1054698385   -0.1252526844    0.7937095254   -0.3751251686    0.7937095254   -0.3751251686   -0.1396312333   -0.1319478207
1.2900e+10   -0.1257794589   -0.1406277463    0.7570925088   -0.4348780565    0.7570925088   -0.4348780565   -0.1606700026   -0.1466504869
1.3000e+10   -0.1480578087   -0.1524519835    0.7161277886   -0.4903979447    0.7161277886   -0.4903979447   -0.1835124548   -0.1577136949
1.3100e+10   -0.1716628238   -0.1605232169    0.6714340974   -0.5414455547    0.6714340974   -0.5414455547   -0.2075161587   -0.1649749650
1.3200e+10   -0.1959525274   -0.1647603084    0.6236113613   -0.5878891126    0.6236113613   -0.5878891126   -0.2320471988   -0.1683871733
1.3300e+10   -0.2203055007   -0.1651899895    0.5732212586   -0.6296919630    0.5732212586   -0.6296919630   -0.2564980137   -0.1680044436
1.3400e+10   -0.2441422280   -0.1619375416    0.5207726180   -0.6668922201    0.5207726180   -0.6668922201   -0.2803056924   -0.1639725141
1.3500e+10   -0.2669335311   -0.1552078393    0.4667158624   -0.6995848918    0.4667158624   -0.6995848918   -0.3029586560   -0.1565106383
1.3600e+10   -0.2882105919   -0.1452702826    0.4114353024   -0.7279060405    0.4114353024   -0.7279060405   -0.3240051361   -0.1458975053
1.3700e+10   -0.3075670704   -0.1324439832    0.3552517761   -0.7520142939    0.3552517761   -0.7520142939   -0.3430542576   -0.1324573201
1.3800e+10   -0.3246597117   -0.1170846292    0.2984254078   -0.7720766723    0.2984254078   -0.7720766723   -0.3597762695   -0.1165478962
1.3900e+10   -0.3392065025   -0.0995735093    0.2411612923   -0.7882558930    0.2411612923   -0.7882558930   -0.3739004333   -0.0985507829
1.4000e+10   -0.3509836866   -0.0803088322    0.1836168345   -0.8007000775    0.1836168345   -0.8007000775   -0.3852119520   -0.0788631015
1.4100e+10   -0.3598220369   -0.0596990025    0.1259101815   -0.8095346144    0.1259101815   -0.8095346144   -0.3935485511   -0.0578917933
1.4200e+10   -0.3656033383   -0.0381578988    0.0681297279   -0.8148561428    0.0681297279   -0.8148561428   -0.3987972304   -0.0360493989
