! Port 1 = P1 P2 
! Port 2 = P2 P2 
# hz S ri R 50
! freq  reS11  imS11  reS21  imS21  reS12  imS12  reS22  imS22  
!
2.5000e+05    0.0493889319   -0.0001265799    1.0127380582   -0.0002777452    1.0127380582   -0.0002777452   -0.0800927756   -0.0001075733
1.0025e+08    0.0461489056   -0.0414178495    1.0068591436   -0.0909272255    1.0068591436   -0.0909272255   -0.0826331777   -0.0352406495
2.0025e+08    0.0358532678   -0.0814699155    0.9914569742   -0.1795021125    0.9914569742   -0.1795021125   -0.0910965987   -0.0694620285
3.0025e+08    0.0190208070   -0.1190510909    0.9670130630   -0.2648806072    0.9670130630   -0.2648806072   -0.1050706213   -0.1017418134
4.0025e+08   -0.0037498234   -0.1530159246    0.9343469987   -0.3459233734    0.9343469987   -0.3459233734   -0.1241215979   -0.1311057334
5.0025e+08   -0.0316267754   -0.1823741591    0.8944445495   -0.4217525221    0.8944445495   -0.4217525221   -0.1476019666   -0.1566781008
6.0025e+08   -0.0636008444   -0.2063594533    0.8483552819   -0.4917511357    0.8483552819   -0.4917511357   -0.1746878884   -0.1777580333
7.0025e+08   -0.0985539610   -0.2244579289    0.7971366878   -0.5555308930    0.7971366878   -0.5555308930   -0.2044386860   -0.1938580850
8.0025e+08   -0.1353296983   -0.2364095652    0.7418169469   -0.6129025604    0.7418169469   -0.6129025604   -0.2358610999   -0.2047130596
9.0025e+08   -0.1728348583   -0.2422095748    0.6833261736   -0.6638731630    0.6833261736   -0.6638731630   -0.2680079366   -0.2102886667
1.0002e+09   -0.2100345459   -0.2420324227    0.6225214489   -0.7085732542    0.6225214489   -0.7085732542   -0.2999749932   -0.2107113023
1.1002e+09   -0.2460219745   -0.2362182840    0.5601290194   -0.7472518555    0.5601290194   -0.7472518555   -0.3309659835   -0.2062585845
1.2002e+09   -0.2800069537   -0.2252179966    0.4967626567   -0.7802278161    0.4967626567   -0.7802278161   -0.3602844709   -0.1973092500
1.3002e+09   -0.3113353045   -0.2095627241    0.4329063917   -0.8078654185    0.4329063917   -0.8078654185   -0.3873535999   -0.1843166252
1.4002e+09   -0.3394765610   -0.1898305440    0.3689279178   -0.8305420715    0.3689279178   -0.8305420715   -0.4117032567   -0.1677779082
1.5002e+09   -0.3640080615   -0.1666232782    0.3050958061   -0.8486261160    0.3050958061   -0.8486261160   -0.4329586678   -0.1482129829
1.6002e+09   -0.3846122879   -0.1405493205    0.2415827882   -0.8624592991    0.2415827882   -0.8624592991   -0.4508385844   -0.1261499711
1.7002e+09   -0.4010567115   -0.1122126016    0.1784880913   -0.8723421262    0.1784880913   -0.8723421262   -0.4651355025   -0.1021136738
1.8002e+09   -0.4131944847   -0.0821999545    0.1158363790   -0.8785217424    0.1158363790   -0.8785217424   -0.4757202312   -0.0766153137
1.9002e+09   -0.4209060835   -0.0511011827    0.0536550206   -0.8811981936    0.0536550206   -0.8811981936   -0.4824842204   -0.0501684718
2.0002e+09   -0.4241623488   -0.0194782521    0.0081015122    0.8805037736    0.0081015122    0.8805037736   -0.4854018529   -0.0232632787
2.1002e+09   -0.4229738525    0.0121158803    0.0694820480    0.8765109592    0.0694820480    0.8765109592   -0.4844828575    0.0036181376
2.2002e+09   -0.4173984296    0.0431397775    0.1305398469    0.8692294775    0.1305398469    0.8692294775   -0.4797801331    0.0300043242
2.3002e+09   -0.4075349069    0.0730533976    0.1913069196    0.8586130820    0.1913069196    0.8586130820   -0.4713806149    0.0554254445
2.4002e+09   -0.3935334824    0.1013250301    0.2517975261    0.8445571609    0.2517975261    0.8445571609   -0.4594184792    0.0794199290
2.5002e+09   -0.3755952462    0.1274249277    0.3119854645    0.8269078009    0.3119854645    0.8269078009   -0.4440727618    0.1015288643
2.6002e+09   -0.3539802794    0.1508281529    0.3717945168    0.8054676418    0.3717945168    0.8054676418   -0.4255732061    0.1212989809
2.7002e+09   -0.3290151196    0.1710188227    0.4310861817    0.7800057396    0.4310861817    0.7800057396   -0.4042078102    0.1382863098
2.8002e+09   -0.3011012233    0.1874970514    0.4896477585    0.7502709255    0.4896477585    0.7502709255   -0.3803302787    0.1520627569
2.9002e+09   -0.2707232566    0.1997916162    0.5471834196    0.7160058668    0.5471834196    0.7160058668   -0.3543642437    0.1622268006
3.0002e+09   -0.2384553770    0.2074747043    0.6033052406    0.6769686987    0.6033052406    0.6769686987   -0.3268106639    0.1684165431
3.1002e+09   -0.2049640529    0.2101832394    0.6575318367    0.6329536009    0.6575318367    0.6329536009   -0.2982491370    0.1703284020
3.2002e+09   -0.1710065457    0.2076425604    0.7092878499    0.5838174465    0.7092878499    0.5838174465   -0.2693339520    0.1677365227
3.3002e+09   -0.1374276873    0.1996932014    0.7579022146    0.5295223237    0.7579022146    0.5295223237   -0.2407920098    0.1605153684
3.4002e+09   -0.1051193277    0.1863194634    0.8026687358    0.4701035895    0.8026687358    0.4701035895   -0.2133891205    0.1486655826
3.5002e+09   -0.0750279499    0.1676706812    0.8428030155    0.4057815122    0.8428030155    0.4057815122   -0.1879314695    0.1323270920
3.6002e+09   -0.0480959180    0.1440852547    0.8775214854    0.3369252102    0.8775214854    0.3369252102   -0.1652189715    0.1118012438
3.7002e+09   -0.0252193178    0.1160963047    0.9060745540    0.2640671240    0.9060745540    0.2640671240   -0.1460093709    0.0875536061
3.8002e+09   -0.0072019063    0.0844318074    0.9277844555    0.1879145952    0.9277844555    0.1879145952   -0.1309783850    0.0602125088
3.9002e+09    0.0052979792    0.0499932334    0.9420955499    0.1093263189    0.9420955499    0.1093263189   -0.1206777464    0.0305511047
4.0002e+09    0.0118124706    0.0138175721    0.9486142780    0.0292792192    0.9486142780    0.0292792192   -0.1154977893   -0.0005449611
4.1002e+09    0.0121022058   -0.0229599082    0.9471386908   -0.0511678703    0.9471386908   -0.0511678703   -0.1156342001   -0.0321067254
4.2002e+09    0.0061732874   -0.0591865930    0.9376763206   -0.1309286024    0.9376763206   -0.1309286024   -0.1210749653   -0.0631531095
4.3002e+09   -0.0057360451   -0.0937405045    0.9204445694   -0.2089422174    0.9204445694   -0.2089422174   -0.1316133718   -0.0927283848
4.4002e+09   -0.0231622482   -0.1255809773    0.8958552979   -0.2842245197    0.8958552979   -0.2842245197   -0.1468494590   -0.1199437049
4.5002e+09   -0.0454477152   -0.1538113731    0.8644852432   -0.3559137196    0.8644852432   -0.3559137196   -0.1662165481   -0.1440337704
4.6002e+09   -0.0717924170   -0.1777083948    0.8270349732   -0.4233013848    0.8270349732   -0.4233013848   -0.1890253664   -0.1643814235
4.7002e+09   -0.1013004178   -0.1967397961    0.7842860483   -0.4858459504    0.7842860483   -0.4858459504   -0.2145034008   -0.1805336805
4.8002e+09   -0.1330329176   -0.2105718251    0.7370514719   -0.5431829815    0.7370514719   -0.5431829815   -0.2418410742   -0.1922087942
4.9002e+09   -0.1660509076   -0.2190581871    0.6861368265   -0.5951112275    0.6861368265   -0.5951112275   -0.2702288962   -0.1992871370
5.0002e+09   -0.1994536228   -0.2222226606    0.6323034810   -0.6415763236    0.6323034810   -0.6415763236   -0.2988905047   -0.2017963045
5.1002e+09   -0.2324058853   -0.2202336578    0.5762440968   -0.6826445505    0.5762440968   -0.6826445505   -0.3271069618   -0.1998891371
5.2002e+09   -0.2641569120   -0.2133768147    0.5185654997   -0.7184756583    0.5185654997   -0.7184756583   -0.3542336602   -0.1938199500
5.3002e+09   -0.2940500462   -0.2020280717    0.4597798285   -0.7492946300    0.4597798285   -0.7492946300   -0.3797077358   -0.1839206941
5.4002e+09   -0.3215259660   -0.1866281393    0.4003031911   -0.7753656501    0.4003031911   -0.7753656501   -0.4030517253   -0.1705790565
5.5002e+09   -0.3461265960   -0.1676578425    0.3404478410   -0.7969719139    0.3404478410   -0.7969719139   -0.4238774204   -0.1542171933
5.6002e+09   -0.3674619646   -0.1456331352    0.2804777140   -0.8143836756    0.2804777140   -0.8143836756   -0.4418547250   -0.1352860720
5.7002e+09   -0.3852436766   -0.1210747106    0.2205469819   -0.8278625280    0.2205469819   -0.8278625280   -0.4567435129   -0.1142405903
5.8002e+09   -0.3992471336   -0.0945102553    0.1607620269   -0.8376352504    0.1607620269   -0.8376352504   -0.4683596860   -0.0915407116
5.9002e+09   -0.4093127106   -0.0664649257    0.1011769203   -0.8438887200    0.1011769203   -0.8438887200   -0.4765750810   -0.0676429409
6.0002e+09   -0.4153359482   -0.0374602048    0.0418117688   -0.8467637965    0.0418117688   -0.8467637965   -0.4813103673   -0.0429996829
6.1002e+09   -0.4172631258   -0.0080123689    0.0173372177    0.8463517735    0.0173372177    0.8463517735   -0.4825311836   -0.0180577124
6.2002e+09   -0.4150878719    0.0213665550    0.0762854481    0.8426921125    0.0762854481    0.8426921125   -0.4802438306    0.0067415843
6.3002e+09   -0.4088493583    0.0501675801    0.1350470068    0.8357726245    0.1350470068    0.8357726245   -0.4744946703    0.0309605788
6.4002e+09   -0.3986330131    0.0778837909    0.1936240850    0.8255308510    0.1936240850    0.8255308510   -0.4653710775    0.0541655162
6.5002e+09   -0.3845734263    0.1040091990    0.2519942077    0.8118567508    0.2519942077    0.8118567508   -0.4530022594    0.0759253976
6.6002e+09   -0.3668586314    0.1280396022    0.3100985664    0.7945980075    0.3100985664    0.7945980075   -0.4375639677    0.0958128185
6.7002e+09   -0.3457362988    0.1494750620    0.3678305850    0.7735669236    0.3678305850    0.7735669236   -0.4192834275    0.1134069437
6.8002e+09   -0.3215210974    0.1678254176    0.4250253764    0.7485492938    0.4250253764    0.7485492938   -0.3984442122    0.1282980543
6.9002e+09   -0.2946016446    0.1826187137    0.4814493908    0.7193166483    0.4814493908    0.7193166483   -0.3753924324    0.1400951044
7.0002e+09   -0.2654473400    0.1934128998    0.5367917074    0.6856418096    0.5367917074    0.6856418096   -0.3505422451    0.1484360371
7.1002e+09   -0.2346133238    0.1998122711    0.5906583755    0.6473164900    0.5906583755    0.6473164900   -0.3243779275    0.1530012683
7.2002e+09   -0.2027417999    0.2014869092    0.6425698952    0.6041731276    0.6425698952    0.6041731276   -0.2974550438    0.1535305941
7.3002e+09   -0.1705579622    0.1981955610    0.6919648804    0.5561080361    0.6919648804    0.5561080361   -0.2703961227    0.1498418840
7.4002e+09   -0.1388600901    0.1898107243    0.7382087479    0.5031057870    0.7382087479    0.5031057870   -0.2438804664    0.1418512089
7.5002e+09   -0.1085010127    0.1763427907    0.7806101109    0.4452638691    0.7806101109    0.4452638691   -0.2186285588    0.1295923282
7.6002e+09   -0.0803612303    0.1579617365    0.8184453200    0.3828135682    0.8184453200    0.3828135682   -0.1953791526    0.1132338635
7.7002e+09   -0.0553134661    0.1350130168    0.8509896311    0.3161353863    0.8509896311    0.3161353863   -0.1748588330    0.0930908038
7.8002e+09   -0.0341799623    0.1080223257    0.8775560635    0.2457634905    0.8775560635    0.2457634905   -0.1577474891    0.0696275386
7.9002e+09   -0.0176879086    0.0776894803    0.8975343236    0.1723837818    0.8975343236    0.1723837818   -0.1446412723    0.0434522631
8.0002e+09   -0.0064243925    0.0448678688    0.9104313785    0.0968159030    0.9104313785    0.0968159030   -0.1360157956    0.0152985275
8.1002e+09   -0.0007972986    0.0105301622    0.9159063966    0.0199847541    0.9159063966    0.0199847541   -0.1321938406   -0.0140028957
8.2002e+09   -0.0010065393   -0.0242723526    0.9137968730   -0.0571186401    0.9137968730   -0.0571186401   -0.1333212465   -0.0435575179
8.3002e+09   -0.0070311879   -0.0584757653    0.9041316951   -0.1334838957    0.9041316951   -0.1334838957   -0.1393571749   -0.0724655913
8.4002e+09   -0.0186342260   -0.0910474883    0.8871297807   -0.2081307033    0.8871297807   -0.2081307033   -0.1500781853   -0.0998565731
8.5002e+09   -0.0353796683   -0.1210326830    0.8631854480   -0.2801513635    0.8631854480   -0.2801513635   -0.1650928868   -0.1249285025
8.6002e+09   -0.0566574755   -0.1476055777    0.8328406166   -0.3487512580    0.8328406166   -0.3487512580   -0.1838632595   -0.1469932869
8.7002e+09   -0.0817273016   -0.1700978354    0.7967480244   -0.4132768019    0.7967480244   -0.4132768019   -0.2057428874   -0.1655000653
8.8002e+09   -0.1097623180   -0.1880150173    0.7556308524   -0.4732291858    0.7556308524   -0.4732291858   -0.2300149386   -0.1800487848
8.9002e+09   -0.1398927268   -0.2010412821    0.7102414246   -0.5282677188    0.7102414246   -0.5282677188   -0.2559299872   -0.1903932869
9.0002e+09   -0.1712465647   -0.2090325616    0.6613243411   -0.5782008889    0.6613243411   -0.5782008889   -0.2827409932   -0.1964349344
9.1002e+09   -0.2029832804   -0.2120005139    0.6095855001   -0.6229699408    0.6095855001   -0.6229699408   -0.3097317938   -0.1982080885
9.2002e+09   -0.2343192826   -0.2100914745    0.5556681485   -0.6626271037    0.5556681485   -0.6626271037   -0.3362393081   -0.1958607665
9.3002e+09   -0.2645458327   -0.2035620013    0.5001380287   -0.6973099914    0.5001380287   -0.6973099914   -0.3616673099   -0.1896335495
9.4002e+09   -0.2930385735   -0.1927543704    0.4434756436   -0.7272169705    0.4434756436   -0.7272169705   -0.3854952691   -0.1798384800
9.5002e+09   -0.3192610867   -0.1780746148    0.3860740100   -0.7525831225    0.3860740100   -0.7525831225   -0.4072797847   -0.1668389922
9.6002e+09   -0.3427638101   -0.1599726419    0.3282422302   -0.7736593344    0.3282422302   -0.7736593344   -0.4266540025   -0.1510334419
9.7002e+09   -0.3631789614   -0.1389256987    0.2702123846   -0.7906946032    0.2702123846   -0.7906946032   -0.4433218375   -0.1328414002
9.8002e+09   -0.3802139421   -0.1154272261    0.2121487310   -0.8039212412    0.2121487310   -0.8039212412   -0.4570527626   -0.1126928445
9.9002e+09   -0.3936438740   -0.0899776260    0.1541589959   -0.8135437125    0.1541589959   -0.8135437125   -0.4676748886   -0.0910215858
1.0000e+10   -0.4033044480   -0.0630788280    0.0963058425   -0.8197303292    0.0963058425   -0.8197303292   -0.4750685190   -0.0682603359
1.0100e+10   -0.4090860138   -0.0352315356    0.0386178740   -0.8226072705    0.0386178740   -0.8226072705   -0.4791609669   -0.0448379153
1.0200e+10   -0.4109285059   -0.0069338922    0.0188979481    0.8222550129    0.0188979481    0.8222550129   -0.4799222374   -0.0211787168
1.0300e+10   -0.4088183626    0.0213182709    0.0762447618    0.8187063623    0.0762447618    0.8187063623   -0.4773621392    0.0022973434
1.0400e+10   -0.4027876195    0.0490305220    0.1334249191    0.8119462219    0.1334249191    0.8119462219   -0.4715291854    0.0251742752
1.0500e+10   -0.3929151332    0.0757090428    0.1904279504    0.8019127402    0.1904279504    0.8019127402   -0.4625121334    0.0470395085
1.0600e+10   -0.3793281176    0.1008609999    0.2472204566    0.7885005751    0.2472204566    0.7885005751   -0.4504401162    0.0674842023
1.0700e+10   -0.3622080720    0.1239952381    0.3037344096    0.7715648602    0.3037344096    0.7715648602   -0.4354880267    0.0861043937
1.0800e+10   -0.3417943144    0.1446247953    0.3598560579    0.7509293302    0.3598560579    0.7509293302   -0.4178783871    0.1025030557
1.0900e+10   -0.3183931269    0.1622732876    0.4154158593    0.7263938280    0.4154158593    0.7263938280   -0.3978894263    0.1162958285
1.1000e+10   -0.2923832973    0.1764831616    0.4701793937    0.6977463884    0.4701793937    0.6977463884   -0.3758580058    0.1271181505
1.1100e+10   -0.2642221257    0.1868275419    0.5238393252    0.6647779621    0.5238393252    0.6647779621   -0.3521844868    0.1346351733
1.1200e+10   -0.2344494498    0.1929258627    0.5760101337    0.6272999102    0.5760101337    0.6272999102   -0.3273347958    0.1385546221
1.1300e+10   -0.2036885014    0.1944632625    0.6262270040    0.5851634488    0.6262270040    0.5851634488   -0.3018402949    0.1386423968
1.1400e+10   -0.1726415422    0.1912120861    0.6739480268    0.5382830361    0.6739480268    0.5382830361   -0.2762929946    0.1347399023
1.1500e+10   -0.1420788613    0.1830558991    0.7185652965    0.4866571609    0.7185652965    0.4866571609   -0.2513359214    0.1267833646
1.1600e+10   -0.1128201145    0.1700110828    0.7594194648    0.4303923567    0.7594194648    0.4303923567   -0.2276466547    0.1148195532
1.1700e+10   -0.0857088796    0.1522472898    0.7958231848    0.3697217658    0.7958231848    0.3697217658   -0.2059165276    0.0990222759
1.1800e+10   -0.0615784784    0.1301004795    0.8270909474    0.3050190593    0.8270909474    0.3050190593   -0.1868218832    0.0797015900
1.1900e+10   -0.0412123537    0.1040776592    0.8525744530    0.2368030605    0.8525744530    0.2368030605   -0.1709924084    0.0573063219
1.2000e+10   -0.0253018546    0.0748492697    0.8717001696    0.1657336814    0.8717001696    0.1657336814   -0.1589762555    0.0324171839
1.2100e+10   -0.0144053779    0.0432294420    0.8840065518    0.0925957857    0.8840065518    0.0925957857   -0.1512069384    0.0057294208
1.2200e+10   -0.0089118904    0.0101447264    0.8891760590    0.0182710722    0.8891760590    0.0182710722   -0.1479740706   -0.0219738030
1.2300e+10   -0.0090155673   -0.0234063939    0.8870592530   -0.0562973627    0.8870592530   -0.0562973627   -0.1494027095   -0.0498553490
1.2400e+10   -0.0147034943   -0.0564083033    0.8776865409   -0.1301502360    0.8776865409   -0.1301502360   -0.1554444422   -0.0770709966
1.2500e+10   -0.0257565031   -0.0878745520    0.8612669214   -0.2023564104    0.8612669214   -0.2023564104   -0.1658799671   -0.1028083852
1.2600e+10   -0.0417670327   -0.1168923261    0.8381738555   -0.2720523899    0.8381738555   -0.2720523899   -0.1803352065   -0.1263226924
1.2700e+10   -0.0621628693   -0.1426651518    0.8089196203   -0.3384821171    0.8089196203   -0.3384821171   -0.1983015453   -0.1469728488
1.2800e+10   -0.0862443970   -0.1645438556    0.7741213079   -0.4010208224    0.7741213079   -0.4010208224   -0.2191703416   -0.1642464611
1.2900e+10   -0.1132264364   -0.1820430653    0.7344629873   -0.4591889190    0.7344629873   -0.4591889190   -0.2422672714   -0.1777717587
1.3000e+10   -0.1422795333   -0.1948462146    0.6906579322   -0.5126549427    0.6906579322   -0.5126549427   -0.2668879675   -0.1873207267
1.3100e+10   -0.1725678708   -0.2028006812    0.6434129632   -0.5612287273    0.6434129632   -0.5612287273   -0.2923305252   -0.1928025276
1.3200e+10   -0.2032823501   -0.2059040323    0.5934001017   -0.6048449051    0.5934001017   -0.6048449051   -0.3179219190   -0.1942514026
1.3300e+10   -0.2336636195   -0.2042818437    0.5412339882   -0.6435448685    0.5412339882   -0.6435448685   -0.3430360779   -0.1918057550
1.3400e+10   -0.2630230904   -0.1981699085    0.4874560438   -0.6774511347    0.4874560438   -0.6774511347   -0.3671124753   -0.1856937259
1.3500e+10   -0.2907493638   -0.1878883461    0.4325297651   -0.7067437051    0.4325297651   -0.7067437051   -0.3896584845   -0.1762096221
1.3600e+10   -0.3163150786   -0.1738206806    0.3768351500   -0.7316400173    0.3768351500   -0.7316400173   -0.4102552116   -0.1636972027
1.3700e+10   -0.3392750204   -0.1563957303    0.3206731675   -0.7523732766    0.3206731675   -0.7523732766   -0.4285548961   -0.1485333637
1.3800e+10   -0.3592624155   -0.1360717474    0.2642722602   -0.7691758407    0.2642722602   -0.7691758407   -0.4442766585   -0.1311158792
1.3900e+10   -0.3759829587   -0.1133247360    0.2077966565   -0.7822655554    0.2077966565   -0.7822655554   -0.4572016832   -0.1118533276
1.4000e+10   -0.3892086659   -0.0886399814    0.1513560851   -0.7918345209    0.1513560851   -0.7918345209   -0.4671667697   -0.0911580893
1.4100e+10   -0.3987708950   -0.0625062490    0.0950170398   -0.7980411544    0.0950170398   -0.7980411544   -0.4740586565   -0.0694419920
1.4200e+10   -0.4045546536   -0.0354128109    0.0388143245   -0.8010045119    0.0388143245   -0.8010045119   -0.4778088603   -0.0471140275
