! Port 1 = P1 P2 
! Port 2 = P2 P2 
# hz S ri R 50
! freq  reS11  imS11  reS21  imS21  reS12  imS12  reS22  imS22  
!
2.5000e+05    0.0011106530   -0.0000999474    1.0255840599   -0.0002760045    1.0255840599   -0.0002760045   -0.0701607475   -0.0001088668
1.0025e+08   -0.0011721817   -0.0327491656    1.0198947953   -0.0903722408    1.0198947953   -0.0903722408   -0.0726760639   -0.0356696524
2.0025e+08   -0.0088666233   -0.0646221355    1.0051048664   -0.1785215413    1.0051048664   -0.1785215413   -0.0810901931   -0.0703603175
3.0025e+08   -0.0216229607   -0.0948106336    0.9816274245   -0.2637323221    0.9816274245   -0.2637323221   -0.0950148934   -0.1031849898
4.0025e+08   -0.0390958915   -0.1224402442    0.9501875586   -0.3449682348    0.9501875586   -0.3449682348   -0.1140576425   -0.1331897319
5.0025e+08   -0.0607506407   -0.1467026828    0.9116510370   -0.4214207360    0.9116510370   -0.4214207360   -0.1376212594   -0.1595002130
6.0025e+08   -0.0858855716   -0.1669264574    0.8669340658   -0.4925019279    0.8669340658   -0.4925019279   -0.1649311566   -0.1813958569
7.0025e+08   -0.1136780956   -0.1826164720    0.8169614838   -0.5578112365    0.8169614838   -0.5578112365   -0.1950861417   -0.1983502462
8.0025e+08   -0.1432399153   -0.1934684410    0.7626430238   -0.6171108488    0.7626430238   -0.6171108488   -0.2271183930   -0.2100451174
9.0025e+08   -0.1737042493   -0.1993865132    0.7048141112   -0.6703319009    0.7048141112   -0.6703319009   -0.2600865548   -0.2163871075
1.0002e+09   -0.2042222692   -0.2004227415    0.6442636332   -0.7175106141    0.6442636332   -0.7175106141   -0.2930717348   -0.2174423776
1.1002e+09   -0.2340284108   -0.1967771258    0.5816795206   -0.7587941977    0.5816795206   -0.7587941977   -0.3252470345   -0.2134359307
1.2002e+09   -0.2624343943   -0.1887541123    0.5176636107   -0.7943992939    0.5176636107   -0.7943992939   -0.3558705783   -0.2047044596
1.3002e+09   -0.2888527219   -0.1767417893    0.4527112339   -0.8245943062    0.4527112339   -0.8245943062   -0.3843101664   -0.1916735619
1.4002e+09   -0.3127912798   -0.1611838728    0.3872204401   -0.8496716941    0.3872204401   -0.8496716941   -0.4100374455   -0.1748282523
1.5002e+09   -0.3338445349   -0.1425600029    0.3215041774   -0.8699270672    0.3215041774   -0.8699270672   -0.4326179520   -0.1546912998
1.6002e+09   -0.3516965577   -0.1213707548    0.2557891576   -0.8856433562    0.2557891576   -0.8856433562   -0.4517140556   -0.1318071573
1.7002e+09   -0.3661064950   -0.0981254576    0.1902353798   -0.8970761054    0.1902353798   -0.8970761054   -0.4670695859   -0.1067293846
1.8002e+09   -0.3769139777   -0.0733299985    0.1249309735   -0.9044406562    0.1249309735   -0.9044406562   -0.4785150791   -0.0800070819
1.9002e+09   -0.3839837815   -0.0474992842    0.0599699394   -0.9079154773    0.0599699394   -0.9079154773   -0.4859090624   -0.0521987462
2.0002e+09   -0.3872710359   -0.0211313872    0.0046279491    0.9076242555    0.0046279491    0.9076242555   -0.4892071793   -0.0238442521
2.1002e+09   -0.3867724343    0.0052809979    0.0688471264    0.9036402691    0.0688471264    0.9036402691   -0.4884101890    0.0045227702
2.2002e+09   -0.3825342681    0.0312548985    0.1326784935    0.8959833410    0.1326784935    0.8959833410   -0.4835724665    0.0323795975
2.3002e+09   -0.3746447043    0.0563106206    0.1960937849    0.8846268451    0.1960937849    0.8846268451   -0.4747940655    0.0592073793
2.4002e+09   -0.3632439704    0.0799799714    0.2590507229    0.8694945958    0.2590507229    0.8694945958   -0.4622312205    0.0845001255
2.5002e+09   -0.3485212482    0.1018027551    0.3214709369    0.8504701156    0.3214709369    0.8504701156   -0.4460932813    0.1077610197
2.6002e+09   -0.3307197303    0.1213309100    0.3832317037    0.8274029246    0.3832317037    0.8274029246   -0.4266480939    0.1285068176
2.7002e+09   -0.3101408193    0.1381334671    0.4441557357    0.8001179093    0.4441557357    0.8001179093   -0.4042265229    0.1462733605
2.8002e+09   -0.2871483194    0.1518033863    0.5040011436    0.7684280020    0.5040011436    0.7684280020   -0.3792268904    0.1606229037
2.9002e+09   -0.2621720045    0.1619680854    0.5624554751    0.7321478445    0.5624554751    0.7321478445   -0.3521188814    0.1711556373
3.0002e+09   -0.2357094598    0.1683012608    0.6191291047    0.6911125611    0.6191291047    0.6911125611   -0.3234454229    0.1775225391
3.1002e+09   -0.2083248556    0.1705389553    0.6735563950    0.6451954126    0.6735563950    0.6451954126   -0.2938214561    0.1794427151
3.2002e+09   -0.1806442509    0.1684956978    0.7251973551    0.5943305416    0.7251973551    0.5943305416   -0.2639285236    0.1767210909
3.3002e+09   -0.1533500460    0.1620819807    0.7734362981    0.5385500996    0.7734362981    0.5385500996   -0.2345090093    0.1692674468
3.4002e+09   -0.1271484588    0.1513247791    0.8176416003    0.4779443548    0.8176416003    0.4779443548   -0.2063306628    0.1571184001
3.5002e+09   -0.1027736840    0.1363746938    0.8571194925    0.4127701601    0.8571194925    0.4127701601   -0.1801907918    0.1404461850
3.6002e+09   -0.0809451390    0.1175223938    0.8911875512    0.3434071151    0.8911875512    0.3434071151   -0.1568695459    0.1195760576
3.7002e+09   -0.0623384052    0.0951980219    0.9191999523    0.2703683899    0.9191999523    0.2703683899   -0.1370979514    0.0949857726
3.8002e+09   -0.0475556907    0.0699681997    0.9405764979    0.1943116448    0.9405764979    0.1943116448   -0.1215247684    0.0673022660
3.9002e+09   -0.0370913420    0.0425202028    0.9548423677    0.1160171129    0.9548423677    0.1160171129   -0.1106785570    0.0372837253
4.0002e+09   -0.0313033470    0.0136357012    0.9616592080    0.0363602440    0.9616592080    0.0363602440   -0.1049361842    0.0057900005
4.1002e+09   -0.0303873106   -0.0158298501    0.9608476839   -0.0437158565    0.9608476839   -0.0437158565   -0.1044944064   -0.0262413341
4.2002e+09   -0.0343643941   -0.0450067138    0.9524019237   -0.1232430357    0.9524019237   -0.1232430357   -0.1093576448   -0.0578605963
4.3002e+09   -0.0430917089   -0.0730377904    0.9364909622   -0.2012701652    0.9364909622   -0.2012701652   -0.1193500889   -0.0881367444
4.4002e+09   -0.0562599402   -0.0991107353    0.9134480539   -0.2769035440    0.9134480539   -0.2769035440   -0.1341149514   -0.1161928102
4.5002e+09   -0.0734090637   -0.1225071628    0.8837486696   -0.3493439679    0.8837486696   -0.3493439679   -0.1531336187   -0.1412590996
4.6002e+09   -0.0939625100   -0.1426248775    0.8479801194   -0.4179134979    0.8479801194   -0.4179134979   -0.1757641597   -0.1626964830
4.7002e+09   -0.1172568456   -0.1589948568    0.8068092127   -0.4820676990    0.8068092127   -0.4820676990   -0.2012742855   -0.1800134422
4.8002e+09   -0.1425784913   -0.1712927048    0.7609424836   -0.5414089919    0.7609424836   -0.5414089919   -0.2288820090   -0.1928771311
4.9002e+09   -0.1691948767   -0.1793360395    0.7110948267   -0.5956778356    0.7110948267   -0.5956778356   -0.2577892705   -0.2011094064
5.0002e+09   -0.1963846960   -0.1830769906    0.6579578831   -0.6447433256    0.6579578831   -0.6447433256   -0.2872140647   -0.2046769904
5.1002e+09   -0.2234610963   -0.1825876449    0.6021778114   -0.6885844633    0.6021778114   -0.6885844633   -0.3164153709   -0.2036755126
5.2002e+09   -0.2497897737   -0.1780427651    0.5443379967   -0.7272696695    0.5443379967   -0.7272696695   -0.3447118055   -0.1983101437
5.3002e+09   -0.2748005111   -0.1697011313    0.4849487603   -0.7609344704    0.4849487603   -0.7609344704   -0.3714932924   -0.1888747799
5.4002e+09   -0.2979938767   -0.1578870191    0.4244427486   -0.7897599787    0.4244427486   -0.7897599787   -0.3962280582   -0.1757322915
5.5002e+09   -0.3189491936   -0.1429711595    0.3631632692   -0.8139561304    0.3631632692   -0.8139561304   -0.4184705300   -0.1592939565
5.6002e+09   -0.3372984805   -0.1253648122    0.3014179082   -0.8337294003    0.3014179082   -0.8337294003   -0.4378330343   -0.1400130661
5.7002e+09   -0.3527608191   -0.1054961279    0.2394116878   -0.8492911109    0.2394116878   -0.8492911109   -0.4540221951   -0.1183593773
5.8002e+09   -0.3651114282   -0.0838087952    0.1773074330   -0.8608289262    0.1773074330   -0.8608289262   -0.4668059800   -0.0948182252
5.9002e+09   -0.3741852035   -0.0607525792    0.1152188240   -0.8685022512    0.1152188240   -0.8685022512   -0.4760166054   -0.0698798591
6.0002e+09   -0.3798698151   -0.0367802952    0.0532268698   -0.8724350790    0.0532268698   -0.8724350790   -0.4815437087   -0.0440367872
6.1002e+09   -0.3821030051   -0.0123443445    0.0086114393    0.8727118047    0.0086114393    0.8727118047   -0.4833312507   -0.0177800625
6.2002e+09   -0.3808698400    0.0121047796    0.0702515276    0.8693746099    0.0702515276    0.8693746099   -0.4813740394    0.0084026652
6.3002e+09   -0.3762012617    0.0361194613    0.1316496462    0.8624230925    0.1316496462    0.8624230925   -0.4757167745    0.0340277912
6.4002e+09   -0.3681741935    0.0592563335    0.1927529188    0.8518152565    0.1927529188    0.8518152565   -0.4664540496    0.0586172761
6.5002e+09   -0.3569127089    0.0810771568    0.2534874167    0.8374703569    0.2534874167    0.8374703569   -0.4537311336    0.0816999955
6.6002e+09   -0.3425904396    0.1011512218    0.3137479582    0.8192738898    0.3137479582    0.8192738898   -0.4377470484    0.1028140417
6.7002e+09   -0.3254338185    0.1190589024    0.3733879962    0.7970843917    0.3733879962    0.7970843917   -0.4187580354    0.1215108102
6.8002e+09   -0.3057257554    0.1343971785    0.4322107213    0.7707420498    0.4322107213    0.7707420498   -0.3970808034    0.1373611009
6.9002e+09   -0.2838089061    0.1467871082    0.4899612075    0.7400799592    0.4899612075    0.7400799592   -0.3730965960    0.1499633809
7.0002e+09   -0.2600882768    0.1558833729    0.5463197322    0.7049380079    0.5463197322    0.7049380079   -0.3472537048    0.1589539674
7.1002e+09   -0.2350320656    0.1613864492    0.6008984267    0.6651784023    0.6008984267    0.6651784023   -0.3200676835    0.1640206368
7.2002e+09   -0.2091698861    0.1630564797    0.6532407337    0.6207040353    0.6532407337    0.6207040353   -0.2921196514    0.1649174582
7.3002e+09   -0.1830870374    0.1607287452    0.7028262790    0.5714770355    0.7028262790    0.5714770355   -0.2640496787    0.1614817374
7.4002e+09   -0.1574149410    0.1543294819    0.7490793194    0.5175384367    0.7490793194    0.5175384367   -0.2365456266    0.1536511457
7.5002e+09   -0.1328163732    0.1438906314    0.7913836264    0.4590268405    0.7913836264    0.4590268405   -0.2103270669    0.1414795820
7.6002e+09   -0.1099656962    0.1295622879    0.8291030698    0.3961938043    0.8291030698    0.3961938043   -0.1861231153    0.1251504726
7.7002e+09   -0.0895245520    0.1116207740    0.8616070199    0.3294151488    0.8616070199    0.3294151488   -0.1646451676    0.1049852871
7.8002e+09   -0.0721134366    0.0904702111    0.8883014259    0.2591922165    0.8883014259    0.2591922165   -0.1465555936    0.0814442490
7.9002e+09   -0.0582829515    0.0666372779    0.9086590732    0.1861500924    0.9086590732    0.1861500924   -0.1324359915    0.0551198057
8.0002e+09   -0.0484846531    0.0407574454    0.9222508892    0.1110229903    0.9222508892    0.1110229903   -0.1227550336    0.0267201488
8.1002e+09   -0.0430449196    0.0135534249    0.9287732944    0.0346317314    0.9287732944    0.0346317314   -0.1178406569   -0.0029558160
8.2002e+09   -0.0421442580   -0.0141889929    0.9280685520   -0.0421465885    0.9280685520   -0.0421465885   -0.1178584651   -0.0330465731
8.3002e+09   -0.0458069927   -0.0416685008    0.9201360582   -0.1184136296    0.9201360582   -0.1184136296   -0.1228021483   -0.0626803896
8.4002e+09   -0.0539014585   -0.0680938534    0.9051329375   -0.1932893357    0.9051329375   -0.1932893357   -0.1324957058   -0.0910041574
8.5002e+09   -0.0661475009   -0.0927154687    0.8833645186   -0.2659450898    0.8833645186   -0.2659450898   -0.1466038148   -0.1172176471
8.6002e+09   -0.0821282619   -0.1148656879    0.8552650435   -0.3356362554    0.8552650435   -0.3356362554   -0.1646466498   -0.1406160379
8.7002e+09   -0.1013180246   -0.1339815564    0.8213708106   -0.4017272369    0.8213708106   -0.4017272369   -0.1860317322   -0.1606133002
8.8002e+09   -0.1231108580   -0.1496210578    0.7822898156   -0.4637052128    0.7822898156   -0.4637052128   -0.2100858506   -0.1767580901
8.9002e+09   -0.1468508480   -0.1614715562    0.7386697161   -0.5211862687    0.7386697161   -0.5211862687   -0.2360879165   -0.1887408257
9.0002e+09   -0.1718619420   -0.1693504344    0.6911676302   -0.5739124025    0.6911676302   -0.5739124025   -0.2633011841   -0.1963930767
9.1002e+09   -0.1974742941   -0.1731981650    0.6404234838   -0.6217420687    0.6404234838   -0.6217420687   -0.2910013015   -0.1996787135
9.2002e+09   -0.2230462207   -0.1730666172    0.5870383575   -0.6646349824    0.5870383575   -0.6646349824   -0.3184988844   -0.1986799973
9.3002e+09   -0.2479809391   -0.1691040141    0.5315589579   -0.7026339574    0.5315589579   -0.7026339574   -0.3451571004   -0.1935810782
9.4002e+09   -0.2717379694   -0.1615384321    0.4744676722   -0.7358452810    0.4744676722   -0.7358452810   -0.3704030465   -0.1846497108
9.5002e+09   -0.2938396805   -0.1506615883    0.4161780111   -0.7644191048    0.4161780111   -0.7644191048   -0.3937338908   -0.1722192693
9.6002e+09   -0.3138744312   -0.1368137700    0.3570341806   -0.7885313221    0.3570341806   -0.7885313221   -0.4147197406   -0.1566729678
9.7002e+09   -0.3314957998   -0.1203701148    0.2973141210   -0.8083678437    0.2973141210   -0.8083678437   -0.4330024534   -0.1384289846
9.8002e+09   -0.3464202816   -0.1017301928    0.2372363828   -0.8241100211    0.2372363828   -0.8241100211   -0.4482923740   -0.1179292549
9.9002e+09   -0.3584236960   -0.0813092198    0.1769677563   -0.8359236859    0.1769677563   -0.8359236859   -0.4603644092   -0.0956303557
1.0000e+10   -0.3673371977   -0.0595316302    0.1166325282   -0.8439504134    0.1166325282   -0.8439504134   -0.4690536600   -0.0719967831
1.0100e+10   -0.3730435016   -0.0368265549    0.0563222563   -0.8483007953    0.0563222563   -0.8483007953   -0.4742508026   -0.0474960226
1.0200e+10   -0.3754736142   -0.0136247485    0.0038938343    0.8490501587    0.0038938343    0.8490501587   -0.4758987582   -0.0225955839
1.0300e+10   -0.3746045362    0.0096433966    0.0639584478    0.8462359850    0.0639584478    0.8462359850   -0.4739903414    0.0022391404
1.0400e+10   -0.3704580021    0.0325492280    0.1238157699    0.8398572285    0.1238157699    0.8398572285   -0.4685664179    0.0265463860
1.0500e+10   -0.3631012019    0.0546671236    0.1834008372    0.8298749400    0.1834008372    0.8298749400   -0.4597170575    0.0498694316
1.0600e+10   -0.3526467320    0.0755764966    0.2426306645    0.8162153788    0.2426306645    0.8162153788   -0.4475813326    0.0717586868
1.0700e+10   -0.3392559406    0.0948640031    0.3013931369    0.7987737198    0.3013931369    0.7987737198   -0.4323507135    0.0917744326
1.0800e+10   -0.3231396841    0.1121265332    0.3595379262    0.7774217730    0.3595379262    0.7774217730   -0.4142700064    0.1094899592
1.0900e+10   -0.3045641576    0.1269775484    0.4168683173    0.7520145012    0.4168683173    0.7520145012   -0.3936434128    0.1244987398
1.1000e+10   -0.2838521169    0.1390535551    0.4731335981    0.7224015142    0.4731335981    0.7224015142   -0.3708353779    0.1364215517
1.1100e+10   -0.2613853152    0.1480232910    0.5280235578    0.6884395200    0.5280235578    0.6884395200   -0.3462732055    0.1449165500
1.1200e+10   -0.2376050023    0.1535989029    0.5811652706    0.6500070862    0.5811652706    0.6500070862   -0.3204471099    0.1496915448
1.1300e+10   -0.2130100272    0.1555488080    0.6321229799    0.6070209734    0.6321229799    0.6070209734   -0.2939074899    0.1505179006
1.1400e+10   -0.1881518661    0.1537117022    0.6804014663    0.5594546281    0.6804014663    0.5594546281   -0.2672590770    0.1472458132
1.1500e+10   -0.1636253396    0.1480118454    0.7254563229    0.5073537450    0.7254563229    0.5073537450   -0.2411501968    0.1398206344
1.1600e+10   -0.1400546241    0.1384710617    0.7667059456    0.4508553929    0.7667059456    0.4508553929   -0.2162566005    0.1282955803
1.1700e+10   -0.1180760548    0.1252213754    0.8035507854    0.3902011162    0.8035507854    0.3902011162   -0.1932621746    0.1128448115
1.1800e+10   -0.0983155275    0.1085122252    0.8353970078    0.3257468091    0.8353970078    0.3257468091   -0.1728335288    0.0937702932
1.1900e+10   -0.0813630922    0.0887126785    0.8616835639    0.2579661316    0.8616835639    0.2579661316   -0.1555916215    0.0715029817
1.2000e+10   -0.0677457798    0.0663069610    0.8819112617    0.1874467075    0.8819112617    0.1874467075   -0.1420821736    0.0465961276
1.2100e+10   -0.0579008002    0.0418825586    0.8956710202    0.1148778957    0.8956710202    0.1148778957   -0.1327467541    0.0197104348
1.2200e+10   -0.0521509023    0.0161114267    0.9026687456    0.0410303944    0.9026687456    0.0410303944   -0.1278968879   -0.0084083168
1.2300e+10   -0.0506853809   -0.0102742877    0.9027445734   -0.0332703228    0.9027445734   -0.0332703228   -0.1276952656   -0.0369574434
1.2400e+10   -0.0535490384   -0.0365193495    0.8958837551   -0.1071779796    0.8958837551   -0.1071779796   -0.1321460817   -0.0651185681
1.2500e+10   -0.0606387778   -0.0618749168    0.8822179542   -0.1798587000    0.8822179542   -0.1798587000   -0.1410938802   -0.0920899751
1.2600e+10   -0.0717119011   -0.0856288325    0.8620175872   -0.2505217197    0.8620175872   -0.2505217197   -0.1542350300   -0.1171190152
1.2700e+10   -0.0863963938   -0.1071377370    0.8356748707   -0.3184529304    0.8356748707   -0.3184529304   -0.1711312954   -0.1395355178
1.2800e+10   -0.1042137921   -0.1258527821    0.8036805495   -0.3830347518    0.8036805495   -0.3830347518   -0.1912360947   -0.1587777435
1.2900e+10   -0.1246055430   -0.1413356722    0.7665963686   -0.4437617490    0.7665963686   -0.4437617490   -0.2139239691   -0.1744076391
1.3000e+10   -0.1469609756   -0.1532678012    0.7250259509   -0.5002472548    0.7250259509   -0.5002472548   -0.2385211153   -0.1861186925
1.3100e+10   -0.1706447959   -0.1614520587    0.6795866642   -0.5522221482    0.6795866642   -0.5522221482   -0.2643346595   -0.1937359342
1.3200e+10   -0.1950226219   -0.1658085627    0.6308848193   -0.5995263705    0.6308848193   -0.5995263705   -0.2906796306   -0.1972098445
1.3300e+10   -0.2194800105   -0.1663619625    0.5794947510   -0.6420984145    0.5794947510   -0.6420984145   -0.3168987675   -0.1966015199
1.3400e+10   -0.2434428381   -0.1632329133    0.5259426244   -0.6799561050    0.5259426244   -0.6799561050   -0.3423830586   -0.1920725879
1.3500e+10   -0.2663852108   -0.1566200614    0.4706991455   -0.7131792544    0.4706991455   -0.7131792544   -0.3665796793   -0.1838653535
1.3600e+10   -0.2878393849   -0.1467858367    0.4141702855   -0.7418937949    0.4141702855   -0.7418937949   -0.3890015552   -0.1722873348
1.3700e+10   -0.3073980067   -0.1340423230    0.3566987136   -0.7662528790    0.3566987136   -0.7662528790   -0.4092289463   -0.1576958545
1.3800e+10   -0.3247149845   -0.1187386344    0.2985656252   -0.7864221059    0.2985656252   -0.7864221059   -0.4269098436   -0.1404845748
1.3900e+10   -0.3395039597   -0.1012502718    0.2399958305   -0.8025661209    0.2399958305   -0.8025661209   -0.4417576701   -0.1210724685
1.4000e+10   -0.3515356178   -0.0819706428    0.1811647142   -0.8148376440    0.1811647142   -0.8148376440   -0.4535479260   -0.0998945068
1.4100e+10   -0.3606342151   -0.0613044593    0.1222065397   -0.8233687333    0.1222065397   -0.8233687333   -0.4621143798   -0.0773950780
1.4200e+10   -0.3666742630   -0.0396630785    0.0632239796   -0.8282642021    0.0632239796   -0.8282642021   -0.4673450645   -0.0540230881
