! Port 1 = P1 P2 
! Port 2 = P2 P2 
# hz S ri R 50
! freq  reS11  imS11  reS21  imS21  reS12  imS12  reS22  imS22  
!
2.5000e+05   -0.0307327942   -0.0000829692    0.9548618931   -0.0002530652    0.9548618931   -0.0002530652    0.1169528619   -0.0000922143
1.0025e+08   -0.0324244973   -0.0272215316    0.9497466393   -0.0828682506    0.9497466393   -0.0828682506    0.1148190022   -0.0302042313
2.0025e+08   -0.0385199392   -0.0538602041    0.9365322322   -0.1637709719    0.9365322322   -0.1637709719    0.1076563926   -0.0595978679
3.0025e+08   -0.0487649071   -0.0792796749    0.9155562573   -0.2421324474    0.9155562573   -0.2421324474    0.0957830372   -0.0874432121
4.0025e+08   -0.0629584322   -0.1027677111    0.8874276816   -0.3170655947    0.8874276816   -0.3170655947    0.0795099095   -0.1129379322
5.0025e+08   -0.0807357573   -0.1236287377    0.8528688785   -0.3878728544    0.8528688785   -0.3878728544    0.0593167487   -0.1353366041
6.0025e+08   -0.1015725157   -0.1412559725    0.8126393112   -0.4540351258    0.8126393112   -0.4540351258    0.0358353928   -0.1540128918
7.0025e+08   -0.1248190264   -0.1551768400    0.7675056362   -0.5151801723    0.7675056362   -0.5151801723    0.0098111213   -0.1684948646
8.0025e+08   -0.1497476767   -0.1650733432    0.7182283010   -0.5710626866    0.7182283010   -0.5710626866   -0.0179463458   -0.1784796181
9.0025e+08   -0.1756313867   -0.1708077676    0.6655130382   -0.6215752051    0.6655130382   -0.6215752051   -0.0466388980   -0.1838523400
1.0002e+09   -0.2017407234   -0.1723702734    0.6100381622   -0.6666941369    0.6100381622   -0.6666941369   -0.0754751692   -0.1846327762
1.1002e+09   -0.2274053042   -0.1698853298    0.5524074821   -0.7064923005    0.5524074821   -0.7064923005   -0.1037334832   -0.1809799322
1.2002e+09   -0.2520101289   -0.1635752154    0.4931617964   -0.7411045956    0.4931617964   -0.7411045956   -0.1307551561   -0.1731534408
1.3002e+09   -0.2750204497   -0.1537447339    0.4327587704   -0.7707160243    0.4327587704   -0.7707160243   -0.1559682986   -0.1614968709
1.4002e+09   -0.2959794077   -0.1407564017    0.3715792898   -0.7955396842    0.3715792898   -0.7955396842   -0.1788875047   -0.1464131690
1.5002e+09   -0.3145030411   -0.1250136673    0.3099355489   -0.8157983032    0.3099355489   -0.8157983032   -0.1991055347   -0.1283463403
1.6002e+09   -0.3302863738   -0.1069477375    0.2480674538   -0.8317109053    0.2480674538   -0.8317109053   -0.2162983595   -0.1077672918
1.7002e+09   -0.3430917228   -0.0870050281    0.1861588905   -0.8434801362    0.1861588905   -0.8434801362   -0.2302158781   -0.0851622650
1.8002e+09   -0.3527571219   -0.0656360682    0.1243302338   -0.8512799773    0.1243302338   -0.8512799773   -0.2406862596   -0.0610199659
1.9002e+09   -0.3591433505   -0.0433033465    0.0627101510   -0.8552565698    0.0627101510   -0.8552565698   -0.2475644884   -0.0358417255
2.0002e+09   -0.3621995467   -0.0204591808    0.0013588565   -0.8555149372    0.0013588565   -0.8555149372   -0.2507977803   -0.0101168370
2.1002e+09   -0.3619164860    0.0024471953    0.0596674112    0.8521198823    0.0596674112    0.8521198823   -0.2503770769    0.0156689892
2.2002e+09   -0.3583350564    0.0249749196    0.1203193604    0.8450931470    0.1203193604    0.8450931470   -0.2463447812    0.0410388697
2.3002e+09   -0.3515373639    0.0466872213    0.1805311093    0.8344206305    0.1805311093    0.8344206305   -0.2387900969    0.0655198185
2.4002e+09   -0.3416573806    0.0671602210    0.2402262561    0.8200484804    0.2402262561    0.8200484804   -0.2278553826    0.0886519645
2.5002e+09   -0.3288764132    0.0859813447    0.2992977603    0.8018914689    0.2992977603    0.8018914689   -0.2137325994    0.1099863590
2.6002e+09   -0.3134260214    0.1027537330    0.3576017210    0.7798399357    0.3576017210    0.7798399357   -0.1966699878    0.1290900643
2.7002e+09   -0.2955908743    0.1171020373    0.4149487245    0.7537670061    0.4149487245    0.7537670061   -0.1769717365    0.1455513814
2.8002e+09   -0.2757104723    0.1286791115    0.4710960502    0.7235400223    0.4710960502    0.7235400223   -0.1550009584    0.1589870857
2.9002e+09   -0.2541798118    0.1371749446    0.5257440539    0.6890333182    0.5257440539    0.6890333182   -0.1311836878    0.1690524068
3.0002e+09   -0.2314490535    0.1423272038    0.5785312852    0.6501432351    0.5785312852    0.6501432351   -0.1060064310    0.1754518993
3.1002e+09   -0.2080201002    0.1439344269    0.6290370755    0.6068024019    0.6290370755    0.6068024019   -0.0800133984    0.1779538377
3.2002e+09   -0.1844399796    0.1418674367    0.6767847365    0.5589991370    0.6767847365    0.5589991370   -0.0538028159    0.1764040671
3.3002e+09   -0.1612940050    0.1360823387    0.7212401320    0.5068076457    0.7212401320    0.5068076457   -0.0280183769    0.1707405640
3.4002e+09   -0.1391782785    0.1266365268    0.7618666932    0.4503465694    0.7618666932    0.4503465694   -0.0033180022    0.1610102620
3.5002e+09   -0.1187006810    0.1136877698    0.7980810106    0.3898775167    0.7980810106    0.3898775167    0.0196196075    0.1473738385
3.6002e+09   -0.1004473324    0.0975068723    0.8293173254    0.3257592273    0.8293173254    0.3257592273    0.0401363869    0.1301184606
3.7002e+09   -0.0849600645    0.0784734043    0.8550460599    0.2584552517    0.8550460599    0.2584552517    0.0576201395    0.1096553170
3.8002e+09   -0.0727157889    0.0570701188    0.8747958042    0.1885435263    0.8747958042    0.1885435263    0.0715280089    0.0865157895
3.9002e+09   -0.0641017367    0.0338698099    0.8881831399    0.1166963850    0.8881831399    0.1166963850    0.0814177101    0.0613360880
4.0002e+09   -0.0593959356    0.0095143685    0.8949354860    0.0436584383    0.8949354860    0.0436584383    0.0869714371    0.0348334005
4.1002e+09   -0.0587489216   -0.0152979972    0.8949081407   -0.0297737592    0.8949081407   -0.0297737592    0.0880156189    0.0077882142
4.2002e+09   -0.0621747230   -0.0398613251    0.8880938962   -0.1027843418    0.8880938962   -0.1027843418    0.0845326664   -0.0190084764
4.3002e+09   -0.0695613189   -0.0634780012    0.8746246243   -0.1745701751    0.8746246243   -0.1745701751    0.0766502856   -0.0447777466
4.4002e+09   -0.0806654634   -0.0854805360    0.8547640634   -0.2443714637    0.8547640634   -0.2443714637    0.0646422282   -0.0687794465
4.5002e+09   -0.0951211348   -0.1052726932    0.8288908620   -0.3115003238    0.8288908620   -0.3115003238    0.0489169279   -0.0903551086
4.6002e+09   -0.1124655008   -0.1223467143    0.7974761844   -0.3753620250    0.7974761844   -0.3753620250    0.0299883487   -0.1089465276
4.7002e+09   -0.1321608539   -0.1362975792    0.7610612637   -0.4354647332    0.7610612637   -0.4354647332    0.0084495031   -0.1241112695
4.8002e+09   -0.1536218707   -0.1468350613    0.7202255495   -0.4914327193    0.7202255495   -0.4914327193   -0.0150567820   -0.1355331933
4.9002e+09   -0.1762400361   -0.1537840357    0.6755626703   -0.5430004907    0.6755626703   -0.5430004907   -0.0398643384   -0.1430213986
5.0002e+09   -0.1994086460   -0.1570802214    0.6276562801   -0.5900077139    0.6276562801   -0.5900077139   -0.0653115707   -0.1465060317
5.1002e+09   -0.2225419350   -0.1567613619    0.5770603996   -0.6323858982    0.5770603996   -0.6323858982   -0.0907604961   -0.1460267258
5.2002e+09   -0.2450914629   -0.1529550334    0.5242844595   -0.6701433853    0.5242844595   -0.6701433853   -0.1156135275   -0.1417191815
5.3002e+09   -0.2665571953   -0.1458639364    0.4697846513   -0.7033488478    0.4697846513   -0.7033488478   -0.1393268093   -0.1338005320
5.4002e+09   -0.2864949448   -0.1357523673    0.4139573411   -0.7321140678    0.4139573411   -0.7321140678   -0.1614160415   -0.1225532763
5.5002e+09   -0.3045255833   -0.1229308018    0.3571267528   -0.7565812353    0.3571267528   -0.7565812353   -0.1814658610   -0.1083089384
5.6002e+09   -0.3203128409   -0.1077497448    0.2995939571   -0.7768934043    0.2995939571   -0.7768934043   -0.1991084979   -0.0914432713
5.7002e+09   -0.3335968920   -0.0905811223    0.2415717505   -0.7932055449    0.2415717505   -0.7932055449   -0.2140565783   -0.0723541430
5.8002e+09   -0.3441681058   -0.0718155545    0.1832391871   -0.8056565362    0.1832391871   -0.8056565362   -0.2260753986   -0.0514599373
5.9002e+09   -0.3518712305   -0.0518532469    0.1247341612   -0.8143666839    0.1247341612   -0.8143666839   -0.2349894677   -0.0291901154
6.0002e+09   -0.3566008434   -0.0311006724    0.0661668031   -0.8194299905    0.0661668031   -0.8194299905   -0.2406753893   -0.0059815903
6.1002e+09   -0.3582999328   -0.0099663289    0.0076263173   -0.8209100934    0.0076263173   -0.8209100934   -0.2430600401    0.0177260136
6.2002e+09   -0.3569572297    0.0111420452    0.0508084902    0.8188387629    0.0508084902    0.8188387629   -0.2421204434    0.0414922938
6.3002e+09   -0.3526068303    0.0318194843    0.1090598001    0.8132143483    0.1090598001    0.8132143483   -0.2378808649    0.0648783804
6.4002e+09   -0.3453282672    0.0516664961    0.1670423370    0.8040025072    0.1670423370    0.8040025072   -0.2304128811    0.0874497582
6.5002e+09   -0.3352463383    0.0702910991    0.2246526281    0.7911400043    0.2246526281    0.7911400043   -0.2198381929    0.1087776164
6.6002e+09   -0.3225332564    0.0873123637    0.2817608101    0.7745380441    0.2817608101    0.7745380441   -0.2063283918    0.1284426984
6.7002e+09   -0.3074102695    0.1023648552    0.3382021093    0.7540886618    0.3382021093    0.7540886618   -0.1901076421    0.1460393760
6.8002e+09   -0.2901489186    0.1151040687    0.3937698581    0.7296734370    0.3937698581    0.7296734370   -0.1714566027    0.1611817371
6.9002e+09   -0.2710726688    0.1252140733    0.4482095693    0.7011723301    0.4482095693    0.7011723301   -0.1507125976    0.1735113329
7.0002e+09   -0.2505568292    0.1324161595    0.5012141431    0.6684759228    0.5012141431    0.6684759228   -0.1282709531    0.1827060366
7.1002e+09   -0.2290266922    0.1364785181    0.5524226013    0.6314992398    0.5524226013    0.6314992398   -0.1045856197    0.1884918826
7.2002e+09   -0.2069538172    0.1372278249    0.6014206307    0.5901959705    0.6014206307    0.5901959705   -0.0801643888    0.1906550299
7.3002e+09   -0.1848487019    0.1345607758    0.6477462132    0.5445731506    0.6477462132    0.5445731506   -0.0555624641    0.1890555359
7.4002e+09   -0.1632506628    0.1284543876    0.6908980505    0.4947070392    0.6908980505    0.4947070392   -0.0313734860    0.1836406502
7.5002e+09   -0.1427142499    0.1189758844    0.7303485063    0.4407561577    0.7303485063    0.4407561577   -0.0082139195    0.1744565046
7.6002e+09   -0.1237922806    0.1062896284    0.7655608083    0.3829718595    0.7655608083    0.3829718595    0.0132955654    0.1616578428
7.7002e+09   -0.1070169811    0.0906595275    0.7960101241    0.3217063141    0.7960101241    0.3217063141    0.0325506445    0.1455135651
7.8002e+09   -0.0928783679    0.0724479724    0.8212074840    0.2574106658    0.8212074840    0.2574106658    0.0489899808    0.1264058378
7.9002e+09   -0.0818036291    0.0521094630    0.8407226857    0.1906322777    0.8407226857    0.1906322777    0.0621195160    0.1048242551
8.0002e+09   -0.0741372752    0.0301781254    0.8542081007    0.1220027771    0.8542081007    0.1220027771    0.0715362672    0.0813521129
8.1002e+09   -0.0701223945    0.0072514638    0.8614181116    0.0522192069    0.8614181116    0.0522192069    0.0769508569    0.0566468214
8.2002e+09   -0.0698860004   -0.0160268186    0.8622237011   -0.0179795460    0.8622237011   -0.0179795460    0.0782037355    0.0314185834
8.3002e+09   -0.0734329071   -0.0390058183    0.8566208416   -0.0878383031    0.8566208416   -0.0878383031    0.0752724403    0.0063887671
8.4002e+09   -0.0806456587   -0.0610434531    0.8447301547   -0.1566166649    0.8447301547   -0.1566166649    0.0682709312   -0.0177310008
8.5002e+09   -0.0912898750   -0.0815297641    0.8267897840   -0.2236134046    0.8267897840   -0.2236134046    0.0574424900   -0.0402651942
8.6002e+09   -0.1050220551   -0.0999195763    0.8031416769   -0.2881908050    0.8031416769   -0.2881908050    0.0431497399   -0.0606080789
8.7002e+09   -0.1214104877   -0.1157500683    0.7742113128   -0.3497947098    0.7742113128   -0.3497947098    0.0258519202   -0.0782430535
8.8002e+09   -0.1399569077   -0.1286542302    0.7404850494   -0.4079655417    0.7404850494   -0.4079655417    0.0060814146   -0.0927562878
8.9002e+09   -0.1601201114   -0.1383679102    0.7024869934   -0.4623438494    0.7024869934   -0.4623438494   -0.0155817768   -0.1038448221
9.0002e+09   -0.1813387086   -0.1447322033    0.6607549234   -0.5126696633    0.6607549234   -0.5126696633   -0.0385340105   -0.1113181125
9.1002e+09   -0.2030522837   -0.1476892063    0.6158195856   -0.5587765332    0.6158195856   -0.5587765332   -0.0621704926   -0.1150939300
9.2002e+09   -0.2247194946   -0.1472734981    0.5681878479   -0.6005809714    0.5681878479   -0.6005809714   -0.0859047588   -0.1151897106
9.3002e+09   -0.2458321316   -0.1436018080    0.5183289070   -0.6380694120    0.5183289070   -0.6380694120   -0.1091832785   -0.1117116016
9.4002e+09   -0.2659254509   -0.1368607161    0.4666651277   -0.6712836235    0.4666651277   -0.6712836235   -0.1314966804   -0.1048411892
9.5002e+09   -0.2845847099   -0.1272935618    0.4135681267   -0.7003055650    0.4135681267   -0.7003055650   -0.1523872394   -0.0948227284
9.6002e+09   -0.3014491833   -0.1151891757    0.3593562329   -0.7252431291    0.3593562329   -0.7252431291   -0.1714528100   -0.0819505798
9.7002e+09   -0.3162129681   -0.1008705385    0.3042957564   -0.7462173077    0.3042957564   -0.7462173077   -0.1883479132   -0.0665572109
9.8002e+09   -0.3286241348   -0.0846855235    0.2486065333   -0.7633502475    0.2486065333   -0.7633502475   -0.2027837637   -0.0490042656
9.9002e+09   -0.3384832930   -0.0669995889    0.1924665442   -0.7767555696    0.1924665442   -0.7767555696   -0.2145259003   -0.0296740903
1.0000e+10   -0.3456413734   -0.0481896042    0.1360190459   -0.7865307095    0.1360190459   -0.7865307095   -0.2233922057   -0.0089634562
1.0100e+10   -0.3499968883   -0.0286388689    0.0793810202   -0.7927513176    0.0793810202   -0.7927513176   -0.2292511121    0.0127211502
1.0200e+10   -0.3514944054   -0.0087337693    0.0226509341   -0.7954667400    0.0226509341   -0.7954667400   -0.2320187709    0.0349675393
1.0300e+10   -0.3501230577    0.0111392194    0.0340824557    0.7946976354    0.0340824557    0.7946976354   -0.2316579481    0.0573604802
1.0400e+10   -0.3459151827    0.0305960593    0.0907307965    0.7904357894    0.0907307965    0.7904357894   -0.2281777566    0.0794840913
1.0500e+10   -0.3389475441    0.0492575398    0.1471976169    0.7826441773    0.1471976169    0.7826441773   -0.2216341358    0.1009241373
1.0600e+10   -0.3293407897    0.0667525958    0.2033708665    0.7712596398    0.2033708665    0.7712596398   -0.2121294865    0.1212712053
1.0700e+10   -0.3172612750    0.0827213997    0.2591132162    0.7561971055    0.2591132162    0.7561971055   -0.1998165209    0.1401237555
1.0800e+10   -0.3029207836    0.0968193128    0.3142550000    0.7373559981    0.3142550000    0.7373559981   -0.1848977290    0.1570919584
1.0900e+10   -0.2865804971    0.1087237816    0.3685878672    0.7146259964    0.3685878672    0.7146259964   -0.1676299100    0.1718045968
1.1000e+10   -0.2685493501    0.1181402104    0.4218588500    0.6878980128    0.4218588500    0.6878980128   -0.1483249476    0.1839157530
1.1100e+10   -0.2491844176    0.1248105515    0.4737671983    0.6570742040    0.4737671983    0.6570742040   -0.1273504977    0.1931140081
1.1200e+10   -0.2288885373    0.1285227596    0.5239626118    0.6220803745    0.5239626118    0.6220803745   -0.1051285526    0.1991326971
1.1300e+10   -0.2081059846    0.1291201448    0.5720467920    0.5828798873    0.5720467920    0.5828798873   -0.0821332362    0.2017619683
1.1400e+10   -0.1873158649    0.1265118851    0.6175775398    0.5394877354    0.6175775398    0.5394877354   -0.0588838953    0.2008607014
1.1500e+10   -0.1670223363    0.1206833907    0.6600788911    0.4919818970    0.6600788911    0.4919818970   -0.0359354942    0.1963694931
1.1600e+10   -0.1477414180    0.1117022222    0.6990516155    0.4405180988    0.6990516155    0.4405180988   -0.0138649429    0.1883205151
1.1700e+10   -0.1299867414    0.0997256154    0.7339896647    0.3853378872    0.7339896647    0.3853378872    0.0067453104    0.1768466887
1.1800e+10   -0.1142516212    0.0850027491    0.7643991737    0.3267743709    0.7643991737    0.3267743709    0.0253278803    0.1621863239
1.1900e+10   -0.1009905876    0.0678729889    0.7898195556    0.2652534539    0.7898195556    0.2652534539    0.0413525371    0.1446834459
1.2000e+10   -0.0905997585    0.0487605697    0.8098453528    0.2012884506    0.8098453528    0.2012884506    0.0543495246    0.1247816424
1.2100e+10   -0.0833981268    0.0281636825    0.8241467862    0.1354693234    0.8241467862    0.1354693234    0.0639317995    0.1030119857
1.2200e+10   -0.0796110740    0.0066391826    0.8324876033    0.0684465583    0.8324876033    0.0684465583    0.0698144258    0.0799763323
1.2300e+10   -0.0793571542   -0.0152155857    0.8347381434    0.0009101905    0.8347381434    0.0009101905    0.0718293898    0.0563256788
1.2400e+10   -0.0826413266   -0.0367924174    0.8308825027   -0.0664358514    0.8308825027   -0.0664358514    0.0699335954    0.0327282733
1.2500e+10   -0.0893538612   -0.0574934386    0.8210189454   -0.1328978146    0.8210189454   -0.1328978146    0.0642103711    0.0098462928
1.2600e+10   -0.0992775001   -0.0767531121    0.8053538041   -0.1978148466    0.8053538041   -0.1978148466    0.0548617306   -0.0116892704
1.2700e+10   -0.1120947717   -0.0940626368    0.7841887394   -0.2605844370    0.7841887394   -0.2605844370    0.0422003158   -0.0313043332
1.2800e+10   -0.1274064272   -0.1089893409    0.7579041636   -0.3206762625    0.7579041636   -0.3206762625    0.0266308750   -0.0485023199
1.2900e+10   -0.1447511791   -0.1211886194    0.7269388872   -0.3776447328    0.7269388872   -0.3776447328    0.0086294660   -0.0628779595
1.3000e+10   -0.1636270279   -0.1304109838    0.6917686338   -0.4311346373    0.6917686338   -0.4311346373   -0.0112788543   -0.0741252770
1.3100e+10   -0.1835124354   -0.1365032293    0.6528857019   -0.4808808222    0.6528857019   -0.4808808222   -0.0325419505   -0.0820399867
1.3200e+10   -0.2038857664   -0.1394061803    0.6107797388   -0.5267030990    0.6107797388   -0.5267030990   -0.0546012964   -0.0865179563
1.3300e+10   -0.2242396560   -0.1391447683    0.5659213505   -0.5684998068    0.5659213505   -0.5684998068   -0.0769082073   -0.0875457869
1.3400e+10   -0.2440981180   -0.1358227583    0.5187497219   -0.6062334383    0.5187497219   -0.6062334383   -0.0989411310   -0.0851960296
1.3500e+10   -0.2630225611   -0.1296089983    0.4696658214   -0.6399183167    0.4696658214   -0.6399183167   -0.1202135583   -0.0796132272
1.3600e+10   -0.2806208082   -0.1207269717    0.4190236984   -0.6696092694    0.4190236984   -0.6696092694   -0.1402837216   -0.0710032776
1.3700e+10   -0.2965495074   -0.1094434752    0.3671316258   -0.6953868032    0.3671316258   -0.6953868032   -0.1587580671   -0.0596223111
1.3800e+10   -0.3105160418   -0.0960591916    0.3142517683   -0.7173457595    0.3142517683   -0.7173457595   -0.1752938461   -0.0457664982
1.3900e+10   -0.3222785052   -0.0809000238    0.2606032159   -0.7355844745    0.2606032159   -0.7355844745   -0.1895995759   -0.0297628892
1.4000e+10   -0.3316442615   -0.0643095309    0.2063676926   -0.7501957910    0.2063676926   -0.7501957910   -0.2014340078   -0.0119620235
1.4100e+10   -0.3384683931   -0.0466434057    0.1516948968   -0.7612597344    0.1516948968   -0.7612597344   -0.2106051075    0.0072682423
1.4200e+10   -0.3426519986   -0.0282647610    0.0967099807   -0.7688376083    0.0967099807   -0.7688376083   -0.2169680505    0.0275475868
