! Port 1 = P1 P2 
! Port 2 = P2 P2 
# hz S ri R 50
! freq  reS11  imS11  reS21  imS21  reS12  imS12  reS22  imS22  
!
2.5000e+05    0.0053822748   -0.0001024524    0.9946160726   -0.0002676700    0.9946160726   -0.0002676700    0.0053822678   -0.0001024524
1.0025e+08    0.0030052599   -0.0335645970    0.9890932949   -0.0876414593    0.9890932949   -0.0876414593    0.0030052595   -0.0335645984
2.0025e+08   -0.0049465903   -0.0662032650    0.9747328932   -0.1731224047    0.9747328932   -0.1731224047   -0.0049465872   -0.0662032652
3.0025e+08   -0.0181053459   -0.0970763990    0.9519379093   -0.2557442204    0.9519379093   -0.2557442204   -0.0181053467   -0.0970763989
4.0025e+08   -0.0360986991   -0.1252820099    0.9214150037   -0.3344978226    0.9214150037   -0.3344978226   -0.0360986990   -0.1252820098
5.0025e+08   -0.0583604118   -0.1499939676    0.8840084381   -0.4085961391    0.8840084381   -0.4085961391   -0.0583604116   -0.1499939712
6.0025e+08   -0.0841566200   -0.1705323756    0.8406123640   -0.4774675917    0.8406123640   -0.4774675917   -0.0841566191   -0.1705323780
7.0025e+08   -0.1126342749   -0.1864018231    0.7921297857   -0.5407240719    0.7921297857   -0.5407240719   -0.1126342785   -0.1864018243
8.0025e+08   -0.1428779503   -0.1973041712    0.7394487199   -0.5981371868    0.7394487199   -0.5981371868   -0.1428779490   -0.1973041696
9.0025e+08   -0.1739984154   -0.2031542731    0.6833843444   -0.6496440899    0.6833843444   -0.6496440899   -0.1739984077   -0.2031542742
1.0002e+09   -0.2051288346   -0.2040177962    0.6247055331   -0.6952851645    0.6247055331   -0.6952851645   -0.2051288285   -0.2040177960
1.1002e+09   -0.2354902605   -0.2001098288    0.5640815411   -0.7352092617    0.5640815411   -0.7352092617   -0.2354902682   -0.2001098341
1.2002e+09   -0.2643850392   -0.1917502745    0.5020965417   -0.7696329137    0.5020965417   -0.7696329137   -0.2643850404   -0.1917502718
1.3002e+09   -0.2912197981   -0.1793421445    0.4392299062   -0.7988227426    0.4392299062   -0.7988227426   -0.2912197902   -0.1793421408
1.4002e+09   -0.3154992771   -0.1633431240    0.3758650942   -0.8230681664    0.3758650942   -0.8230681664   -0.3154992793   -0.1633431227
1.5002e+09   -0.3368168938   -0.1442455605    0.3123019411   -0.8426608845    0.3123019411   -0.8426608845   -0.3368168876   -0.1442455605
1.6002e+09   -0.3548571706   -0.1225613157    0.2487557998   -0.8578793976    0.2487557998   -0.8578793976   -0.3548571689   -0.1225613112
1.7002e+09   -0.3693807008   -0.0988097486    0.1853765915   -0.8689745362    0.1853765915   -0.8689745362   -0.3693807013   -0.0988097417
1.8002e+09   -0.3802291267   -0.0735054916    0.1222442226   -0.8761570916    0.1222442226   -0.8761570916   -0.3802291313   -0.0735054924
1.9002e+09   -0.3872696141   -0.0471715989    0.0594440444   -0.8796010918    0.0594440444   -0.8796010918   -0.3872696168   -0.0471716001
2.0002e+09   -0.3904597699   -0.0203133007    0.0030105923    0.8794263146    0.0030105923    0.8794263146   -0.3904597669   -0.0203133000
2.1002e+09   -0.3897987936    0.0065699052    0.0651102680    0.8757027202    0.0651102680    0.8757027202   -0.3897987986    0.0065699044
2.2002e+09   -0.3853354907    0.0329884356    0.1268515689    0.8684474979    0.1268515689    0.8684474979   -0.3853354894    0.0329884364
2.3002e+09   -0.3771607198    0.0584558701    0.1882121395    0.8576318454    0.1882121395    0.8576318454   -0.3771607205    0.0584558776
2.4002e+09   -0.3654176347    0.0824971017    0.2491554978    0.8431780786    0.2491554978    0.8431780786   -0.3654176443    0.0824970976
2.5002e+09   -0.3502988622    0.1046446373    0.3096094980    0.8249686372    0.3096094980    0.8249686372   -0.3502988607    0.1046446328
2.6002e+09   -0.3320518342    0.1244426938    0.3694581629    0.8028522727    0.3694581629    0.8028522727   -0.3320518261    0.1244426927
2.7002e+09   -0.3109833118    0.1414521919    0.4285315994    0.7766532682    0.4285315994    0.7766532682   -0.3109833077    0.1414521862
2.8002e+09   -0.2874639625    0.1552577373    0.4865961544    0.7461838968    0.4865961544    0.7461838968   -0.2874639685    0.1552577484
2.9002e+09   -0.2619322651    0.1654784332    0.5433484050    0.7112579094    0.5433484050    0.7112579094   -0.2619322568    0.1654784324
3.0002e+09   -0.2348967144    0.1717801314    0.5984087429    0.6717090683    0.5984087429    0.6717090683   -0.2348967005    0.1717801314
3.1002e+09   -0.2069348294    0.1738921265    0.6513224475    0.6274085555    0.6513224475    0.6274085555   -0.2069348323    0.1738921243
3.2002e+09   -0.1786885442    0.1716240251    0.7015614046    0.5782875039    0.7015614046    0.5782875039   -0.1786885431    0.1716240340
3.3002e+09   -0.1508586548    0.1648842663    0.7485229920    0.5243732589    0.7485229920    0.5243732589   -0.1508586461    0.1648842646
3.4002e+09   -0.1241713604    0.1537012643    0.7915885737    0.4657511160    0.7915885737    0.4657511160   -0.1241713494    0.1537012624
3.5002e+09   -0.0993822881    0.1382319691    0.8300788838    0.4026695784    0.8300788838    0.4026695784   -0.0993822831    0.1382319749
3.6002e+09   -0.0772319864    0.1187788085    0.8633259894    0.3354979110    0.8633259894    0.3354979110   -0.0772319816    0.1187788063
3.7002e+09   -0.0584152618    0.0957894504    0.8906982425    0.2647363892    0.8906982425    0.2647363892   -0.0584152609    0.0957894538
3.8002e+09   -0.0435498086    0.0698535867    0.9116288679    0.1910267107    0.9116288679    0.1910267107   -0.0435497972    0.0698535854
3.9002e+09   -0.0331397444    0.0416861045    0.9256547711    0.1151301454    0.9256547711    0.1151301454   -0.0331397413    0.0416861057
4.0002e+09   -0.0275455641    0.0120990007    0.9324467420    0.0379005288    0.9324467420    0.0379005288   -0.0275455551    0.0120989994
4.1002e+09   -0.0269573620   -0.0180215941    0.9318314252   -0.0397428289    0.9318314252   -0.0397428289   -0.0269573527   -0.0180215980
4.2002e+09   -0.0313828375   -0.0477775014    0.9238049920   -0.1168570336    0.9238049920   -0.1168570336   -0.0313828254   -0.0477775033
4.3002e+09   -0.0406587950   -0.0762878130    0.9085342515   -0.1925166706    0.9085342515   -0.1925166706   -0.0406587850   -0.0762878142
4.4002e+09   -0.0544507544   -0.1027227779    0.8863461449   -0.2658531182    0.8863461449   -0.2658531182   -0.0544507446   -0.1027227766
4.5002e+09   -0.0722709097   -0.1263538953    0.8577058843   -0.3360908084    0.8577058843   -0.3360908084   -0.0722708960   -0.1263539072
4.6002e+09   -0.0935146277   -0.1465761603    0.8231870717   -0.4025731488    0.8231870717   -0.4025731488   -0.0935146168   -0.1465761614
4.7002e+09   -0.1174921680   -0.1629242320    0.7834401609   -0.4647743110    0.7834401609   -0.4647743110   -0.1174921415   -0.1629242420
4.8002e+09   -0.1434668324   -0.1750826896    0.7391533331   -0.5223120673    0.7391533331   -0.5223120673   -0.1434668240   -0.1750827070
4.9002e+09   -0.1706869462   -0.1828819700    0.6910217527   -0.5749389428    0.6910217527   -0.5749389428   -0.1706869339   -0.1828819853
5.0002e+09   -0.1984165024   -0.1862893070    0.6397170017   -0.6225327941    0.6397170017   -0.6225327941   -0.1984164869   -0.1862893253
5.1002e+09   -0.2259581636   -0.1853930054    0.5858651221   -0.6650782455    0.5858651221   -0.6650782455   -0.2259581585   -0.1853930299
5.2002e+09   -0.2526709628   -0.1803841184    0.5300299536   -0.7026464858    0.5300299536   -0.7026464858   -0.2526709499   -0.1803841376
5.3002e+09   -0.2779812733   -0.1715369567    0.4727034613   -0.7353733604    0.4727034613   -0.7353733604   -0.2779812550   -0.1715369801
5.4002e+09   -0.3013888444   -0.1591901827    0.4143012371   -0.7634381960    0.4143012371   -0.7634381960   -0.3013888308   -0.1591902128
5.5002e+09   -0.3224741650   -0.1437274155    0.3551514487   -0.7870474148    0.3551514487   -0.7870474148   -0.3224741552   -0.1437274442
5.6002e+09   -0.3408717561   -0.1255715681    0.2955471319   -0.8064030981    0.2955471319   -0.8064030981   -0.3408717441   -0.1255715960
5.7002e+09   -0.3563041644   -0.1051607562    0.2356815751   -0.8217111051    0.2356815751   -0.8217111051   -0.3563041457   -0.1051607713
5.8002e+09   -0.3685506203   -0.0829475240    0.1757069379   -0.8331532768    0.1757069379   -0.8331532768   -0.3685506224   -0.0829475396
5.9002e+09   -0.3774502553   -0.0593894078    0.1157278776   -0.8408831981    0.1157278776   -0.8408831981   -0.3774502480   -0.0593894378
6.0002e+09   -0.3828951125   -0.0349462677    0.0558174647   -0.8450191563    0.0558174647   -0.8450191563   -0.3828951106   -0.0349462940
6.1002e+09   -0.3848273878   -0.0100770291    0.0039742520    0.8456401055    0.0039742520    0.8456401055   -0.3848273839   -0.0100770614
6.2002e+09   -0.3832366171    0.0147616003    0.0636087874    0.8427833773    0.0636087874    0.8427833773   -0.3832366043    0.0147615742
6.3002e+09   -0.3781584167    0.0391158756    0.1230479810    0.8364441718    0.1230479810    0.8364441718   -0.3781584315    0.0391158444
6.4002e+09   -0.3696747449    0.0625362691    0.1822442123    0.8265765469    0.1822442123    0.8265765469   -0.3696747587    0.0625362365
6.5002e+09   -0.3579152080    0.0845782437    0.2411286337    0.8130964859    0.2411286337    0.8130964859   -0.3579152243    0.0845782163
6.6002e+09   -0.3430598207    0.1048046608    0.2996012144    0.7958865905    0.2996012144    0.7958865905   -0.3430598149    0.1048046326
6.7002e+09   -0.3253425253    0.1227894415    0.3575207583    0.7748028373    0.3575207583    0.7748028373   -0.3253425506    0.1227894153
6.8002e+09   -0.3050551037    0.1381232410    0.4146961282    0.7496832582    0.4146961282    0.7496832582   -0.3050551263    0.1381231993
6.9002e+09   -0.2825507867    0.1504212742    0.4708785205    0.7203589485    0.4708785205    0.7203589485   -0.2825508018    0.1504212413
7.0002e+09   -0.2582470735    0.1593333291    0.5257549096    0.6866677971    0.5257549096    0.6866677971   -0.2582470933    0.1593333022
7.1002e+09   -0.2326266434    0.1645564519    0.5789448344    0.6484700950    0.5789448344    0.6484700950   -0.2326266682    0.1645564407
7.2002e+09   -0.2062355875    0.1658495971    0.6299999580    0.6056665160    0.6299999580    0.6056665160   -0.2062356109    0.1658495722
7.3002e+09   -0.1796773854    0.1630499010    0.6784090356    0.5582164756    0.6784090356    0.5582164756   -0.1796774131    0.1630498736
7.4002e+09   -0.1536027694    0.1560892348    0.7236065274    0.5061576814    0.7236065274    0.5061576814   -0.1536027970    0.1560892144
7.5002e+09   -0.1286940786    0.1450097765    0.7649874628    0.4496242218    0.7649874628    0.4496242218   -0.1286941044    0.1450097674
7.6002e+09   -0.1056441991    0.1299769773    0.8019279371    0.3888615343    0.8019279371    0.3888615343   -0.1056442270    0.1299769531
7.7002e+09   -0.0851307382    0.1112876893    0.8338103967    0.3242373115    0.8338103967    0.3242373115   -0.0851307761    0.1112876781
7.8002e+09   -0.0677858295    0.0893713559    0.8600541705    0.2562422173    0.8600541705    0.2562422173   -0.0677858605    0.0893713423
7.9002e+09   -0.0541657032    0.0647836827    0.8801451119    0.1854876590    0.8801451119    0.1854876590   -0.0541657445    0.0647836780
8.0002e+09   -0.0447202947    0.0381910512    0.8936662070    0.1126911026    0.8936662070    0.1126911026   -0.0447203250    0.0381910440
8.1002e+09   -0.0397663938    0.0103467439    0.9003239111    0.0386535259    0.9003239111    0.0386535259   -0.0397664260    0.0103467406
8.2002e+09   -0.0394671625   -0.0179357244    0.8999675857   -0.0357704954    0.8999675857   -0.0357704954   -0.0394671923   -0.0179357248
8.3002e+09   -0.0438230518   -0.0458324649    0.8926001457   -0.1097071045    0.8926001457   -0.1097071045   -0.0438230819   -0.0458324578
8.4002e+09   -0.0526738211   -0.0725365076    0.8783780446   -0.1823017682    0.8783780446   -0.1823017682   -0.0526738459   -0.0725365140
8.5002e+09   -0.0657083555   -0.0972903212    0.8576015002   -0.2527514825    0.8576015002   -0.2527514825   -0.0657083843   -0.0972903130
8.6002e+09   -0.0824789386   -0.1194260578    0.8306954568   -0.3203362259    0.8306954568   -0.3203362259   -0.0824789632   -0.1194260486
8.7002e+09   -0.1024311404   -0.1383875956    0.7981829466   -0.3844430899    0.7981829466   -0.3844430899   -0.1024311581   -0.1383875892
8.8002e+09   -0.1249340576   -0.1537454711    0.7606553183   -0.4445792437    0.7606553183   -0.4445792437   -0.1249340642   -0.1537454701
8.9002e+09   -0.1493115619   -0.1652036574    0.7187411225   -0.5003775127    0.7187411225   -0.5003775127   -0.1493115686   -0.1652036570
9.0002e+09   -0.1748724641   -0.1725986500    0.6730765373   -0.5515930658    0.6730765373   -0.5515930658   -0.1748724742   -0.1725986531
9.1002e+09   -0.2009367795   -0.1758910724    0.6242795628   -0.5980937892    0.6242795628   -0.5980937892   -0.2009367954   -0.1758910733
9.2002e+09   -0.2268572095   -0.1751527143    0.5729293333   -0.6398452611    0.5729293333   -0.6398452611   -0.2268572104   -0.1751527178
9.3002e+09   -0.2520351893   -0.1705506820    0.5195510779   -0.6768928131    0.5195510779   -0.6768928131   -0.2520352011   -0.1705506921
9.4002e+09   -0.2759315372   -0.1623303199    0.4646067749   -0.7093422546    0.4646067749   -0.7093422546   -0.2759315306   -0.1623303364
9.5002e+09   -0.2980722051   -0.1507986404    0.4084911732   -0.7373408493    0.4084911732   -0.7373408493   -0.2980721968   -0.1507986544
9.6002e+09   -0.3180507369   -0.1363092534    0.3515314468   -0.7610596389    0.3515314468   -0.7610596389   -0.3180507495   -0.1363092689
9.7002e+09   -0.3355269310   -0.1192487150    0.2939904416   -0.7806781683    0.2939904416   -0.7806781683   -0.3355269398   -0.1192487162
9.8002e+09   -0.3502240218   -0.1000262948    0.2360736348   -0.7963705606    0.2360736348   -0.7963705606   -0.3502240277   -0.1000263089
9.9002e+09   -0.3619248109   -0.0790655035    0.1779365679   -0.8082948619    0.1779365679   -0.8082948619   -0.3619248103   -0.0790655292
1.0000e+10   -0.3704674804   -0.0567979507    0.1196939763   -0.8165846374    0.1196939763   -0.8165846374   -0.3704674713   -0.0567979818
1.0100e+10   -0.3757416742   -0.0336591036    0.0614294407   -0.8213426769    0.0614294407   -0.8213426769   -0.3757416860   -0.0336591388
1.0200e+10   -0.3776852979   -0.0100855050    0.0032054656   -0.8226367916    0.0032054656   -0.8226367916   -0.3776852986   -0.0100855415
1.0300e+10   -0.3762823193    0.0134870037    0.0549263237    0.8204973881    0.0549263237    0.8204973881   -0.3762823281    0.0134869580
1.0400e+10   -0.3715616163    0.0366244911    0.1129149379    0.8149169869    0.1129149379    0.8149169869   -0.3715616215    0.0366244384
1.0500e+10   -0.3635979770    0.0588961332    0.1706996428    0.8058507994    0.1706996428    0.8058507994   -0.3635979922    0.0588960853
1.0600e+10   -0.3525122858    0.0798762302    0.2282012484    0.7932198463    0.2282012484    0.7932198463   -0.3525123033    0.0798761763
1.0700e+10   -0.3384751197    0.0991464720    0.2853111929    0.7769147742    0.2853111929    0.7769147742   -0.3384751399    0.0991464262
1.0800e+10   -0.3217078232    0.1162991612    0.3418826447    0.7568034053    0.3418826447    0.7568034053   -0.3217078523    0.1162991006
1.0900e+10   -0.3024885678    0.1309438643    0.3977224581    0.7327372733    0.3977224581    0.7327372733   -0.3024886048    0.1309438097
1.1000e+10   -0.2811537372    0.1427142800    0.4525837629    0.7045631876    0.4525837629    0.7045631876   -0.2811537868    0.1427142220
1.1100e+10   -0.2581004624    0.1512780402    0.5061606090    0.6721354770    0.5061606090    0.6721354770   -0.2581005223    0.1512779857
1.1200e+10   -0.2337870228    0.1563485482    0.5580849418    0.6353307145    0.5580849418    0.6353307145   -0.2337870794    0.1563484865
1.1300e+10   -0.2087306564    0.1576985433    0.6079267892    0.5940639627    0.6079267892    0.5940639627   -0.2087307274    0.1576984815
1.1400e+10   -0.1835020093    0.1551749038    0.6551977913    0.5483069619    0.6551977913    0.5483069619   -0.1835020851    0.1551748427
1.1500e+10   -0.1587149519    0.1487145796    0.6993616789    0.4981034475    0.6993616789    0.4981034475   -0.1587150423    0.1487145177
1.1600e+10   -0.1350114016    0.1383570344    0.7398465103    0.4435877997    0.7398465103    0.4435877997   -0.1350115010    0.1383569833
1.1700e+10   -0.1130426068    0.1242570120    0.7760638738    0.3849975575    0.7760638738    0.3849975575   -0.1130427067    0.1242569663
1.1800e+10   -0.0934448677    0.1066913274    0.8074324013    0.3226826405    0.8074324013    0.3226826405   -0.0934449799    0.1066912876
1.1900e+10   -0.0768125317    0.0860600009    0.8334045134    0.2571082177    0.8334045134    0.2571082177   -0.0768126521    0.0860599646
1.2000e+10   -0.0636694377    0.0628801335    0.8534947527    0.1888502380    0.8534947527    0.1888502380   -0.0636695639    0.0628801127
1.2100e+10   -0.0544413641    0.0377717620    0.8673071717    0.1185828918    0.8673071717    0.1185828918   -0.0544414906    0.0377717510
1.2200e+10   -0.0494315047    0.0114365517    0.8745592851    0.0470581723    0.8745592851    0.0470581723   -0.0494316397    0.0114365479
1.2300e+10   -0.0488024057   -0.0153689055    0.8751001289   -0.0249204601    0.8751001289   -0.0249204601   -0.0488025408   -0.0153688933
1.2400e+10   -0.0525667761   -0.0418721783    0.8689202268   -0.0965313604    0.8689202268   -0.0965313604   -0.0525669107   -0.0418721599
1.2500e+10   -0.0605865000   -0.0673156567    0.8561522157   -0.1669669933    0.8561522157   -0.1669669933   -0.0605866344   -0.0673156260
1.2600e+10   -0.0725834553   -0.0909871330    0.8370626734   -0.2354636241    0.8370626734   -0.2354636241   -0.0725835907   -0.0909870937
1.2700e+10   -0.0881522918   -0.1122513478    0.8120351302   -0.3013335378    0.8120351302   -0.3013335378   -0.0881524300   -0.1122512957
1.2800e+10   -0.1067852531   -0.1305743726    0.7815471055   -0.3639838576    0.7815471055   -0.3639838576   -0.1067853792   -0.1305743181
1.2900e+10   -0.1278998339   -0.1455379632    0.7461430781   -0.4229311633    0.7461430781   -0.4229311633   -0.1278999559   -0.1455379031
1.3000e+10   -0.1508674258   -0.1568468410    0.7064061592   -0.4778073005    0.7064061592   -0.4778073005   -0.1508675418   -0.1568467610
1.3100e+10   -0.1750408630   -0.1643286855    0.6629309863   -0.5283576977    0.6629309863   -0.5283576977   -0.1750409882   -0.1643286010
1.3200e+10   -0.1997795089   -0.1679283888    0.6162997845   -0.5744326384    0.6162997845   -0.5744326384   -0.1997796003   -0.1679282944
1.3300e+10   -0.2244675866   -0.1676941608    0.5670624976   -0.6159767181    0.5670624976   -0.6159767181   -0.2244676852   -0.1676940556
1.3400e+10   -0.2485335848   -0.1637681716    0.5157214435   -0.6530100244    0.5157214435   -0.6530100244   -0.2485336741   -0.1637680760
1.3500e+10   -0.2714572639   -0.1563681350    0.4627246221   -0.6856111405    0.4627246221   -0.6856111405   -0.2714573423   -0.1563680358
1.3600e+10   -0.2927786681   -0.1457728862    0.4084570893   -0.7139018215    0.4084570893   -0.7139018215   -0.2927787469   -0.1457727705
1.3700e+10   -0.3120995760   -0.1323083119    0.3532427353   -0.7380287392    0.3532427353   -0.7380287392   -0.3120996404   -0.1323081987
1.3800e+10   -0.3290837520   -0.1163349792    0.2973462469   -0.7581492882    0.2973462469   -0.7581492882   -0.3290838098   -0.1163348726
1.3900e+10   -0.3434549681   -0.0982378136    0.2409781862   -0.7744187443    0.2409781862   -0.7744187443   -0.3434550203   -0.0982376989
1.4000e+10   -0.3549939737   -0.0784179619    0.1843020126   -0.7869798515    0.1843020126   -0.7869798515   -0.3549940110   -0.0784178544
1.4100e+10   -0.3635348926   -0.0572865881    0.1274420983   -0.7959544385    0.1274420983   -0.7959544385   -0.3635349369   -0.0572864845
1.4200e+10   -0.3689618792   -0.0352605529    0.0704930727   -0.8014371934    0.0704930727   -0.8014371934   -0.3689618919   -0.0352604514
