! Created Wed Feb 24 12:14:13 2021
! List of port names and net name(s): example Port n = <port_name> <net_name1> <net_name2> ...
! Port 1 = P1 P2 
! Port 2 = P2 P2 
# hz S ri R 50
! 2 Port Network Data from data block
! freq  reS11  imS11  reS21  imS21  reS12  imS12  reS22  imS22  
!     
           300000     0.0053822751    -0.00010245244        0.99461607    -0.00026767001        0.99461607    -0.00026767001      0.0053822751    -0.00010245244
        1.003e+08     0.0029819563      -0.033580896        0.98908861      -0.087684982        0.98908861      -0.087684982      0.0029819563      -0.033580896
        2.003e+08    -0.0049532128      -0.066219161        0.97472386       -0.17316474        0.97472386       -0.17316474     -0.0049532128      -0.066219161
        3.003e+08     -0.018113642      -0.097091312        0.95192475       -0.25578492        0.95192475       -0.25578492      -0.018113642      -0.097091312
        4.003e+08     -0.036109101       -0.12529547         0.9213981       -0.33453641         0.9213981       -0.33453641      -0.036109101       -0.12529547
        5.003e+08     -0.058372743       -0.15000557        0.88398823       -0.40863225        0.88398823       -0.40863225      -0.058372743       -0.15000557
        6.003e+08     -0.084170535        -0.1705418        0.84058931       -0.47750097        0.84058931       -0.47750097      -0.084170535        -0.1705418
        7.003e+08      -0.11264935       -0.18640885        0.79210434       -0.54075455        0.79210434       -0.54075455       -0.11264935       -0.18640885
        8.003e+08      -0.14289373       -0.19730868        0.73942133       -0.59816468        0.73942133       -0.59816468       -0.14289373       -0.19730868
        9.003e+08      -0.17401446       -0.20315625        0.68335541       -0.64966859        0.68335541       -0.64966859       -0.17401446       -0.20315625
       1.0003e+09      -0.20514472        -0.2040173        0.62467543       -0.69530671        0.62467543       -0.69530671       -0.20514472        -0.2040173
       1.1003e+09      -0.23550561       -0.20010699        0.56405059       -0.73522794        0.56405059       -0.73522794       -0.23550561       -0.20010699
       1.2003e+09      -0.26439952       -0.19174527        0.50206503       -0.76964885        0.50206503       -0.76964885       -0.26439952       -0.19174527
       1.3003e+09      -0.29123313       -0.17933519        0.43919806       -0.79883608        0.43919806       -0.79883608       -0.29123313       -0.17933519
       1.4003e+09      -0.31551123       -0.16333446        0.37583309       -0.82307905        0.37583309       -0.82307905       -0.31551123       -0.16333446
       1.5003e+09      -0.33682728       -0.14423544        0.31226992       -0.84266947        0.31226992       -0.84266947       -0.33682728       -0.14423544
       1.6003e+09      -0.35486585          -0.12255        0.24872386       -0.85788582        0.24872386       -0.85788582       -0.35486585          -0.12255
       1.7003e+09      -0.36938757        -0.0987975         0.1853448       -0.86897892         0.1853448       -0.86897892       -0.36938757      -0.098797499
       1.8003e+09      -0.38023412      -0.073492569        0.12221261       -0.87615954        0.12221261       -0.87615954       -0.38023412      -0.073492569
       1.9003e+09      -0.38727268      -0.047158265        0.05941265       -0.87960169        0.05941265       -0.87960169       -0.38727268      -0.047158265
       2.0003e+09       -0.3904609      -0.020299807     -0.0030417649       -0.87942512     -0.0030417649       -0.87942512        -0.3904609      -0.020299806
       2.1003e+09        -0.389798      0.0065833105      -0.065141216       -0.87569976      -0.065141216       -0.87569976         -0.389798      0.0065833112
       2.2003e+09      -0.38533281        0.03300151       -0.12688229       -0.86844278       -0.12688229       -0.86844278       -0.38533281       0.033001511
       2.3003e+09      -0.37715621       0.058468373       -0.18824262       -0.85762535       -0.18824262       -0.85762535       -0.37715621       0.058468374
       2.4003e+09      -0.36541138       0.082508799       -0.24918572       -0.84316976       -0.24918572       -0.84316976       -0.36541138       0.082508801
       2.5003e+09      -0.35029097         0.1046553       -0.30963942       -0.82495844       -0.30963942       -0.82495844       -0.35029097         0.1046553
       2.6003e+09      -0.33204244         0.1244521       -0.36948772       -0.80284012       -0.36948772       -0.80284012       -0.33204244         0.1244521
       2.7003e+09      -0.31097258        0.14146013        -0.4285607       -0.77663907        -0.4285607       -0.77663907       -0.31097258        0.14146013
       2.8003e+09      -0.28745209        0.15526401       -0.48662467       -0.74616756       -0.48662467       -0.74616756       -0.28745209        0.15526402
       2.9003e+09      -0.26191948        0.16548286       -0.54337618       -0.71123935       -0.54337618       -0.71123935       -0.26191947        0.16548286
       3.0003e+09      -0.23488328        0.17178256       -0.59843558       -0.67168821       -0.59843558       -0.67168821       -0.23488327        0.17178256
       3.1003e+09      -0.20692104        0.17389244       -0.65134811       -0.62738534       -0.65134811       -0.62738534       -0.20692104        0.17389244
       3.2003e+09      -0.17867472        0.17162215       -0.70158562       -0.57826191       -0.70158562       -0.57826191       -0.17867471        0.17162216
       3.3003e+09      -0.15084514        0.16488018       -0.74854546       -0.52434532       -0.74854546       -0.52434532       -0.15084513        0.16488018
       3.4003e+09       -0.1241585        0.15369501       -0.79160898       -0.46572089       -0.79160898       -0.46572089       -0.12415849        0.15369501
       3.5003e+09     -0.099370424        0.13822366       -0.83009689       -0.40263721       -0.83009689       -0.40263721      -0.099370418        0.13822366
       3.6003e+09      -0.07722142        0.11876864       -0.86334127        -0.3354636       -0.86334127        -0.3354636      -0.077221414        0.11876864
       3.7003e+09     -0.058406202       0.095777708       -0.89071049       -0.26470041       -0.89071049       -0.26470041      -0.058406195        0.09577771
       3.8003e+09      -0.04354225       0.069840694       -0.91163782        -0.1909894       -0.91163782        -0.1909894      -0.043542242       0.069840695
       3.9003e+09     -0.033133082       0.041672837       -0.92566021        -0.1150919       -0.92566021        -0.1150919      -0.033133073       0.041672838
       4.0003e+09     -0.027537894       0.012087659       -0.93244853      -0.037861786       -0.93244853      -0.037861786      -0.027537884       0.012087658
       4.1003e+09     -0.026949295      -0.018035771        -0.9318295       0.039781605        -0.9318295       0.039781605      -0.026949284      -0.018035772
       4.2003e+09     -0.031380072      -0.047794121       -0.92379938        0.11689537       -0.92379938        0.11689537       -0.03138006      -0.047794123
       4.3003e+09     -0.040662197      -0.076302593       -0.90852506        0.19255411       -0.90852506        0.19255411      -0.040662185      -0.076302597
       4.4003e+09     -0.054457623       -0.10273601       -0.88633356        0.26588924       -0.88633356        0.26588924       -0.05445761       -0.10273601
       4.5003e+09     -0.072280215       -0.12636545       -0.85769016        0.33612524       -0.85769016        0.33612524      -0.072280202       -0.12636546
       4.6003e+09     -0.093525782       -0.14658583       -0.82316851        0.40260558       -0.82316851        0.40260558      -0.093525769       -0.14658583
       4.7003e+09       -0.1175047       -0.16293184        -0.7834191         0.4648045        -0.7834191         0.4648045       -0.11750468       -0.16293185
       4.8003e+09      -0.14348031       -0.17508812       -0.73913012        0.52233984       -0.73913012        0.52233984        -0.1434803       -0.17508814
       4.9003e+09      -0.17070096       -0.18288517       -0.69099674         0.5749642       -0.69099674         0.5749642       -0.17070095       -0.18288519
       5.0003e+09      -0.19843067       -0.18629029       -0.63969052        0.62255549       -0.63969052        0.62255549       -0.19843065       -0.18629031
       5.1003e+09      -0.22597213       -0.18539184       -0.58583748        0.66509839       -0.58583748        0.66509839       -0.22597212       -0.18539186
       5.2003e+09      -0.25268441       -0.18038092       -0.53000143        0.70266413       -0.53000143        0.70266413        -0.2526844       -0.18038094
       5.3003e+09      -0.27799392       -0.17153188       -0.47267429        0.73538858       -0.47267429        0.73538858        -0.2779939        -0.1715319
       5.4003e+09      -0.30140045       -0.15918341       -0.41427162        0.76345109       -0.41427162        0.76345109       -0.30140044       -0.15918344
       5.5003e+09      -0.32248453       -0.14371915       -0.35512154        0.78705809       -0.35512154        0.78705809       -0.32248452       -0.14371918
       5.6003e+09      -0.34088071       -0.12556203       -0.29551707        0.80641166       -0.29551707        0.80641166        -0.3408807       -0.12556206
       5.7003e+09      -0.35631158       -0.10515017       -0.23565145        0.82171766       -0.23565145        0.82171766       -0.35631157       -0.10515019
       5.8003e+09       -0.3685564       -0.08293612       -0.17567682        0.83315791       -0.17567682        0.83315791        -0.3685564      -0.082936147
       5.9003e+09      -0.37745433      -0.059377418       -0.11569781        0.84088599       -0.11569781        0.84088599       -0.37745433      -0.059377447
       6.0003e+09      -0.38289744      -0.034933923      -0.055787484        0.84502016      -0.055787484        0.84502016       -0.38289744      -0.034933953
       6.1003e+09      -0.38482795       -0.01006456      0.0040041257        0.84563936      0.0040041257        0.84563936       -0.38482795       -0.01006459
       6.2003e+09      -0.38323542       0.014773966       0.063638533         0.8427809       0.063638533         0.8427809       -0.38323542       0.014773935
       6.3003e+09      -0.37815549       0.039127913        0.12307758        0.83643995        0.12307758        0.83643995        -0.3781555       0.039127881
       6.4003e+09      -0.36967014       0.062547755        0.18227364        0.82657056        0.18227364        0.82657056       -0.36967015       0.062547723
       6.5003e+09        -0.357909       0.084588959        0.24115785        0.81308869        0.24115785        0.81308869       -0.35790901       0.084588926
       6.6003e+09      -0.34305211        0.10481439        0.29963017        0.79587693        0.29963017        0.79587693       -0.34305212        0.10481436
       6.7003e+09      -0.32533344        0.12279798        0.35754937        0.77479123        0.35754937        0.77479123       -0.32533346        0.12279795
       6.8003e+09       -0.3050448        0.13813039         0.4147243        0.74966963         0.4147243        0.74966963       -0.30504482        0.13813035
       6.9003e+09      -0.28253945        0.15042685        0.47090612        0.72034322        0.47090612        0.72034322       -0.28253947        0.15042682
       7.0003e+09      -0.25823492        0.15933717        0.52578177        0.68664989        0.52578177        0.68664989       -0.25823494        0.15933714
       7.1003e+09      -0.23261392        0.16455842        0.57897076        0.64844995        0.57897076        0.64844995       -0.23261395         0.1645584
       7.2003e+09      -0.20622257        0.16584959        0.63002472        0.60564409        0.63002472        0.60564409        -0.2062226        0.16584956
       7.3003e+09      -0.17966437        0.16304786        0.67843237        0.55819176        0.67843237        0.55819176        -0.1796644        0.16304783
       7.4003e+09      -0.15359007        0.15608515        0.72362815        0.50613071        0.72362815        0.50613071        -0.1535901        0.15608513
       7.5003e+09      -0.12868201         0.1450037        0.76500707        0.44959508        0.76500707        0.44959508       -0.12868204        0.14500369
       7.6003e+09      -0.10563306        0.12996903        0.80194522        0.38883036        0.80194522        0.38883036       -0.10563309        0.12996901
       7.7003e+09      -0.08512078        0.11127807        0.83382505        0.32420431        0.83382505        0.32420431      -0.085120814        0.11127806
       7.8003e+09     -0.067777203       0.089360362        0.86006592        0.25620765        0.86006592        0.25620765      -0.067777237       0.089360351
       7.9003e+09     -0.054158349       0.064771761        0.88015371        0.18545185        0.88015371        0.18545185      -0.054158383       0.064771753
       8.0003e+09     -0.044713749       0.038178979        0.89367147        0.11265442        0.89367147        0.11265442      -0.044713782       0.038178973
       8.1003e+09     -0.039760161        0.01033552        0.90032571       0.038616382        0.90032571       0.038616382      -0.039760193       0.010335517
       8.2003e+09     -0.039462085      -0.017949636        0.89996587      -0.035807669        0.89996587      -0.035807669      -0.039462116      -0.017949637
       8.3003e+09     -0.043821251      -0.045848069        0.89259494       -0.10974387        0.89259494       -0.10974387       -0.04382128      -0.045848068
       8.4003e+09     -0.052676639      -0.072550672        0.87836945       -0.18233771        0.87836945       -0.18233771      -0.052676666      -0.072550669
       8.5003e+09     -0.065714469       -0.09730294        0.85758969        -0.2527862        0.85758969        -0.2527862      -0.065714493      -0.097302936
       8.6003e+09     -0.082487442       -0.11943704        0.83068066       -0.32036938        0.83068066       -0.32036938      -0.082487464       -0.11943703
       8.7003e+09      -0.10244145       -0.13839678        0.79816544       -0.38447439        0.79816544       -0.38447439       -0.10244147       -0.13839677
       8.8003e+09      -0.12494571       -0.15375271        0.76063541       -0.44460846        0.76063541       -0.44460846       -0.12494572       -0.15375271
       8.9003e+09      -0.14932414       -0.16520885        0.71871913       -0.50040448        0.71871913       -0.50040448       -0.14932415       -0.16520885
       9.0003e+09      -0.17488558       -0.17260175        0.67305278       -0.55161768        0.67305278       -0.55161768       -0.17488559       -0.17260175
       9.1003e+09      -0.20095007       -0.17589209        0.62425435         -0.598116        0.62425435         -0.598116       -0.20095008       -0.17589209
       9.2003e+09      -0.22687034       -0.17515171        0.57290295       -0.63986507        0.57290295       -0.63986507       -0.22687034       -0.17515171
       9.3003e+09      -0.25204786       -0.17054776        0.51952378       -0.67691025        0.51952378       -0.67691025       -0.25204786       -0.17054776
       9.4003e+09      -0.27594348       -0.16232562        0.46457879       -0.70935739        0.46457879       -0.70935739       -0.27594348       -0.16232563
       9.5003e+09      -0.29808319       -0.15079233        0.40846269       -0.73735376        0.40846269       -0.73735376       -0.29808319       -0.15079234
       9.6003e+09      -0.31806057       -0.13630152        0.35150262       -0.76107041        0.35150262       -0.76107041       -0.31806057       -0.13630153
       9.7003e+09      -0.33553545       -0.11923976         0.2939614        -0.7806869         0.2939614        -0.7806869       -0.33553545       -0.11923977
       9.8003e+09       -0.3502311       -0.10001633        0.23604447       -0.79637734        0.23604447       -0.79637734        -0.3502311       -0.10001635
       9.9003e+09      -0.36193035      -0.079054746        0.17790735       -0.80829977        0.17790735       -0.80829977       -0.36193035      -0.079054772
      1.00003e+10      -0.37047141      -0.056786619        0.11966476       -0.81658774        0.11966476       -0.81658774       -0.37047141      -0.056786649
      1.01003e+10      -0.37574395      -0.033647417       0.061400266       -0.82134402       0.061400266       -0.82134402       -0.37574396      -0.033647452
      1.02003e+10       -0.3776859      -0.010073683        0.00317636       -0.82263641        0.00317636       -0.82263641       -0.37768591      -0.010073722
      1.03003e+10      -0.37628125       0.013498744      -0.054955335       -0.82049529      -0.054955335       -0.82049529       -0.37628126       0.013498702
      1.04003e+10       -0.3715589       0.036635933       -0.11294383       -0.81491317       -0.11294383       -0.81491317       -0.37155891       0.036635886
      1.05003e+10      -0.36359366       0.058907063       -0.17072838       -0.80584524       -0.17072838       -0.80584524       -0.36359368       0.058907012
      1.06003e+10      -0.35250644       0.079886439       -0.22822979        -0.7932125       -0.22822979        -0.7932125       -0.35250646       0.079886385
      1.07003e+10      -0.33846784       0.099155754       -0.28533948       -0.77690559       -0.28533948       -0.77690559       -0.33846787       0.099155697
      1.08003e+10      -0.32169923        0.11630732        -0.3419106       -0.75679231        -0.3419106       -0.75679231       -0.32169926        0.11630726
      1.09003e+10      -0.30247881        0.13095071       -0.39774998        -0.7327242       -0.39774998        -0.7327242       -0.30247885        0.13095065
      1.10003e+10      -0.28114299        0.14271964       -0.45261072       -0.70454806       -0.45261072       -0.70454806       -0.28114304        0.14271958
      1.11003e+10      -0.25808893        0.15128176       -0.50618684       -0.67211823       -0.50618684       -0.67211823       -0.25808899         0.1512817
      1.12003e+10      -0.23377494         0.1563505       -0.55811026       -0.63531129       -0.55811026       -0.63531129         -0.233775        0.15635044
      1.13003e+10      -0.20871828        0.15769863       -0.60795097       -0.59404233       -0.60795097       -0.59404233       -0.20871835        0.15769857
      1.14003e+10      -0.18348962        0.15517307       -0.65522059       -0.54828312       -0.65522059       -0.54828312        -0.1834897        0.15517301
      1.15003e+10      -0.15870284        0.14871082       -0.69938282       -0.49807743       -0.69938282       -0.49807743       -0.15870293        0.14871076
      1.16003e+10      -0.13499986         0.1383514       -0.73986571       -0.44355969       -0.73986571       -0.44355969       -0.13499996        0.13835135
      1.17003e+10      -0.11303191        0.12424962       -0.77608084       -0.38496749       -0.77608084       -0.38496749       -0.11303201        0.12424958
      1.18003e+10     -0.093435245        0.10668237       -0.80744685       -0.32265081       -0.80744685       -0.32265081      -0.093435358        0.10668233
      1.19003e+10     -0.076804121       0.086049765       -0.83341618       -0.25707487       -0.83341618       -0.25707487       -0.07680424       0.086049734
      1.20003e+10     -0.063662215        0.06286904       -0.85350341       -0.18881568       -0.85350341       -0.18881568      -0.063662341       0.062869017
      1.21003e+10     -0.054435084       0.037760444       -0.86731264       -0.11854747       -0.86731264       -0.11854747      -0.054435214       0.037760431
