! Port 1 = P1 P2 
! Port 2 = P2 P2 
# hz S ri R 50
! freq  reS11  imS11  reS21  imS21  reS12  imS12  reS22  imS22  
!
2.5000e+05    0.0810217625   -0.0001442766    0.9189782343   -0.0002544942    0.9189782343   -0.0002544942    0.0810224861   -0.0000871286
1.0025e+08    0.0771339179   -0.0472126668    0.9134897338   -0.0832970617    0.9134897338   -0.0832970617    0.0789205013   -0.0285090461
2.0025e+08    0.0650726464   -0.0927275383    0.8990428070   -0.1643542454    0.8990428070   -0.1643542454    0.0719282652   -0.0561576596
3.0025e+08    0.0454707231   -0.1352344618    0.8761281029   -0.2423128174    0.8761281029   -0.2423128174    0.0604010303   -0.0821668549
4.0025e+08    0.0190990511   -0.1733997035    0.8455645719   -0.3160644695    0.8455645719   -0.3160644695    0.0447206310   -0.1057248380
5.0025e+08   -0.0130064992   -0.2061039592    0.8083409781   -0.3847666571    0.8083409781   -0.3847666571    0.0254479317   -0.1261129172
6.0025e+08   -0.0496220230   -0.2325120157    0.7655109287   -0.4478462377    0.7655109287   -0.4478462377    0.0032877383   -0.1427689345
7.0025e+08   -0.0894203908   -0.2520959599    0.7181306729   -0.5049689088    0.7181306729   -0.5049689088   -0.0209652867   -0.1553172511
8.0025e+08   -0.1310543298   -0.2646277880    0.6672166004   -0.5560076496    0.6672166004   -0.5560076496   -0.0464850449   -0.1635724412
9.0025e+08   -0.1732690724   -0.2701704658    0.6136749372   -0.6010317383    0.6136749372   -0.6010317383   -0.0724948626   -0.1675409603
1.0002e+09   -0.2148982504   -0.2689905087    0.5583237966   -0.6402328336    0.5583237966   -0.6402328336   -0.0982647554   -0.1673594455
1.1002e+09   -0.2549374090   -0.2615328169    0.5018406090   -0.6739128835    0.5018406090   -0.6739128835   -0.1231642719   -0.1632829709
1.2002e+09   -0.2925285380   -0.2483573316    0.4447813539   -0.7024342165    0.4447813539   -0.7024342165   -0.1466516340   -0.1556413867
1.3002e+09   -0.3269763777   -0.2301010357    0.3875683133   -0.7261929066    0.3875683133   -0.7261929066   -0.1682865303   -0.1448163248
1.4002e+09   -0.3577301439   -0.2074396831    0.3305064898   -0.7455878595    0.3305064898   -0.7455878595   -0.1877182876   -0.1312156622
1.5002e+09   -0.3843624990   -0.1810626618    0.2738027116   -0.7609992317    0.2738027116   -0.7609992317   -0.2046723263   -0.1152573272
1.6002e+09   -0.4065620695   -0.1516545060    0.2175713021   -0.7727725628    0.2175713021   -0.7727725628   -0.2189466983   -0.0973576894
1.7002e+09   -0.4241087635   -0.1198842848    0.1618574613   -0.7812065270    0.1618574613   -0.7812065270   -0.2303957875   -0.0779246890
1.8002e+09   -0.4368712281   -0.0863937817    0.1066376173   -0.7865422113    0.1066376173   -0.7865422113   -0.2389312144   -0.0573502290
1.9002e+09   -0.4447465673   -0.0518226592    0.0518898904   -0.7889707620    0.0518898904   -0.7889707620   -0.2444751887   -0.0360246806
2.0002e+09   -0.4477209881   -0.0167747309    0.0024722082    0.7886144588    0.0024722082    0.7886144588   -0.2470112218   -0.0143180271
2.1002e+09   -0.4458188544    0.0181577824    0.0565372775    0.7855349994    0.0565372775    0.7855349994   -0.2465444432    0.0074066535
2.2002e+09   -0.4391099478    0.0523954676    0.1103964087    0.7797310657    0.1103964087    0.7797310657   -0.2431080508    0.0287936881
2.3002e+09   -0.4277038423    0.0853589110    0.1641199819    0.7711451025    0.1641199819    0.7711451025   -0.2367578039    0.0494864840
2.4002e+09   -0.4117612621    0.1164747445    0.2177600627    0.7596604556    0.2177600627    0.7596604556   -0.2275815924    0.0691313607
2.5002e+09   -0.3914955967    0.1451674119    0.2713295219    0.7451094084    0.2713295219    0.7451094084   -0.2156984777    0.0873720407
2.6002e+09   -0.3671827872    0.1708612287    0.3247922169    0.7272786622    0.3247922169    0.7272786622   -0.2012656667    0.1038506587
2.7002e+09   -0.3391717732    0.1929844051    0.3780508085    0.7059176738    0.3780508085    0.7059176738   -0.1844847919    0.1182100291
2.8002e+09   -0.3078959636    0.2109768228    0.4309339798    0.6807507050    0.4309339798    0.6807507050   -0.1656091241    0.1300978815
2.9002e+09   -0.2738842497    0.2243039700    0.4831866498    0.6514909453    0.4831866498    0.6514909453   -0.1449509504    0.1391752499
3.0002e+09   -0.2377706891    0.2324749420    0.5344594197    0.6178605863    0.5344594197    0.6178605863   -0.1228877795    0.1451271654
3.1002e+09   -0.2002993046    0.2350679832    0.5843051326    0.5796119661    0.5843051326    0.5796119661   -0.0998661654    0.1476782951
3.2002e+09   -0.1623237962    0.2317591654    0.6321769913    0.5365552852    0.6321769913    0.5365552852   -0.0764021588    0.1466104237
3.3002e+09   -0.1248047679    0.2223564627    0.6774255550    0.4886005744    0.6774255550    0.4886005744   -0.0530800328    0.1417827518
3.4002e+09   -0.0887625465    0.2068333110    0.7193551113    0.4357347048    0.7193551113    0.4357347048   -0.0305262140    0.1331564698
3.5002e+09   -0.0552852708    0.1853582398    0.7571858140    0.3781263402    0.7571858140    0.3781263402   -0.0094118727    0.1208084498
3.6002e+09   -0.0254584486    0.1583227789    0.7901300655    0.3160986925    0.7901300655    0.3160986925    0.0095873890    0.1049529787
3.7002e+09   -0.0003134810    0.1263493891    0.8174287180    0.2501454055    0.8174287180    0.2501454055    0.0258232896    0.0859474489
3.8002e+09    0.0192285057    0.0902908834    0.8383930306    0.1809424253    0.8383930306    0.1809424253    0.0387095859    0.0642929412
3.9002e+09    0.0324213070    0.0512044225    0.8524578160    0.1093243192    0.8524578160    0.1093243192    0.0477620841    0.0406201918
4.0002e+09    0.0387479039    0.0103048216    0.8592248819    0.0362492003    0.8592248819    0.0362492003    0.0526329955    0.0156620423
4.1002e+09    0.0379644769   -0.0310840776    0.8584949671   -0.0372411194    0.8584949671   -0.0372411194    0.0531404605   -0.0097731378
4.2002e+09    0.0301199725   -0.0716238190    0.8502855010   -0.1100803638    0.8502855010   -0.1100803638    0.0492820009   -0.0348637546
4.3002e+09    0.0155405605   -0.1100232431    0.8348285021   -0.1812345113    0.8348285021   -0.1812345113    0.0412239446   -0.0588096722
4.4002e+09   -0.0051847830   -0.1451014365    0.8125527688   -0.2497552221    0.8125527688   -0.2497552221    0.0292969996   -0.0808697214
4.5002e+09   -0.0312458910   -0.1758597737    0.7840491948   -0.3148270802    0.7840491948   -0.3148270802    0.0139730256   -0.1004102579
4.6002e+09   -0.0616760986   -0.2015158491    0.7500252749   -0.3757974544    0.7500252749   -0.3757974544   -0.0041749701   -0.1169259445
4.7002e+09   -0.0954120304   -0.2215208986    0.7112588339   -0.4321872617    0.7112588339   -0.4321872617   -0.0245088276   -0.1300520499
4.8002e+09   -0.1313582680   -0.2355632127    0.6685464261   -0.4836969999    0.6685464261   -0.4836969999   -0.0463647969   -0.1395682386
4.9002e+09   -0.1684384726   -0.2435497488    0.6226638283   -0.5301888899    0.6226638283   -0.5301888899   -0.0690850716   -0.1453885280
5.0002e+09   -0.2056393260   -0.2455796473    0.5743309463   -0.5716664787    0.5743309463   -0.5716664787   -0.0920455315   -0.1475461622
5.1002e+09   -0.2420394704   -0.2419101303    0.5241893139   -0.6082457129    0.5241893139   -0.6082457129   -0.1146742074   -0.1461736600
5.2002e+09   -0.2768275394   -0.2329212661    0.4727877500   -0.6401257939    0.4727877500   -0.6401257939   -0.1364631716   -0.1414813869
5.3002e+09   -0.3093090859   -0.2190823179    0.4205772098   -0.6675604465    0.4205772098   -0.6675604465   -0.1569736731   -0.1337373799
5.4002e+09   -0.3389058543   -0.2009221090    0.3679117209   -0.6908322277    0.3679117209   -0.6908322277   -0.1758363885   -0.1232490632
5.5002e+09   -0.3651557560   -0.1790010691    0.3150441052   -0.7102330351    0.3150441052   -0.7102330351   -0.1927527147   -0.1103462962
5.6002e+09   -0.3876744558   -0.1539069620    0.2621785966   -0.7260352292    0.2621785966   -0.7260352292   -0.2074689499   -0.0953773725
5.7002e+09   -0.4061869691   -0.1262214408    0.2094174149   -0.7384952955    0.2094174149   -0.7384952955   -0.2197999663   -0.0786899873
5.8002e+09   -0.4204858155   -0.0965253564    0.1568179357   -0.7478308593    0.1568179357   -0.7478308593   -0.2296010102   -0.0606331474
5.9002e+09   -0.4304300045   -0.0653896001    0.1043902120   -0.7542170070    0.1043902120   -0.7542170070   -0.2367680047   -0.0415515440
6.0002e+09   -0.4359339710   -0.0333761214    0.0521137738   -0.7577810778    0.0521137738   -0.7577810778   -0.2412307154   -0.0217859940
6.1002e+09   -0.4369623870   -0.0010379577    0.0000527029    0.7585998447    0.0000527029    0.7585998447   -0.2429494310   -0.0016734080
6.2002e+09   -0.4335262134    0.0310782162    0.0521595057    0.7566981180    0.0521595057    0.7566981180   -0.2419123473    0.0184516265
6.3002e+09   -0.4256814815    0.0624290389    0.1042544534    0.7520489264    0.1042544534    0.7520489264   -0.2381352003    0.0382549103
6.4002e+09   -0.4135308891    0.0924724059    0.1563726143    0.7445744287    0.1563726143    0.7445744287   -0.2316615977    0.0574011779
6.5002e+09   -0.3972275408    0.1206651056    0.2085241922    0.7341488509    0.2085241922    0.7341488509   -0.2225658541    0.0755525158
6.6002e+09   -0.3769812754    0.1464631196    0.2606834691    0.7206025822    0.2606834691    0.7206025822   -0.2109565361    0.0923681375
6.7002e+09   -0.3530666675    0.1693241110    0.3127772555    0.7037284849    0.3127772555    0.7037284849   -0.1969817387    0.1075054843
6.8002e+09   -0.3258322243    0.1887133315    0.3646739783    0.6832904059    0.3646739783    0.6832904059   -0.1808350980    0.1206235453
6.9002e+09   -0.2957098223    0.2041134778    0.4161730258    0.6590343424    0.4161730258    0.6590343424   -0.1627617509    0.1313885517
7.0002e+09   -0.2632234421    0.2150386861    0.4669950571    0.6307035626    0.4669950571    0.6307035626   -0.1430648071    0.1394820324
7.1002e+09   -0.2289954293    0.2210537619    0.5167752181    0.5980564879    0.5167752181    0.5980564879   -0.1221096092    0.1446125544
7.2002e+09   -0.1937486638    0.2217977536    0.5650595501    0.5608886282    0.5650595501    0.5608886282   -0.1003263232    0.1465299851
7.3002e+09   -0.1583019007    0.2170115219    0.6113075586    0.5190564018    0.6113075586    0.5190564018   -0.0782081768    0.1450427854
7.4002e+09   -0.1235576962    0.2065671979    0.6549002119    0.4725034073    0.6549002119    0.4725034073   -0.0563052961    0.1400366387
7.5002e+09   -0.0904801817    0.1904973092    0.6951562993    0.4212861555    0.6951562993    0.4212861555   -0.0352122133    0.1314931448
7.6002e+09   -0.0600623866    0.1690201501    0.7313574210    0.3655965963    0.7313574210    0.3655965963   -0.0155488568    0.1195069532
7.7002e+09   -0.0332837707    0.1425573164    0.7627806683    0.3057793255    0.7627806683    0.3057793255    0.0020648952    0.1042982629
7.8002e+09   -0.0110590514    0.1117385495    0.7887392685    0.2423363579    0.7887392685    0.2423363579    0.0170403380    0.0862178319
7.9002e+09    0.0058148107    0.0773926536    0.8086238696    0.1759246588    0.8086238696    0.1759246588    0.0288530323    0.0657436835
8.0002e+09    0.0167113123    0.0405206737    0.8219448767    0.1073371853    0.8219448767    0.1073371853    0.0370762456    0.0434666319
8.1002e+09    0.0212195437    0.0022532294    0.8283686758    0.0374715632    0.8283686758    0.0374715632    0.0414104714    0.0200660259
8.2002e+09    0.0191760986   -0.0362010614    0.8277433558   -0.0327118594    0.8277433558   -0.0327118594    0.0417056588   -0.0037196177
8.3002e+09    0.0106765288   -0.0736334102    0.8201103206   -0.1022392145    0.8201103206   -0.1022392145    0.0379705330   -0.0271430518
8.4002e+09   -0.0039340387   -0.1088896192    0.8057001086   -0.1701744183    0.8057001086   -0.1701744183    0.0303689857   -0.0494795652
8.5002e+09   -0.0240864288   -0.1409252037    0.7849140477   -0.2356623267    0.7849140477   -0.2356623267    0.0192069407   -0.0700612138
8.6002e+09   -0.0490237157   -0.1688617312    0.7582933179   -0.2979676343    0.7582933179   -0.2979676343    0.0049132596   -0.0883149687
8.7002e+09   -0.0778561848   -0.1920161722    0.7264790787   -0.3565005733    0.7264790787   -0.3565005733   -0.0119934331   -0.1037822905
8.8002e+09   -0.1096157496   -0.2099144306    0.6901704273   -0.4108272340    0.6901704273   -0.4108272340   -0.0309376186   -0.1161295997
8.9002e+09   -0.1433081175   -0.2222898367    0.6500834018   -0.4606686254    0.6500834018   -0.4606686254   -0.0513188086   -0.1251494715
9.0002e+09   -0.1779586460   -0.2290689561    0.6069149454   -0.5058886117    0.6069149454   -0.5058886117   -0.0725402496   -0.1307541264
9.1002e+09   -0.2126482932   -0.2303475093    0.5613141575   -0.5464749014    0.5613141575   -0.5464749014   -0.0940321927   -0.1329618548
9.2002e+09   -0.2465391810   -0.2263615022    0.5138619539   -0.5825149917    0.5138619539   -0.5825149917   -0.1152686014   -0.1318806699
9.3002e+09   -0.2788898947   -0.2174569947    0.4650586910   -0.6141707833    0.4650586910   -0.6141707833   -0.1357778954   -0.1276902260
9.4002e+09   -0.3090619452   -0.2040612053    0.4153190839   -0.6416537731    0.4153190839   -0.6416537731   -0.1551480317   -0.1206243097
9.5002e+09   -0.3365191849   -0.1866571365    0.3649732224   -0.6652024864    0.3649732224   -0.6652024864   -0.1730273617   -0.1109554327
9.6002e+09   -0.3608230222   -0.1657627175    0.3142711518   -0.6850629629    0.3142711518   -0.6850629629   -0.1891223882   -0.0989817735
9.7002e+09   -0.3816237706   -0.1419140574    0.2633906233   -0.7014732297    0.2633906233   -0.7014732297   -0.2031932803   -0.0850163730
9.8002e+09   -0.3986510913   -0.1156544357    0.2124476616   -0.7146499465    0.2124476616   -0.7146499465   -0.2150482438   -0.0693802065
9.9002e+09   -0.4117044185   -0.0875266454    0.1615068829   -0.7247791107    0.1615068829   -0.7247791107   -0.2245382022   -0.0523970316
1.0000e+10   -0.4206443329   -0.0580689202    0.1105925971   -0.7320090304    0.1105925971   -0.7320090304   -0.2315514512   -0.0343905482
1.0100e+10   -0.4253854479   -0.0278134751    0.0596998023   -0.7364454504    0.0596998023   -0.7364454504   -0.2360092841   -0.0156833019
1.0200e+10   -0.4258912413    0.0027130399    0.0088050390   -0.7381486503    0.0088050390   -0.7381486503   -0.2378629570    0.0034032025
1.0300e+10   -0.4221711427    0.0329879981    0.0421229225    0.7371318235    0.0421229225    0.7371318235   -0.2370917631    0.0225475696
1.0400e+10   -0.4142798201    0.0624908077    0.0931124798    0.7333610939    0.0931124798    0.7333610939   -0.2337023325    0.0414271597
1.0500e+10   -0.4023196197    0.0907011619    0.1441785102    0.7267562974    0.1441785102    0.7267562974   -0.2277305828    0.0597170741
1.0600e+10   -0.3864432220    0.1170989907    0.1953127052    0.7171939595    0.1953127052    0.7171939595   -0.2192427228    0.0770894258
1.0700e+10   -0.3668606095    0.1411649768    0.2464718636    0.7045109376    0.2464718636    0.7045109376   -0.2083402306    0.0932136407
1.0800e+10   -0.3438444118    0.1623834915    0.2975674867    0.6885117414    0.2975674867    0.6885117414   -0.1951628355    0.1077575407
1.0900e+10   -0.3177404895    0.1802500466    0.3484555515    0.6689753239    0.3484555515    0.6689753239   -0.1798961313    0.1203916615
1.1000e+10   -0.2889744205    0.1942807971    0.3989267058    0.6456672712    0.3989267058    0.6456672712   -0.1627757214    0.1307944763
1.1100e+10   -0.2580587811    0.2040267517    0.4486981849    0.6183536789    0.4486981849    0.6183536789   -0.1440927879    0.1386608805
1.1200e+10   -0.2255975063    0.2090921491    0.4974080237    0.5868185417    0.4974080237    0.5868185417   -0.1241979016    0.1437131582
1.1300e+10   -0.1922860689    0.2091566160    0.5446128948    0.5508838224    0.5446128948    0.5508838224   -0.1035022808    0.1457147500
1.1400e+10   -0.1589059592    0.2040003144    0.5897904554    0.5104327059    0.5897904554    0.5104327059   -0.0824760195    0.1444860790
1.1500e+10   -0.1263107202    0.1935310983    0.6323498768    0.4654312419    0.6323498768    0.4654312419   -0.0616411239    0.1399222928
1.1600e+10   -0.0954036036    0.1778084331    0.6716466386    0.4159531145    0.6716466386    0.4159531145   -0.0415587835    0.1320089722
1.1700e+10   -0.0671069397    0.1570657900    0.7070064878    0.3621983620    0.7070064878    0.3621983620   -0.0228120807    0.1208380580
1.1800e+10   -0.0423219290    0.1317238091    0.7377561561    0.3045072970    0.7377561561    0.3045072970   -0.0059818316    0.1066180271
1.1900e+10   -0.0218828199    0.1023927807    0.7632593500    0.2433653476    0.7632593500    0.2433653476    0.0083815442    0.0896783094
1.2000e+10   -0.0065084057    0.0698613721    0.7829551970    0.1793973833    0.7829551970    0.1793973833    0.0197885117    0.0704649749
1.2100e+10    0.0032440387    0.0350704185    0.7963952648    0.1133500796    0.7963952648    0.1133500796    0.0278403575    0.0495271933
1.2200e+10    0.0070175801   -0.0009267809    0.8032751825    0.0460628175    0.8032751825    0.0460628175    0.0322554313    0.0274952211
1.2300e+10    0.0046815433   -0.0370140626    0.8034567754   -0.0215698372    0.8034567754   -0.0215698372    0.0328881506    0.0050516096
1.2400e+10   -0.0036597035   -0.0720765499    0.7969775597   -0.0886438492    0.7969775597   -0.0886438492    0.0297376849   -0.0171089683
1.2500e+10   -0.0176743419   -0.1050544817    0.7840466719   -0.1542892723    0.7840466719   -0.1542892723    0.0229465296   -0.0383124497
1.2600e+10   -0.0368293519   -0.1349925720    0.7650280014   -0.2177086423    0.7650280014   -0.2177086423    0.0127869726   -0.0579367372
1.2700e+10   -0.0604240453   -0.1610843933    0.7404125373   -0.2782140735    0.7404125373   -0.2782140735   -0.0003560641   -0.0754414491
1.2800e+10   -0.0876370067   -0.1827012366    0.7107835502   -0.3352470391    0.7107835502   -0.3352470391   -0.0160125989   -0.0903887819
1.2900e+10   -0.1175751140   -0.1994039925    0.6767790887   -0.3883895639    0.6767790887   -0.3883895639   -0.0336572184   -0.1024535188
1.3000e+10   -0.1493201659   -0.2109419550    0.6390554217   -0.4373636552    0.6390554217   -0.4373636552   -0.0527377057   -0.1114250951
1.3100e+10   -0.1819695715   -0.2172403403    0.5982547097   -0.4820215788    0.5982547097   -0.4820215788   -0.0727009811   -0.1172022891
1.3200e+10   -0.2146692976   -0.2183802170    0.5549789957   -0.5223285254    0.5549789957   -0.5223285254   -0.0930145558   -0.1197829639
1.3300e+10   -0.2466353786   -0.2145704723    0.5097712291   -0.5583439462    0.5097712291   -0.5583439462   -0.1131808542   -0.1192475302
1.3400e+10   -0.2771718632   -0.2061253760    0.4631025425   -0.5901964139    0.4631025425   -0.5901964139   -0.1327507469   -0.1157471427
1.3500e+10   -0.3056735959   -0.1934361962    0.4153695616   -0.6180618762    0.4153695616   -0.6180618762   -0.1513261817   -0.1094855897
1.3600e+10   -0.3316297494   -0.1769487245    0.3668907411   -0.6421449045    0.3668907411   -0.6421449045   -0.1685637267   -0.1007060660
1.3700e+10   -0.3546182377   -0.1571444777    0.3179124611   -0.6626593857    0.3179124611   -0.6626593857   -0.1841724989   -0.0896790868
1.3800e+10   -0.3742994690   -0.1345257204    0.2686151649   -0.6798139476    0.2686151649   -0.6798139476   -0.1979108632   -0.0766929638
1.3900e+10   -0.3904083019   -0.1096045678    0.2191218081   -0.6937999261    0.2191218081   -0.6937999261   -0.2095823385   -0.0620465658
1.4000e+10   -0.4027459575   -0.0828957768    0.1695074553   -0.7047821317    0.1695074553   -0.7047821317   -0.2190309699   -0.0460444246
1.4100e+10   -0.4111724745   -0.0549124435    0.1198092896   -0.7128918509    0.1198092896   -0.7128918509   -0.2261368053   -0.0289938757
1.4200e+10   -0.4156006271   -0.0261643822    0.0700370206   -0.7182220140    0.0700370206   -0.7182220140   -0.2308122790   -0.0112034973
