! Port 1 = P1 P2 
! Port 2 = P2 P2 
# hz S ri R 50
! freq  reS11  imS11  reS21  imS21  reS12  imS12  reS22  imS22  
!
2.5000e+05   -0.0724887144   -0.0000606366    1.0724777308   -0.0002799998    1.0724777308   -0.0002799998   -0.0724915736   -0.0001194577
1.0025e+08   -0.0734120532   -0.0199078988    1.0669715299   -0.0917116451    1.0669715299   -0.0917116451   -0.0751533141   -0.0391749817
2.0025e+08   -0.0774294073   -0.0395968015    1.0528656116   -0.1813653590    1.0528656116   -0.1813653590   -0.0841116557   -0.0773689014
3.0025e+08   -0.0843922009   -0.0586406082    1.0304692994   -0.2684486401    1.0304692994   -0.2684486401   -0.0989925756   -0.1136918991
4.0025e+08   -0.0942636762   -0.0765363953    1.0003687420   -0.3520801397    1.0003687420   -0.3520801397   -0.1194483283   -0.1471564166
5.0025e+08   -0.1068757057   -0.0927476848    0.9632478839   -0.4315580283    0.9632478839   -0.4315580283   -0.1449262817   -0.1768269448
6.0025e+08   -0.1219173330   -0.1067758719    0.9198160562   -0.5063402392    0.9198160562   -0.5063402392   -0.1746838945   -0.2018957816
7.0025e+08   -0.1389580165   -0.1182083315    0.8707877502   -0.5760069817    0.8707877502   -0.5760069817   -0.2078282465   -0.2217285238
8.0025e+08   -0.1574856764   -0.1267423878    0.8168794088   -0.6402406187    0.8168794088   -0.6402406187   -0.2433677912   -0.2358866222
9.0025e+08   -0.1769736813   -0.1322148279    0.7587681106   -0.6988454438    0.7587681106   -0.6988454438   -0.2803057273   -0.2441598333
1.0002e+09   -0.1968755904   -0.1345560937    0.6971263737   -0.7516956886    0.6971263737   -0.7516956886   -0.3176322692   -0.2465054077
1.1002e+09   -0.2166778503   -0.1338049368    0.6325734401   -0.7987588594    0.6325734401   -0.7987588594   -0.3544022703   -0.2430619009
1.2002e+09   -0.2358959220   -0.1300784902    0.5656887570   -0.8400662485    0.5656887570   -0.8400662485   -0.3897330163   -0.2341069629
1.3002e+09   -0.2540973501   -0.1235650510    0.4969878145   -0.8757078857    0.4969878145   -0.8757078857   -0.4228394717   -0.2200409646
1.4002e+09   -0.2709019706   -0.1145061778    0.4269247754   -0.9058127104    0.4269247754   -0.9058127104   -0.4530363453   -0.2013580606
1.5002e+09   -0.2859795430   -0.1031837379    0.3558981730   -0.9305330924    0.3558981730   -0.9305330924   -0.4797364738   -0.1786239708
1.6002e+09   -0.2990587462   -0.0899110046    0.2842424471   -0.9500331557    0.2842424471   -0.9500331557   -0.5024626718   -0.1524577526
1.7002e+09   -0.3099198276   -0.0750222541    0.2122409867   -0.9644749979    0.2122409867   -0.9644749979   -0.5208375930   -0.1235139782
1.8002e+09   -0.3184059435   -0.0588633771    0.1401140504   -0.9740069530    0.1401140504   -0.9740069530   -0.5345961754   -0.0924639851
1.9002e+09   -0.3243725871   -0.0417947973    0.0680976049   -0.9787629343    0.0680976049   -0.9787629343   -0.5435217869   -0.0600059366
2.0002e+09   -0.3277561313   -0.0241761915    0.0036489011    0.9788485689    0.0036489011    0.9788485689   -0.5475296968   -0.0268278782
2.1002e+09   -0.3285280198   -0.0063677537    0.0749708739    0.9743410892    0.0749708739    0.9743410892   -0.5466083627    0.0063844691
2.2002e+09   -0.3267040360    0.0112750805    0.1457248199    0.9652857270    0.1457248199    0.9652857270   -0.5408292965    0.0389585915
2.3002e+09   -0.3223354664    0.0283995643    0.2157536322    0.9517016014    0.2157536322    0.9517016014   -0.5303363555    0.0702327395
2.4002e+09   -0.3155189669    0.0446640844    0.2848961696    0.9335780028    0.2848961696    0.9335780028   -0.5153560525    0.0995712576
2.5002e+09   -0.3063904333    0.0597376960    0.3529664890    0.9108825323    0.3529664890    0.9108825323   -0.4961898724    0.1263645352
2.6002e+09   -0.2951269121    0.0733045519    0.4197490136    0.8835664883    0.4197490136    0.8835664883   -0.4732165013    0.1500378939
2.7002e+09   -0.2819469523    0.0850683710    0.4849916053    0.8515725902    0.4849916053    0.8515725902   -0.4468912631    0.1700602064
2.8002e+09   -0.2671105089    0.0947573380    0.5483991605    0.8148453287    0.5483991605    0.8148453287   -0.4177450855    0.1859536993
2.9002e+09   -0.2509185183    0.1021308167    0.6096313874    0.7733413066    0.6096313874    0.7733413066   -0.3863824118    0.1973061748
3.0002e+09   -0.2337110617    0.1069857340    0.6682996518    0.7270433640    0.6682996518    0.7270433640   -0.3534766333    0.2037836483
3.1002e+09   -0.2158644047    0.1091652466    0.7239711282    0.6759718649    0.7239711282    0.6759718649   -0.3197625237    0.2051457431
3.2002e+09   -0.1977858114    0.1085661306    0.7761716399    0.6202001109    0.7761716399    0.6202001109   -0.2860252151    0.2012591801
3.3002e+09   -0.1799084075    0.1051453750    0.8243836738    0.5598838415    0.8243836738    0.5598838415   -0.2530904489    0.1921116489
3.4002e+09   -0.1626737193    0.0989347986    0.8681035673    0.4952070768    0.8681035673    0.4952070768   -0.2217838761    0.1778268778
3.5002e+09   -0.1465310105    0.0900337466    0.9067876359    0.4264895871    0.9067876359    0.4264895871   -0.1929389062    0.1586656431
3.6002e+09   -0.1319165762    0.0786220289    0.9399172085    0.3541304671    0.9399172085    0.3541304671   -0.1673495112    0.1350365632
3.7002e+09   -0.1192385101    0.0649566754    0.9670110815    0.2786154163    0.9670110815    0.2786154163   -0.1457433015    0.1074891985
3.8002e+09   -0.1088627360    0.0493689196    0.9876407416    0.2005281396    0.9876407416    0.2005281396   -0.1287558857    0.0767072562
3.9002e+09   -0.1010961653    0.0322562369    1.0014554179    0.1205322770    1.0014554179    0.1205322770   -0.1168997229    0.0434897696
4.0002e+09   -0.0961730345    0.0140688223    1.0082006026    0.0393533604    1.0082006026    0.0393533604   -0.1105402302    0.0087240230
4.1002e+09   -0.0942394535   -0.0046950215    1.0077307358   -0.0422355098    1.0077307358   -0.0422355098   -0.1098722075   -0.0266320818
4.2002e+09   -0.0953471475   -0.0235281555    1.0000195647   -0.1234384455    1.0000195647   -0.1234384455   -0.1149102119   -0.0616104843
4.3002e+09   -0.0994631103   -0.0419204707    0.9851638958   -0.2034629747    0.9851638958   -0.2034629747   -0.1255006860   -0.0952547141
4.4002e+09   -0.1064602413   -0.0593710955    0.9633791351   -0.2815453151    0.9633791351   -0.2815453151   -0.1413161392   -0.1266481382
4.5002e+09   -0.1161201759   -0.0754208161    0.9349888850   -0.3569743354    0.9349888850   -0.3569743354   -0.1618665269   -0.1549643217
4.6002e+09   -0.1281506666   -0.0896626908    0.9004096572   -0.4291115420    0.9004096572   -0.4291115420   -0.1865301945   -0.1794891791
4.7002e+09   -0.1421972165   -0.1017534060    0.8601342363   -0.4974012055    0.8601342363   -0.4974012055   -0.2145790690   -0.1996406692
4.8002e+09   -0.1578601987   -0.1114241757    0.8147064487   -0.5613871819    0.8147064487   -0.5613871819   -0.2452128184   -0.2149857636
4.9002e+09   -0.1747100221   -0.1184836879    0.7647017521   -0.6207110471    0.7647017521   -0.6207110471   -0.2775887049   -0.2252437297
5.0002e+09   -0.1923038643   -0.1228194520    0.7107044461   -0.6751124961    0.7107044461   -0.6751124961   -0.3108532397   -0.2302854386
5.1002e+09   -0.2101997595   -0.1243945930    0.6532900166   -0.7244215956    0.6532900166   -0.7244215956   -0.3441690778   -0.2301248190
5.2002e+09   -0.2279696136   -0.1232426589    0.5930091765   -0.7685488628    0.5930091765   -0.7685488628   -0.3767379582   -0.2249066421
5.3002e+09   -0.2452092366   -0.1194603217    0.5303761858   -0.8074728789    0.5303761858   -0.8074728789   -0.4078193196   -0.2148906247
5.4002e+09   -0.2615465089   -0.1131990974    0.4658603544   -0.8412265745    0.4658603544   -0.8412265745   -0.4367439094   -0.2004342655
5.5002e+09   -0.2766519766   -0.1046557769    0.3998685171   -0.8698873605    0.3998685171   -0.8698873605   -0.4629301633   -0.1819725234
5.6002e+09   -0.2902214881   -0.0940670642    0.3327967897   -0.8935453425    0.3327967897   -0.8935453425   -0.4858586419   -0.1600112897
5.7002e+09   -0.3020095450   -0.0816977634    0.2649530174   -0.9123195532    0.2649530174   -0.9123195532   -0.5051206742   -0.1350976838
5.8002e+09   -0.3118079220   -0.0678361261    0.1966153624   -0.9263266413    0.1966153624   -0.9263266413   -0.5203858538   -0.1078156858
5.9002e+09   -0.3194524775   -0.0527866397    0.1280198246   -0.9356775201    0.1280198246   -0.9356775201   -0.5314100241   -0.0787709070
6.0002e+09   -0.3248201795   -0.0368657162    0.0593732139   -0.9404694330    0.0593732139   -0.9404694330   -0.5380304720   -0.0485828533
6.1002e+09   -0.3278291012   -0.0203970832    0.0091417607    0.9407809227    0.0091417607    0.9407809227   -0.5401641381   -0.0178756375
6.2002e+09   -0.3284373145   -0.0037082240    0.0773573762    0.9366683541    0.0773573762    0.9366683541   -0.5378047823    0.0127284483
6.3002e+09   -0.3266421430    0.0128726578    0.1451119518    0.9281643662    0.1451119518    0.9281643662   -0.5310209254    0.0426150873
6.4002e+09   -0.3224799447    0.0290199129    0.2122421817    0.9152778260    0.2122421817    0.9152778260   -0.5199542914    0.0711839701
6.5002e+09   -0.3160258049    0.0444129787    0.2785734638    0.8979960277    0.2785734638    0.8979960277   -0.5048190292    0.0978541750
6.6002e+09   -0.3073939946    0.0587397753    0.3439121317    0.8762881051    0.3439121317    0.8762881051   -0.4859006501    0.1220704408
6.7002e+09   -0.2967382963    0.0717002689    0.4080380799    0.8501107450    0.4080380799    0.8501107450   -0.4635564123    0.1433103344
6.8002e+09   -0.2842525167    0.0830108954    0.4706987772    0.8194149458    0.4706987772    0.8194149458   -0.4382143620    0.1610926466
6.9002e+09   -0.2701705367    0.0924097569    0.5316043606    0.7841544197    0.5316043606    0.7841544197   -0.4103718624    0.1749871426
7.0002e+09   -0.2547658076    0.0996623852    0.5904238960    0.7442960400    0.5904238960    0.7442960400   -0.3805932387    0.1846251749
7.1002e+09   -0.2383499235    0.1045685915    0.6467844935    0.6998308349    0.6467844935    0.6998308349   -0.3495048584    0.1897120172
7.2002e+09   -0.2212698722    0.1069697587    0.7002723494    0.6507864012    0.7002723494    0.6507864012   -0.3177880624    0.1900395316
7.3002e+09   -0.2039033314    0.1067565855    0.7504379167    0.5972386111    0.7504379167    0.5972386111   -0.2861683655    0.1854993470
7.4002e+09   -0.1866523312    0.1038766686    0.7968026761    0.5393238529    0.7968026761    0.5393238529   -0.2554013407    0.1760950186
7.5002e+09   -0.1699345211    0.0983411824    0.8388699922    0.4772501589    0.8388699922    0.4772501589   -0.2262550554    0.1619519480
7.6002e+09   -0.1541723784    0.0902306094    0.8761390271    0.4113054430    0.8761390271    0.4113054430   -0.1994881261    0.1433251687
7.7002e+09   -0.1397804646    0.0796978884    0.9081211555    0.3418641553    0.9081211555    0.3418641553   -0.1758256250    0.1206018000
7.8002e+09   -0.1271508896    0.0669690900    0.9343598904    0.2693857347    0.9343598904    0.2693857347   -0.1559318736    0.0942981319
7.9002e+09   -0.1166388341    0.0523405710    0.9544488851    0.1944143842    0.9544488851    0.1944143842   -0.1403843528    0.0650508570
8.0002e+09   -0.1085477638    0.0361725069    0.9680515889    0.1175698599    0.9680515889    0.1175698599   -0.1296479084    0.0336010678
8.1002e+09   -0.1031154149    0.0188791056    0.9749184768    0.0395341654    0.9749184768    0.0395341654   -0.1240518666    0.0007724334
8.2002e+09   -0.1005016860    0.0009198509    0.9749006323   -0.0389664230    0.9749006323   -0.0389664230   -0.1237717838   -0.0325513269
8.3002e+09   -0.1007822631   -0.0172302891    0.9679593214   -0.1171808855    0.9679593214   -0.1171808855   -0.1288208639   -0.0654741793
8.4002e+09   -0.1039468991   -0.0350875350    0.9541695021   -0.1943595060    0.9541695021   -0.1943595060   -0.1390502243   -0.0971093530
8.5002e+09   -0.1098996188   -0.0521739482    0.9337174426   -0.2697745314    0.9337174426   -0.2697745314   -0.1541544531   -0.1266082256
8.6002e+09   -0.1184585766   -0.0680434083    0.9068927374   -0.3427424522    0.9068927374   -0.3427424522   -0.1736795247   -0.1532018508
8.7002e+09   -0.1293681417   -0.0822946428    0.8740746787   -0.4126444878    0.8740746787   -0.4126444878   -0.1970475063   -0.1762242835
8.8002e+09   -0.1423107617   -0.0945832908    0.8357156126   -0.4789397495    0.8357156126   -0.4789397495   -0.2235819207   -0.1951320252
8.9002e+09   -0.1569206002   -0.1046309840    0.7923215949   -0.5411752851    0.7923215949   -0.5411752851   -0.2525361806   -0.2095170202
9.0002e+09   -0.1727987831   -0.1122314547    0.7444319826   -0.5989898928    0.7444319826   -0.5989898928   -0.2831226193   -0.2191133224
9.1002e+09   -0.1895281720   -0.1172520005    0.6925997983   -0.6521140369    0.6925997983   -0.6521140369   -0.3145412498   -0.2237957516
9.2002e+09   -0.2066874945   -0.1196322093    0.6373737885   -0.7003645053    0.6373737885   -0.7003645053   -0.3460050638   -0.2235734629
9.3002e+09   -0.2238638395   -0.1193799545    0.5792832400   -0.7436358838    0.5792832400   -0.7436358838   -0.3767621353   -0.2185788803
9.4002e+09   -0.2406630971   -0.1165652613    0.5188261652   -0.7818894931    0.5188261652   -0.7818894931   -0.4061132240   -0.2090535473
9.5002e+09   -0.2567180577   -0.1113130869    0.4564611478   -0.8151407846    0.4564611478   -0.8151407846   -0.4334248214   -0.1953322760
9.6002e+09   -0.2716949587   -0.1037956880    0.3926018405   -0.8434462828    0.3926018405   -0.8434462828   -0.4581384445   -0.1778269865
9.7002e+09   -0.2852970072   -0.0942241871    0.3276148411   -0.8668914850    0.3276148411   -0.8668914850   -0.4797759873   -0.1570102516
9.8002e+09   -0.2972670496   -0.0828415241    0.2618215378   -0.8855779856    0.2618215378   -0.8855779856   -0.4979414770   -0.1334013536
9.9002e+09   -0.3073885713   -0.0699155237    0.1955007948   -0.8996133327    0.1955007948   -0.8996133327   -0.5123215391   -0.1075529010
1.0000e+10   -0.3154858588   -0.0557328543    0.1288940642   -0.9091020852    0.1288940642   -0.9091020852   -0.5226839262   -0.0800397354
1.0100e+10   -0.3214236355   -0.0405938869    0.0622115868   -0.9141383229    0.0622115868   -0.9141383229   -0.5288747859   -0.0514491988
1.0200e+10   -0.3251062292   -0.0248083378    0.0043603193    0.9148004559    0.0043603193    0.9148004559   -0.5308165297   -0.0223732076
1.0300e+10   -0.3264768943   -0.0086915302    0.0706513745    0.9111472204    0.0706513745    0.9111472204   -0.5285047384    0.0065986307
1.0400e+10   -0.3255170128    0.0074387745    0.1364991260    0.9032160448    0.1364991260    0.9032160448   -0.5220059608    0.0348848772
1.0500e+10   -0.3222465578    0.0232653974    0.2017404162    0.8910223814    0.2017404162    0.8910223814   -0.5114569712    0.0619178372
1.0600e+10   -0.3167229062    0.0384748845    0.2662046652    0.8745615137    0.2662046652    0.8745615137   -0.4970619394    0.0871494588
1.0700e+10   -0.3090422828    0.0527605470    0.3297047672    0.8538111264    0.3297047672    0.8538111264   -0.4790932578    0.1100569138
1.0800e+10   -0.2993380903    0.0658252151    0.3920303074    0.8287372426    0.3920303074    0.8287372426   -0.4578883898    0.1301485646
1.0900e+10   -0.2877842052    0.0773865607    0.4529417543    0.7992987442    0.4529417543    0.7992987442   -0.4338522624    0.1469726710
1.1000e+10   -0.2745933634    0.0871811440    0.5121653017    0.7654563211    0.5121653017    0.7654563211   -0.4074538534    0.1601255198
1.1100e+10   -0.2600173047    0.0949701501    0.5693894980    0.7271812704    0.5693894980    0.7271812704   -0.3792238922    0.1692614578
1.1200e+10   -0.2443456152    0.1005458014    0.6242637091    0.6844659286    0.6242637091    0.6844659286   -0.3497504651    0.1741038401
1.1300e+10   -0.2279034618    0.1037382559    0.6763989980    0.6373348051    0.6763989980    0.6373348051   -0.3196724902    0.1744567167
1.1400e+10   -0.2110477551    0.1044228889    0.7253708958    0.5858570595    0.7253708958    0.5858570595   -0.2896702300    0.1702163934
1.1500e+10   -0.1941615762    0.1025286799    0.7707275909    0.5301553014    0.7707275909    0.5301553014   -0.2604520496    0.1613836819
1.1600e+10   -0.1776456936    0.0980431715    0.8119977932    0.4704188262    0.8119977932    0.4704188262   -0.2327380291    0.1480713990
1.1700e+10   -0.1619096805    0.0910196566    0.8487035181    0.4069109432    0.8487035181    0.4069109432   -0.2072410696    0.1305127957
1.1800e+10   -0.1473598164    0.0815807351    0.8803753587    0.3399751285    0.8803753587    0.3399751285   -0.1846442317    0.1090641286
1.1900e+10   -0.1343859151    0.0699197562    0.9065696567    0.2700373965    0.9065696567    0.2700373965   -0.1655764333    0.0842025836
1.2000e+10   -0.1233471323    0.0562993633    0.9268869365    0.1976043254    0.9268869365    0.1976043254   -0.1505875683    0.0565187454
1.2100e+10   -0.1145576747    0.0410465184    0.9409900885    0.1232564721    0.9409900885    0.1232564721   -0.1401244856    0.0267026312
1.2200e+10   -0.1082728908    0.0245446380    0.9486211486    0.0476368680    0.9486211486    0.0476368680   -0.1345092511   -0.0044755072
1.2300e+10   -0.1046776138    0.0072234750    0.9496152648   -0.0285640752    0.9496152648   -0.0285640752   -0.1339222894   -0.0361884647
1.2400e+10   -0.1038781771   -0.0104613947    0.9439109152   -0.1046292515    0.9439109152   -0.1046292515   -0.1383929539   -0.0675887617
1.2500e+10   -0.1058968522   -0.0280411830    0.9315544736   -0.1798356827    0.9315544736   -0.1798356827   -0.1477957428   -0.0978353275
1.2600e+10   -0.1106731795   -0.0450488409    0.9126998488   -0.2534742877    0.9126998488   -0.2534742877   -0.1618571283   -0.1261221480
1.2700e+10   -0.1180625462   -0.0610378975    0.8876018805   -0.3248756848    0.8876018805   -0.3248756848   -0.1801628160   -0.1517104180
1.2800e+10   -0.1278448047   -0.0756000304    0.8566053864   -0.3934258484    0.8566053864   -0.3934258484   -0.2021775679   -0.1739559414
1.2900e+10   -0.1397348239   -0.0883773977    0.8201298926   -0.4585820395    0.8201298926   -0.4585820395   -0.2272688411   -0.1923280019
1.3000e+10   -0.1533952063   -0.0990728085    0.7786518003   -0.5198833551    0.7786518003   -0.5198833551   -0.2547334024   -0.2064230965
1.3100e+10   -0.1684502726   -0.1074566593    0.7326851294   -0.5769564602    0.7326851294   -0.5769564602   -0.2838250387   -0.2159717701
1.3200e+10   -0.1845011725   -0.1133708316    0.6827627314   -0.6295155553    0.6827627314   -0.6295155553   -0.3137819782   -0.2208399273
1.3300e+10   -0.2011374309   -0.1167257167    0.6294180330   -0.6773613445    0.6294180330   -0.6773613445   -0.3438494981   -0.2210199074
1.3400e+10   -0.2179538106   -0.1175022061    0.5731694167   -0.7203706802    0.5731694167   -0.7203706802   -0.3733058419   -0.2166265005
1.3500e+10   -0.2345575299   -0.1157431211    0.5145106049   -0.7584869625    0.5145106049   -0.7584869625   -0.4014755314   -0.2078798863
1.3600e+10   -0.2505793049   -0.1115478568    0.4538974808   -0.7917110028    0.4538974808   -0.7917110028   -0.4277458541   -0.1950917686
1.3700e+10   -0.2656791819   -0.1050648911    0.3917449851   -0.8200865215    0.3917449851   -0.8200865215   -0.4515745209   -0.1786497717
1.3800e+10   -0.2795515385   -0.0964842321    0.3284237906   -0.8436884526    0.3284237906   -0.8436884526   -0.4724958067   -0.1590021065
1.3900e+10   -0.2919281001   -0.0860300238    0.2642603831   -0.8626112427    0.2642603831   -0.8626112427   -0.4901234385   -0.1366433680
1.4000e+10   -0.3025797144   -0.0739537718    0.1995394160   -0.8769582435    0.1995394160   -0.8769582435   -0.5041507032   -0.1121013828
1.4100e+10   -0.3113168079   -0.0605281376    0.1345079828   -0.8868326858    0.1345079828   -0.8868326858   -0.5143495448   -0.0859262153
1.4200e+10   -0.3179893413   -0.0460417126    0.0693816735   -0.8923300927    0.0693816735   -0.8923300927   -0.5205679633   -0.0586805177
