! Port 1 = P1 P2 
! Port 2 = P2 P2 
# hz S ri R 50
! freq  reS11  imS11  reS21  imS21  reS12  imS12  reS22  imS22  
!
2.5000e+05    0.0053822771   -0.0001024524    0.9946160667   -0.0002676700    0.9946160667   -0.0002676700    0.0053822804   -0.0001024524
1.0025e+08    0.0030052644   -0.0335645969    0.9890932880   -0.0876414617    0.9890932880   -0.0876414617    0.0030052689   -0.0335645916
2.0025e+08   -0.0049465898   -0.0662032645    0.9747328941   -0.1731224056    0.9747328941   -0.1731224056   -0.0049465915   -0.0662032649
3.0025e+08   -0.0181053469   -0.0970764003    0.9519379091   -0.2557442172    0.9519379091   -0.2557442172   -0.0181053431   -0.0970764030
4.0025e+08   -0.0360986991   -0.1252820116    0.9214150033   -0.3344978195    0.9214150033   -0.3344978195   -0.0360986971   -0.1252820151
5.0025e+08   -0.0583604123   -0.1499939689    0.8840084372   -0.4085961369    0.8840084372   -0.4085961369   -0.0583604075   -0.1499939722
6.0025e+08   -0.0841566201   -0.1705323805    0.8406123594   -0.4774675853    0.8406123594   -0.4774675853   -0.0841566070   -0.1705323807
7.0025e+08   -0.1126342746   -0.1864018255    0.7921297813   -0.5407240682    0.7921297813   -0.5407240682   -0.1126342679   -0.1864018236
8.0025e+08   -0.1428779471   -0.1973041682    0.7394487195   -0.5981371952    0.7394487195   -0.5981371952   -0.1428779600   -0.1973041585
9.0025e+08   -0.1739984145   -0.2031542707    0.6833843475   -0.6496440953    0.6833843475   -0.6496440953   -0.1739984209   -0.2031542717
1.0002e+09   -0.2051288340   -0.2040177991    0.6247055275   -0.6952851643    0.6247055275   -0.6952851643   -0.2051288257   -0.2040177869
1.1002e+09   -0.2354902605   -0.2001098265    0.5640815440   -0.7352092612    0.5640815440   -0.7352092612   -0.2354902661   -0.2001098395
1.2002e+09   -0.2643850384   -0.1917502710    0.5020965494   -0.7696329186    0.5020965494   -0.7696329186   -0.2643850564   -0.1917502849
1.3002e+09   -0.2912197972   -0.1793421441    0.4392299082   -0.7988227448    0.4392299082   -0.7988227448   -0.2912197976   -0.1793421465
1.4002e+09   -0.3154992742   -0.1633431225    0.3758650948   -0.8230681715    0.3758650948   -0.8230681715   -0.3154992877   -0.1633431200
1.5002e+09   -0.3368169003   -0.1442455603    0.3123019456   -0.8426608707    0.3123019456   -0.8426608707   -0.3368168617   -0.1442455774
1.6002e+09   -0.3548571698   -0.1225613109    0.2487558117   -0.8578794008    0.2487558117   -0.8578794008   -0.3548571794   -0.1225613386
1.7002e+09   -0.3693807025   -0.0988097494    0.1853765903   -0.8689745319    0.1853765903   -0.8689745319   -0.3693806912   -0.0988097405
1.8002e+09   -0.3802291230   -0.0735054948    0.1222442135   -0.8761570985    0.1222442135   -0.8761570985   -0.3802291428   -0.0735054691
1.9002e+09   -0.3872696209   -0.0471715993    0.0594440433   -0.8796010769    0.0594440433   -0.8796010769   -0.3872695874   -0.0471715969
2.0002e+09   -0.3904597725   -0.0203133007    0.0030105926    0.8794263091    0.0030105926    0.8794263091   -0.3904597564   -0.0203132986
2.1002e+09   -0.3897987962    0.0065699045    0.0651102707    0.8757027137    0.0651102707    0.8757027137   -0.3897987839    0.0065699127
2.2002e+09   -0.3853354909    0.0329884389    0.1268515622    0.8684474962    0.1268515622    0.8684474962   -0.3853354822    0.0329884238
2.3002e+09   -0.3771607235    0.0584558709    0.1882121382    0.8576318368    0.1882121382    0.8576318368   -0.3771606985    0.0584558760
2.4002e+09   -0.3654176369    0.0824970996    0.2491555035    0.8431780739    0.2491555035    0.8431780739   -0.3654176356    0.0824971140
2.5002e+09   -0.3502988596    0.1046446365    0.3096094973    0.8249686420    0.3096094973    0.8249686420   -0.3502988687    0.1046446272
2.6002e+09   -0.3320518342    0.1244426942    0.3694581618    0.8028522738    0.3694581618    0.8028522738   -0.3320518304    0.1244426875
2.7002e+09   -0.3109833118    0.1414521925    0.4285315997    0.7766532680    0.4285315997    0.7766532680   -0.3109833077    0.1414521884
2.8002e+09   -0.2874639656    0.1552577359    0.4865961593    0.7461838924    0.4865961593    0.7461838924   -0.2874639655    0.1552577604
2.9002e+09   -0.2619322678    0.1654784333    0.5433484085    0.7112579047    0.5433484085    0.7112579047   -0.2619322535    0.1654784452
3.0002e+09   -0.2348967124    0.1717801312    0.5984087402    0.6717090723    0.5984087402    0.6717090723   -0.2348967033    0.1717801220
3.1002e+09   -0.2069348294    0.1738921249    0.6513224497    0.6274085580    0.6513224497    0.6274085580   -0.2069348383    0.1738921248
3.2002e+09   -0.1786885470    0.1716240228    0.7015614104    0.5782875029    0.7015614104    0.5782875029   -0.1786885474    0.1716240421
3.3002e+09   -0.1508586558    0.1648842619    0.7485229990    0.5243732653    0.7485229990    0.5243732653   -0.1508586636    0.1648842628
3.4002e+09   -0.1241713594    0.1537012640    0.7915885721    0.4657511176    0.7915885721    0.4657511176   -0.1241713490    0.1537012589
3.5002e+09   -0.0993822855    0.1382319675    0.8300788790    0.4026695834    0.8300788790    0.4026695834   -0.0993822765    0.1382319613
3.6002e+09   -0.0772319826    0.1187788090    0.8633259824    0.3354979120    0.8633259824    0.3354979120   -0.0772319711    0.1187788008
3.7002e+09   -0.0584152605    0.0957894499    0.8906982373    0.2647363899    0.8906982373    0.2647363899   -0.0584152486    0.0957894499
3.8002e+09   -0.0435498087    0.0698535871    0.9116288691    0.1910267096    0.9116288691    0.1910267096   -0.0435498012    0.0698535877
3.9002e+09   -0.0331397425    0.0416861033    0.9256547663    0.1151301479    0.9256547663    0.1151301479   -0.0331397304    0.0416861001
4.0002e+09   -0.0275455625    0.0120990005    0.9324467391    0.0379005288    0.9324467391    0.0379005288   -0.0275455513    0.0120989998
4.1002e+09   -0.0269573659   -0.0180215918    0.9318314318   -0.0397428328    0.9318314318   -0.0397428328   -0.0269573643   -0.0180215920
4.2002e+09   -0.0313828326   -0.0477774991    0.9238049850   -0.1168570398    0.9238049850   -0.1168570398   -0.0313828164   -0.0477774897
4.3002e+09   -0.0406587921   -0.0762878089    0.9085342498   -0.1925166783    0.9085342498   -0.1925166783   -0.0406587855   -0.0762878020
4.4002e+09   -0.0544507547   -0.1027227785    0.8863461449   -0.2658531163    0.8863461449   -0.2658531163   -0.0544507424   -0.1027227825
4.5002e+09   -0.0722709141   -0.1263538901    0.8577058966   -0.3360908120    0.8577058966   -0.3360908120   -0.0722709194   -0.1263539135
4.6002e+09   -0.0935146269   -0.1465761583    0.8231870734   -0.4025731533    0.8231870734   -0.4025731533   -0.0935146236   -0.1465761564
4.7002e+09   -0.1174921677   -0.1629242290    0.7834401658   -0.4647743170    0.7834401658   -0.4647743170   -0.1174921593   -0.1629242408
4.8002e+09   -0.1434668319   -0.1750826918    0.7391533287   -0.5223120645    0.7391533287   -0.5223120645   -0.1434668135   -0.1750827045
4.9002e+09   -0.1706869483   -0.1828819701    0.6910217567   -0.5749389384    0.6910217567   -0.5749389384   -0.1706869311   -0.1828819995
5.0002e+09   -0.1984165036   -0.1862893089    0.6397169997   -0.6225327900    0.6397169997   -0.6225327900   -0.1984164769   -0.1862893272
5.1002e+09   -0.2259581688   -0.1853930049    0.5858651282   -0.6650782352    0.5858651282   -0.6650782352   -0.2259581450   -0.1853930489
5.2002e+09   -0.2526709634   -0.1803841158    0.5300299605   -0.7026464878    0.5300299605   -0.7026464878   -0.2526709587   -0.1803841501
5.3002e+09   -0.2779812756   -0.1715369486    0.4727034807   -0.7353733613    0.4727034807   -0.7353733613   -0.2779812698   -0.1715370187
5.4002e+09   -0.3013888432   -0.1591901815    0.4143012372   -0.7634382000    0.4143012372   -0.7634382000   -0.3013888400   -0.1591902086
5.5002e+09   -0.3224741678   -0.1437274131    0.3551514557   -0.7870474089    0.3551514557   -0.7870474089   -0.3224741444   -0.1437274640
5.6002e+09   -0.3408717562   -0.1255715746    0.2955471169   -0.8064030962    0.2955471169   -0.8064030962   -0.3408717375   -0.1255715654
5.7002e+09   -0.3563041654   -0.1051607569    0.2356815742   -0.8217111030    0.2356815742   -0.8217111030   -0.3563041414   -0.1051607719
5.8002e+09   -0.3685506183   -0.0829475237    0.1757069429   -0.8331532816    0.1757069429   -0.8331532816   -0.3685506331   -0.0829475603
5.9002e+09   -0.3774502528   -0.0593894124    0.1157278660   -0.8408832065    0.1157278660   -0.8408832065   -0.3774502723   -0.0593894102
6.0002e+09   -0.3828951080   -0.0349462691    0.0558174627   -0.8450191674    0.0558174627   -0.8450191674   -0.3828951364   -0.0349462933
6.1002e+09   -0.3848273884   -0.0100770294    0.0039742535    0.8456401057    0.0039742535    0.8456401057   -0.3848273881   -0.0100770580
6.2002e+09   -0.3832366180    0.0147615979    0.0636087938    0.8427833791    0.0636087938    0.8427833791   -0.3832366169    0.0147615871
6.3002e+09   -0.3781584144    0.0391158769    0.1230479749    0.8364441754    0.1230479749    0.8364441754   -0.3781584337    0.0391158268
6.4002e+09   -0.3696747487    0.0625362667    0.1822442225    0.8265765419    0.1822442225    0.8265765419   -0.3696747595    0.0625362629
6.5002e+09   -0.3579152081    0.0845782454    0.2411286299    0.8130964847    0.2411286299    0.8130964847   -0.3579152174    0.0845782102
6.6002e+09   -0.3430598170    0.1048046567    0.2996012200    0.7958866058    0.2996012200    0.7958866058   -0.3430598596    0.1048046262
6.7002e+09   -0.3253425274    0.1227894438    0.3575207566    0.7748028308    0.3575207566    0.7748028308   -0.3253425398    0.1227894191
6.8002e+09   -0.3050551085    0.1381232416    0.4146961351    0.7496832478    0.4146961351    0.7496832478   -0.3050551173    0.1381232271
6.9002e+09   -0.2825507860    0.1504212755    0.4708785168    0.7203589484    0.4708785168    0.7203589484   -0.2825507975    0.1504212367
7.0002e+09   -0.2582470745    0.1593333330    0.5257549050    0.6866677904    0.5257549050    0.6866677904   -0.2582470779    0.1593333016
7.1002e+09   -0.2326266431    0.1645564542    0.5789448306    0.6484700933    0.5789448306    0.6484700933   -0.2326266610    0.1645564347
7.2002e+09   -0.2062355887    0.1658495972    0.6299999586    0.6056665156    0.6299999586    0.6056665156   -0.2062356123    0.1658495690
7.3002e+09   -0.1796773861    0.1630498997    0.6784090387    0.5582164780    0.6784090387    0.5582164780   -0.1796774203    0.1630498716
7.4002e+09   -0.1536027706    0.1560892335    0.7236065319    0.5061576835    0.7236065319    0.5061576835   -0.1536028100    0.1560892144
7.5002e+09   -0.1286940816    0.1450097786    0.7649874683    0.4496242160    0.7649874683    0.4496242160   -0.1286941111    0.1450097813
7.6002e+09   -0.1056442037    0.1299769806    0.8019279461    0.3888615250    0.8019279461    0.3888615250   -0.1056442388    0.1299769765
7.7002e+09   -0.0851307367    0.1112876894    0.8338103921    0.3242373129    0.8338103921    0.3242373129   -0.0851307674    0.1112876732
7.8002e+09   -0.0677858283    0.0893713605    0.8600541677    0.2562422075    0.8600541677    0.2562422075   -0.0677858553    0.0893713606
7.9002e+09   -0.0541657008    0.0647836848    0.8801451044    0.1854876554    0.8801451044    0.1854876554   -0.0541657262    0.0647836833
8.0002e+09   -0.0447202891    0.0381910527    0.8936661971    0.1126910984    0.8936661971    0.1126910984   -0.0447203084    0.0381910529
8.1002e+09   -0.0397663885    0.0103467402    0.9003239001    0.0386535306    0.9003239001    0.0386535306   -0.0397664062    0.0103467361
8.2002e+09   -0.0394671594   -0.0179357184    0.8999675834   -0.0357705082    0.8999675834   -0.0357705082   -0.0394671950   -0.0179357011
8.3002e+09   -0.0438230500   -0.0458324681    0.8926001408   -0.1097070989    0.8926001408   -0.1097070989   -0.0438230710   -0.0458324678
8.4002e+09   -0.0526738219   -0.0725365064    0.8783780474   -0.1823017731    0.8783780474   -0.1823017731   -0.0526738565   -0.0725365040
8.5002e+09   -0.0657083542   -0.0972903239    0.8576014940   -0.2527514792    0.8576014940   -0.2527514792   -0.0657083691   -0.0972903112
8.6002e+09   -0.0824789385   -0.1194260532    0.8306954619   -0.3203362336    0.8306954619   -0.3203362336   -0.0824789776   -0.1194260443
8.7002e+09   -0.1024311412   -0.1383875972    0.7981829449   -0.3844430879    0.7981829449   -0.3844430879   -0.1024311544   -0.1383875880
8.8002e+09   -0.1249340599   -0.1537454714    0.7606553206   -0.4445792399    0.7606553206   -0.4445792399   -0.1249340605   -0.1537454779
8.9002e+09   -0.1493115589   -0.1652036570    0.7187411202   -0.5003775195    0.7187411202   -0.5003775195   -0.1493115782   -0.1652036441
9.0002e+09   -0.1748724651   -0.1725986511    0.6730765358   -0.5515930645    0.6730765358   -0.5515930645   -0.1748724739   -0.1725986503
9.1002e+09   -0.2009367754   -0.1758910785    0.6242795461   -0.5980937902    0.6242795461   -0.5980937902   -0.2009367802   -0.1758910398
9.2002e+09   -0.2268572144   -0.1751527141    0.5729293384   -0.6398452495    0.5729293384   -0.6398452495   -0.2268571887   -0.1751527382
9.3002e+09   -0.2520351956   -0.1705506807    0.5195510844   -0.6768927991    0.5195510844   -0.6768927991   -0.2520351751   -0.1705507140
9.4002e+09   -0.2759315323   -0.1623303234    0.4646067631   -0.7093422660    0.4646067631   -0.7093422660   -0.2759315533   -0.1623303022
9.5002e+09   -0.2980722091   -0.1507986440    0.4084911664   -0.7373408416    0.4084911664   -0.7373408416   -0.2980721830   -0.1507986405
9.6002e+09   -0.3180507313   -0.1363092557    0.3515314387   -0.7610596509    0.3515314387   -0.7610596509   -0.3180507735   -0.1363092446
9.7002e+09   -0.3355269318   -0.1192487131    0.2939904466   -0.7806781642    0.2939904466   -0.7806781642   -0.3355269272   -0.1192487306
9.8002e+09   -0.3502240172   -0.1000262905    0.2360736473   -0.7963705710    0.2360736473   -0.7963705710   -0.3502240508   -0.1000263412
9.9002e+09   -0.3619248152   -0.0790655029    0.1779365677   -0.8082948516    0.1779365677   -0.8082948516   -0.3619247863   -0.0790655273
1.0000e+10   -0.3704674797   -0.0567979530    0.1196939708   -0.8165846397    0.1196939708   -0.8165846397   -0.3704674784   -0.0567979704
1.0100e+10   -0.3757416795   -0.0336591026    0.0614294410   -0.8213426636    0.0614294410   -0.8213426636   -0.3757416525   -0.0336591333
1.0200e+10   -0.3776853015   -0.0100855069    0.0032054586   -0.8226367850    0.0032054586   -0.8226367850   -0.3776852902   -0.0100855231
1.0300e+10   -0.3762823157    0.0134870053    0.0549263182    0.8204973968    0.0549263182    0.8204973968   -0.3762823482    0.0134869415
1.0400e+10   -0.3715616104    0.0366244948    0.1129149249    0.8149169982    0.1129149249    0.8149169982   -0.3715616370    0.0366243999
1.0500e+10   -0.3635979725    0.0588961273    0.1706996505    0.8058508166    0.1706996505    0.8058508166   -0.3635980378    0.0588960827
1.0600e+10   -0.3525122791    0.0798762327    0.2282012341    0.7932198581    0.2282012341    0.7932198581   -0.3525123126    0.0798761345
1.0700e+10   -0.3384751185    0.0991464703    0.2853111925    0.7769147814    0.2853111925    0.7769147814   -0.3384751565    0.0991464120
1.0800e+10   -0.3217078188    0.1162991586    0.3418826430    0.7568034177    0.3418826430    0.7568034177   -0.3217078734    0.1162990826
1.0900e+10   -0.3024885717    0.1309438695    0.3977224534    0.7327372600    0.3977224534    0.7327372600   -0.3024885743    0.1309438161
1.1000e+10   -0.2811537390    0.1427142775    0.4525837697    0.7045631889    0.4525837697    0.7045631889   -0.2811537989    0.1427142285
1.1100e+10   -0.2581004664    0.1512780400    0.5061606151    0.6721354703    0.5061606151    0.6721354703   -0.2581005196    0.1512780032
1.1200e+10   -0.2337870258    0.1563485476    0.5580849481    0.6353307133    0.5580849481    0.6353307133   -0.2337870913    0.1563484944
1.1300e+10   -0.2087306588    0.1576985446    0.6079267917    0.5940639573    0.6079267917    0.5940639573   -0.2087307262    0.1576984930
1.1400e+10   -0.1835020101    0.1551749063    0.6551977909    0.5483069574    0.6551977909    0.5483069574   -0.1835020822    0.1551748489
1.1500e+10   -0.1587149503    0.1487145830    0.6993616729    0.4981034408    0.6993616729    0.4981034408   -0.1587150250    0.1487145265
1.1600e+10   -0.1350114025    0.1383570338    0.7398465126    0.4435877993    0.7398465126    0.4435877993   -0.1350115059    0.1383569859
1.1700e+10   -0.1130426081    0.1242570159    0.7760638759    0.3849975494    0.7760638759    0.3849975494   -0.1130427084    0.1242569837
1.1800e+10   -0.0934448683    0.1066913285    0.8074324026    0.3226826388    0.8074324026    0.3226826388   -0.0934449831    0.1066912897
1.1900e+10   -0.0768125308    0.0860600014    0.8334045115    0.2571082157    0.8334045115    0.2571082157   -0.0768126484    0.0860599698
1.2000e+10   -0.0636694355    0.0628801349    0.8534947486    0.1888502338    0.8534947486    0.1888502338   -0.0636695578    0.0628801219
1.2100e+10   -0.0544413636    0.0377717622    0.8673071720    0.1185828926    0.8673071720    0.1185828926   -0.0544414926    0.0377717480
1.2200e+10   -0.0494315031    0.0114365519    0.8745592814    0.0470581706    0.8745592814    0.0470581706   -0.0494316331    0.0114365549
1.2300e+10   -0.0488024011   -0.0153689089    0.8751001198   -0.0249204570    0.8751001198   -0.0249204570   -0.0488025257   -0.0153688937
1.2400e+10   -0.0525667758   -0.0418721795    0.8689202267   -0.0965313593    0.8689202267   -0.0965313593   -0.0525669121   -0.0418721606
1.2500e+10   -0.0605864956   -0.0673156563    0.8561522092   -0.1669670007    0.8561522092   -0.1669670007   -0.0605866327   -0.0673156047
1.2600e+10   -0.0725834563   -0.0909871330    0.8370626749   -0.2354636241    0.8370626749   -0.2354636241   -0.0725835953   -0.0909870950
1.2700e+10   -0.0881522924   -0.1122513512    0.8120351263   -0.3013335311    0.8120351263   -0.3013335311   -0.0881524134   -0.1122513000
1.2800e+10   -0.1067852544   -0.1305743722    0.7815471077   -0.3639838569    0.7815471077   -0.3639838569   -0.1067853817   -0.1305743203
1.2900e+10   -0.1278998321   -0.1455379589    0.7461430820   -0.4229311728    0.7461430820   -0.4229311728   -0.1278999771   -0.1455378958
1.3000e+10   -0.1508674230   -0.1568468380    0.7064061622   -0.4778073085    0.7064061622   -0.4778073085   -0.1508675575   -0.1568467564
1.3100e+10   -0.1750408598   -0.1643286884    0.6629309774   -0.5283577005    0.6629309774   -0.5283577005   -0.1750409845   -0.1643285816
1.3200e+10   -0.1997795021   -0.1679283868    0.6162997857   -0.5744326551    0.6162997857   -0.5744326551   -0.1997796353   -0.1679282854
1.3300e+10   -0.2244675840   -0.1676941593    0.5670624998   -0.6159767256    0.5670624998   -0.6159767256   -0.2244677021   -0.1676940592
1.3400e+10   -0.2485335823   -0.1637681686    0.5157214499   -0.6530100318    0.5157214499   -0.6530100318   -0.2485336942   -0.1637680872
1.3500e+10   -0.2714572635   -0.1563681356    0.4627246205   -0.6856111432    0.4627246205   -0.6856111432   -0.2714573509   -0.1563680281
1.3600e+10   -0.2927786706   -0.1457728902    0.4084570810   -0.7139018137    0.4084570810   -0.7139018137   -0.2927787242   -0.1457727553
1.3700e+10   -0.3120995737   -0.1323083088    0.3532427445   -0.7380287450    0.3532427445   -0.7380287450   -0.3120996538   -0.1323082224
1.3800e+10   -0.3290837575   -0.1163349789    0.2973462466   -0.7581492717    0.2973462466   -0.7581492717   -0.3290837649   -0.1163348690
1.3900e+10   -0.3434549728   -0.0982378154    0.2409781810   -0.7744187335    0.2409781810   -0.7744187335   -0.3434549969   -0.0982376834
1.4000e+10   -0.3549939717   -0.0784179599    0.1843020196   -0.7869798545    0.1843020196   -0.7869798545   -0.3549940140   -0.0784178741
1.4100e+10   -0.3635348941   -0.0572865862    0.1274421016   -0.7959544328    0.1274421016   -0.7959544328   -0.3635349185   -0.0572864856
1.4200e+10   -0.3689618858   -0.0352605504    0.0704930741   -0.8014371780    0.0704930741   -0.8014371780   -0.3689618617   -0.0352604480
