! Port 1 = P1 P2 
! Port 2 = P2 P2 
# hz S ri R 50
! freq  reS11  imS11  reS21  imS21  reS12  imS12  reS22  imS22  
!
2.5000e+05    0.0053822745   -0.0001024524    0.9946160729   -0.0002676700    0.9946160729   -0.0002676700    0.0053822693   -0.0001024524
1.0025e+08    0.0030052601   -0.0335645981    0.9890932943   -0.0876414583    0.9890932943   -0.0876414583    0.0030052614   -0.0335645982
2.0025e+08   -0.0049465946   -0.0662032644    0.9747329008   -0.1731224041    0.9747329008   -0.1731224041   -0.0049465999   -0.0662032693
3.0025e+08   -0.0181053481   -0.0970763937    0.9519379152   -0.2557442276    0.9519379152   -0.2557442276   -0.0181053577   -0.0970763903
4.0025e+08   -0.0360986981   -0.1252820081    0.9214150039   -0.3344978262    0.9214150039   -0.3344978262   -0.0360987024   -0.1252820054
5.0025e+08   -0.0583604109   -0.1499939660    0.8840084382   -0.4085961435    0.8840084382   -0.4085961435   -0.0583604157   -0.1499939627
6.0025e+08   -0.0841566234   -0.1705323720    0.8406123736   -0.4774675937    0.8406123736   -0.4774675937   -0.0841566354   -0.1705323850
7.0025e+08   -0.1126342745   -0.1864018253    0.7921297823   -0.5407240695    0.7921297823   -0.5407240695   -0.1126342720   -0.1864018232
8.0025e+08   -0.1428779478   -0.1973041701    0.7394487177   -0.5981371921    0.7394487177   -0.5981371921   -0.1428779527   -0.1973041599
9.0025e+08   -0.1739984189   -0.2031542773    0.6833843433   -0.6496440812    0.6833843433   -0.6496440812   -0.1739983972   -0.2031542807
1.0002e+09   -0.2051288328   -0.2040177943    0.6247055358   -0.6952851725    0.6247055358   -0.6952851725   -0.2051288482   -0.2040177926
1.1002e+09   -0.2354902583   -0.2001098299    0.5640815352   -0.7352092620    0.5640815352   -0.7352092620   -0.2354902596   -0.2001098224
1.2002e+09   -0.2643850376   -0.1917502715    0.5020965456   -0.7696329192    0.5020965456   -0.7696329192   -0.2643850517   -0.1917502741
1.3002e+09   -0.2912197940   -0.1793421412    0.4392299101   -0.7988227564    0.4392299101   -0.7988227564   -0.2912198248   -0.1793421384
1.4002e+09   -0.3154992731   -0.1633431236    0.3758650916   -0.8230681738    0.3758650916   -0.8230681738   -0.3154992920   -0.1633431125
1.5002e+09   -0.3368168950   -0.1442455599    0.3123019435   -0.8426608831    0.3123019435   -0.8426608831   -0.3368168863   -0.1442455661
1.6002e+09   -0.3548571635   -0.1225613115    0.2487558075   -0.8578794167    0.2487558075   -0.8578794167   -0.3548572145   -0.1225613238
1.7002e+09   -0.3693807028   -0.0988097424    0.1853766079   -0.8689745315    0.1853766079   -0.8689745315   -0.3693806934   -0.0988097820
1.8002e+09   -0.3802291258   -0.0735054926    0.1222442192   -0.8761570926    0.1222442192   -0.8761570926   -0.3802291315   -0.0735054822
1.9002e+09   -0.3872696172   -0.0471715985    0.0594440452   -0.8796010838    0.0594440452   -0.8796010838   -0.3872696002   -0.0471716013
2.0002e+09   -0.3904597694   -0.0203133005    0.0030105916    0.8794263180    0.0030105916    0.8794263180   -0.3904597795   -0.0203133024
2.1002e+09   -0.3897987900    0.0065699050    0.0651102677    0.8757027269    0.0651102677    0.8757027269   -0.3897988101    0.0065699026
2.2002e+09   -0.3853354948    0.0329884403    0.1268515610    0.8684474854    0.1268515610    0.8684474854   -0.3853354577    0.0329884271
2.3002e+09   -0.3771607200    0.0584558700    0.1882121386    0.8576318449    0.1882121386    0.8576318449   -0.3771607169    0.0584558740
2.4002e+09   -0.3654176310    0.0824971056    0.2491554853    0.8431780805    0.2491554853    0.8431780805   -0.3654176327    0.0824970715
2.5002e+09   -0.3502988634    0.1046446348    0.3096095042    0.8249686363    0.3096095042    0.8249686363   -0.3502988630    0.1046446450
2.6002e+09   -0.3320518332    0.1244426952    0.3694581599    0.8028522762    0.3694581599    0.8028522762   -0.3320518358    0.1244426819
2.7002e+09   -0.3109833105    0.1414521917    0.4285315999    0.7766532716    0.4285315999    0.7766532716   -0.3109833150    0.1414521853
2.8002e+09   -0.2874639676    0.1552577380    0.4865961584    0.7461838853    0.4865961584    0.7461838853   -0.2874639505    0.1552577680
2.9002e+09   -0.2619322618    0.1654784359    0.5433483966    0.7112579099    0.5433483966    0.7112579099   -0.2619322456    0.1654784206
3.0002e+09   -0.2348967135    0.1717801339    0.5984087379    0.6717090671    0.5984087379    0.6717090671   -0.2348966929    0.1717801247
3.1002e+09   -0.2069348332    0.1738921252    0.6513224550    0.6274085523    0.6513224550    0.6274085523   -0.2069348377    0.1738921377
3.2002e+09   -0.1786885445    0.1716240269    0.7015614016    0.5782874992    0.7015614016    0.5782874992   -0.1786885301    0.1716240374
3.3002e+09   -0.1508586558    0.1648842642    0.7485229964    0.5243732618    0.7485229964    0.5243732618   -0.1508586559    0.1648842650
3.4002e+09   -0.1241713585    0.1537012641    0.7915885698    0.4657511176    0.7915885698    0.4657511176   -0.1241713430    0.1537012583
3.5002e+09   -0.0993822883    0.1382319677    0.8300788856    0.4026695818    0.8300788856    0.4026695818   -0.0993822886    0.1382319691
3.6002e+09   -0.0772319923    0.1187788038    0.8633260030    0.3354979159    0.8633260030    0.3354979159   -0.0772320076    0.1187788058
3.7002e+09   -0.0584152617    0.0957894534    0.8906982373    0.2647363835    0.8906982373    0.2647363835   -0.0584152453    0.0957894599
3.8002e+09   -0.0435498141    0.0698535835    0.9116288795    0.1910267144    0.9116288795    0.1910267144   -0.0435498191    0.0698535831
3.9002e+09   -0.0331397421    0.0416861056    0.9256547650    0.1151301428    0.9256547650    0.1151301428   -0.0331397268    0.0416861099
4.0002e+09   -0.0275455608    0.0120989999    0.9324467354    0.0379005299    0.9324467354    0.0379005299   -0.0275455438    0.0120989980
4.1002e+09   -0.0269573590   -0.0180215935    0.9318314197   -0.0397428320    0.9318314197   -0.0397428320   -0.0269573447   -0.0180215896
4.2002e+09   -0.0313828389   -0.0477775013    0.9238049943   -0.1168570333    0.9238049943   -0.1168570333   -0.0313828280   -0.0477775043
4.3002e+09   -0.0406587959   -0.0762878121    0.9085342532   -0.1925166708    0.9085342532   -0.1925166708   -0.0406587857   -0.0762878147
4.4002e+09   -0.0544507547   -0.1027227797    0.8863461431   -0.2658531136    0.8863461431   -0.2658531136   -0.0544507362   -0.1027227845
4.5002e+09   -0.0722709140   -0.1263538950    0.8577058922   -0.3360908044    0.8577058922   -0.3360908044   -0.0722709061   -0.1263539208
4.6002e+09   -0.0935146289   -0.1465761554    0.8231870781   -0.4025731541    0.8231870781   -0.4025731541   -0.0935146292   -0.1465761605
4.7002e+09   -0.1174921670   -0.1629242302    0.7834401619   -0.4647743157    0.7834401619   -0.4647743157   -0.1174921500   -0.1629242363
4.8002e+09   -0.1434668309   -0.1750826899    0.7391533304   -0.5223120682    0.7391533304   -0.5223120682   -0.1434668209   -0.1750827037
4.9002e+09   -0.1706869468   -0.1828819658    0.6910217619   -0.5749389461    0.6910217619   -0.5749389461   -0.1706869484   -0.1828819982
5.0002e+09   -0.1984164996   -0.1862893081    0.6397169960   -0.6225327974    0.6397169960   -0.6225327974   -0.1984164839   -0.1862893137
5.1002e+09   -0.2259581633   -0.1853930039    0.5858651241   -0.6650782466    0.5858651241   -0.6650782466   -0.2259581612   -0.1853930322
5.2002e+09   -0.2526709632   -0.1803841171    0.5300299586   -0.7026464868    0.5300299586   -0.7026464868   -0.2526709568   -0.1803841490
5.3002e+09   -0.2779812730   -0.1715369554    0.4727034639   -0.7353733619    0.4727034639   -0.7353733619   -0.2779812584   -0.1715369847
5.4002e+09   -0.3013888447   -0.1591901834    0.4143012335   -0.7634381947    0.4143012335   -0.7634381947   -0.3013888278   -0.1591902041
5.5002e+09   -0.3224741659   -0.1437274174    0.3551514453   -0.7870474124    0.3551514453   -0.7870474124   -0.3224741486   -0.1437274398
5.6002e+09   -0.3408717532   -0.1255715695    0.2955471275   -0.8064031042    0.2955471275   -0.8064031042   -0.3408717570   -0.1255715862
5.7002e+09   -0.3563041623   -0.1051607622    0.2356815610   -0.8217111092    0.2356815610   -0.8217111092   -0.3563041527   -0.1051607419
5.8002e+09   -0.3685506231   -0.0829475185    0.1757069532   -0.8331532692    0.1757069532   -0.8331532692   -0.3685506036   -0.0829475806
5.9002e+09   -0.3774502582   -0.0593894077    0.1157278777   -0.8408831928    0.1157278777   -0.8408831928   -0.3774502384   -0.0593894381
6.0002e+09   -0.3828951112   -0.0349462678    0.0558174657   -0.8450191620    0.0558174657   -0.8450191620   -0.3828951278   -0.0349463001
6.1002e+09   -0.3848273875   -0.0100770295    0.0039742535    0.8456401056    0.0039742535    0.8456401056   -0.3848273832   -0.0100770564
6.2002e+09   -0.3832366199    0.0147616030    0.0636087809    0.8427833706    0.0636087809    0.8427833706   -0.3832365890    0.0147615600
6.3002e+09   -0.3781584179    0.0391158753    0.1230479811    0.8364441686    0.1230479811    0.8364441686   -0.3781584225    0.0391158447
6.4002e+09   -0.3696747450    0.0625362671    0.1822442163    0.8265765494    0.1822442163    0.8265765494   -0.3696747674    0.0625362417
6.5002e+09   -0.3579152080    0.0845782445    0.2411286311    0.8130964847    0.2411286311    0.8130964847   -0.3579152156    0.0845782112
6.6002e+09   -0.3430598181    0.1048046605    0.2996012117    0.7958865999    0.2996012117    0.7958865999   -0.3430598381    0.1048046150
6.7002e+09   -0.3253425262    0.1227894401    0.3575207619    0.7748028364    0.3575207619    0.7748028364   -0.3253425537    0.1227894231
6.8002e+09   -0.3050550980    0.1381232430    0.4146961176    0.7496832665    0.4146961176    0.7496832665   -0.3050551290    0.1381231702
6.9002e+09   -0.2825507864    0.1504212733    0.4708785216    0.7203589510    0.4708785216    0.7203589510   -0.2825508104    0.1504212408
7.0002e+09   -0.2582470709    0.1593333326    0.5257548998    0.6866677958    0.5257548998    0.6866677958   -0.2582470776    0.1593332878
7.1002e+09   -0.2326266452    0.1645564516    0.5789448372    0.6484700951    0.5789448372    0.6484700951   -0.2326266741    0.1645564386
7.2002e+09   -0.2062355875    0.1658495969    0.6299999581    0.6056665187    0.6299999581    0.6056665187   -0.2062356174    0.1658495637
7.3002e+09   -0.1796773837    0.1630499002    0.6784090342    0.5582164811    0.6784090342    0.5582164811   -0.1796774179    0.1630498610
7.4002e+09   -0.1536027715    0.1560892375    0.7236065292    0.5061576726    0.7236065292    0.5061576726   -0.1536027921    0.1560892326
7.5002e+09   -0.1286940801    0.1450097739    0.7649874695    0.4496242274    0.7649874695    0.4496242274   -0.1286941238    0.1450097623
7.6002e+09   -0.1056442031    0.1299769761    0.8019279474    0.3888615329    0.8019279474    0.3888615329   -0.1056442453    0.1299769645
7.7002e+09   -0.0851307376    0.1112876865    0.8338103947    0.3242373178    0.8338103947    0.3242373178   -0.0851307731    0.1112876667
7.8002e+09   -0.0677858307    0.0893713556    0.8600541723    0.2562422176    0.8600541723    0.2562422176   -0.0677858642    0.0893713422
7.9002e+09   -0.0541657054    0.0647836833    0.8801451146    0.1854876592    0.8801451146    0.1854876592   -0.0541657461    0.0647836755
8.0002e+09   -0.0447202910    0.0381910508    0.8936662000    0.1126911024    0.8936662000    0.1126911024   -0.0447203122    0.0381910453
8.1002e+09   -0.0397663969    0.0103467445    0.9003239178    0.0386535255    0.9003239178    0.0386535255   -0.0397664378    0.0103467394
8.2002e+09   -0.0394671600   -0.0179357193    0.8999675849   -0.0357705060    0.8999675849   -0.0357705060   -0.0394671979   -0.0179357069
8.3002e+09   -0.0438230550   -0.0458324601    0.8926001547   -0.1097071087    0.8926001547   -0.1097071087   -0.0438230999   -0.0458324610
8.4002e+09   -0.0526738222   -0.0725365078    0.8783780464   -0.1823017683    0.8783780464   -0.1823017683   -0.0526738496   -0.0725365123
8.5002e+09   -0.0657083585   -0.0972903222    0.8576015034   -0.2527514757    0.8576015034   -0.2527514757   -0.0657083792   -0.0972903281
8.6002e+09   -0.0824789407   -0.1194260585    0.8306954584   -0.3203362218    0.8306954584   -0.3203362218   -0.0824789588   -0.1194260572
8.7002e+09   -0.1024311396   -0.1383875964    0.7981829430   -0.3844430899    0.7981829430   -0.3844430899   -0.1024311517   -0.1383875829
8.8002e+09   -0.1249340595   -0.1537454684    0.7606553256   -0.4445792446    0.7606553256   -0.4445792446   -0.1249340741   -0.1537454803
8.9002e+09   -0.1493115617   -0.1652036540    0.7187411299   -0.5003775170    0.7187411299   -0.5003775170   -0.1493115861   -0.1652036657
9.0002e+09   -0.1748724689   -0.1725986486    0.6730765455   -0.5515930577    0.6730765455   -0.5515930577   -0.1748724677   -0.1725986773
9.1002e+09   -0.2009367787   -0.1758910729    0.6242795628   -0.5980937890    0.6242795628   -0.5980937890   -0.2009367952   -0.1758910749
9.2002e+09   -0.2268572103   -0.1751527159    0.5729293298   -0.6398452579    0.5729293298   -0.6398452579   -0.2268572003   -0.1751527131
9.3002e+09   -0.2520351860   -0.1705506801    0.5195510772   -0.6768928199    0.5195510772   -0.6768928199   -0.2520352120   -0.1705506817
9.4002e+09   -0.2759315423   -0.1623303194    0.4646067781   -0.7093422448    0.4646067781   -0.7093422448   -0.2759315137   -0.1623303460
9.5002e+09   -0.2980722045   -0.1507986380    0.4084911795   -0.7373408534    0.4084911795   -0.7373408534   -0.2980722136   -0.1507986688
9.6002e+09   -0.3180507380   -0.1363092578    0.3515314334   -0.7610596338    0.3515314334   -0.7610596338   -0.3180507313   -0.1363092341
9.7002e+09   -0.3355269293   -0.1192487122    0.2939904512   -0.7806781708    0.2939904512   -0.7806781708   -0.3355269424   -0.1192487437
9.8002e+09   -0.3502240197   -0.1000262976    0.2360736261   -0.7963705663    0.2360736261   -0.7963705663   -0.3502240427   -0.1000262850
9.9002e+09   -0.3619248130   -0.0790655006    0.1779365742   -0.8082948564    0.1779365742   -0.8082948564   -0.3619247977   -0.0790655442
1.0000e+10   -0.3704674793   -0.0567979511    0.1196939760   -0.8165846422    0.1196939760   -0.8165846422   -0.3704674877   -0.0567979848
1.0100e+10   -0.3757416726   -0.0336591033    0.0614294424   -0.8213426812    0.0614294424   -0.8213426812   -0.3757416937   -0.0336591444
1.0200e+10   -0.3776852992   -0.0100855055    0.0032054642   -0.8226367895    0.0032054642   -0.8226367895   -0.3776852959   -0.0100855392
1.0300e+10   -0.3762823174    0.0134870047    0.0549263209    0.8204973912    0.0549263209    0.8204973912   -0.3762823340    0.0134869531
1.0400e+10   -0.3715616227    0.0366244942    0.1129149393    0.8149169698    0.1129149393    0.8149169698   -0.3715615863    0.0366244589
1.0500e+10   -0.3635979804    0.0588961369    0.1706996382    0.8058507889    0.1706996382    0.8058507889   -0.3635979654    0.0588960855
1.0600e+10   -0.3525122801    0.0798762260    0.2282012496    0.7932198635    0.2282012496    0.7932198635   -0.3525123399    0.0798761592
1.0700e+10   -0.3384751155    0.0991464710    0.2853111877    0.7769147855    0.2853111877    0.7769147855   -0.3384751579    0.0991463977
1.0800e+10   -0.3217078252    0.1162991583    0.3418826544    0.7568034076    0.3418826544    0.7568034076   -0.3217078740    0.1162991163
1.0900e+10   -0.3024885669    0.1309438605    0.3977224618    0.7327372825    0.3977224618    0.7327372825   -0.3024886248    0.1309437974
1.1000e+10   -0.2811537369    0.1427142816    0.4525837598    0.7045631859    0.4525837598    0.7045631859   -0.2811537791    0.1427142183
1.1100e+10   -0.2581004626    0.1512780366    0.5061606139    0.6721354838    0.5061606139    0.6721354838   -0.2581005397    0.1512779794
1.1200e+10   -0.2337870181    0.1563485472    0.5580849373    0.6353307237    0.5580849373    0.6353307237   -0.2337870889    0.1563484667
1.1300e+10   -0.2087306557    0.1576985411    0.6079267914    0.5940639656    0.6079267914    0.5940639656   -0.2087307346    0.1576984816
1.1400e+10   -0.1835020108    0.1551749013    0.6551977982    0.5483069668    0.6551977982    0.5483069668   -0.1835021059    0.1551748387
1.1500e+10   -0.1587149499    0.1487145823    0.6993616716    0.4981034418    0.6993616716    0.4981034418   -0.1587150221    0.1487145238
1.1600e+10   -0.1350114016    0.1383570358    0.7398465104    0.4435877961    0.7398465104    0.4435877961   -0.1350115001    0.1383569910
1.1700e+10   -0.1130426065    0.1242570104    0.7760638740    0.3849975594    0.7760638740    0.3849975594   -0.1130427078    0.1242569651
1.1800e+10   -0.0934448742    0.1066913237    0.8074324154    0.3226826464    0.8074324154    0.3226826464   -0.0934450084    0.1066912798
1.1900e+10   -0.0768125323    0.0860600018    0.8334045155    0.2571082143    0.8334045155    0.2571082143   -0.0768126573    0.0860599736
1.2000e+10   -0.0636694416    0.0628801353    0.8534947605    0.1888502341    0.8534947605    0.1888502341   -0.0636695786    0.0628801192
1.2100e+10   -0.0544413626    0.0377717612    0.8673071708    0.1185828942    0.8673071708    0.1185828942   -0.0544414908    0.0377717451
1.2200e+10   -0.0494315059    0.0114365485    0.8745592852    0.0470581794    0.8745592852    0.0470581794   -0.0494316350    0.0114365359
1.2300e+10   -0.0488024047   -0.0153689076    0.8751001268   -0.0249204555    0.8751001268   -0.0249204555   -0.0488025361   -0.0153689025
1.2400e+10   -0.0525667769   -0.0418721810    0.8689202267   -0.0965313551    0.8689202267   -0.0965313551   -0.0525669072   -0.0418721682
1.2500e+10   -0.0605865014   -0.0673156549    0.8561522226   -0.1669669945    0.8561522226   -0.1669669945   -0.0605866483   -0.0673156334
1.2600e+10   -0.0725834546   -0.0909871372    0.8370626662   -0.2354636203    0.8370626662   -0.2354636203   -0.0725835781   -0.0909870895
1.2700e+10   -0.0881522905   -0.1122513476    0.8120351284   -0.3013335394    0.8120351284   -0.3013335394   -0.0881524269   -0.1122512916
1.2800e+10   -0.1067852543   -0.1305743756    0.7815471016   -0.3639838516    0.7815471016   -0.3639838516   -0.1067853645   -0.1305743183
1.2900e+10   -0.1278998300   -0.1455379612    0.7461430766   -0.4229311735    0.7461430766   -0.4229311735   -0.1278999733   -0.1455378875
1.3000e+10   -0.1508674255   -0.1568468381    0.7064061640   -0.4778073053    0.7064061640   -0.4778073053   -0.1508675560   -0.1568467625
1.3100e+10   -0.1750408651   -0.1643286853    0.6629309883   -0.5283576932    0.6629309883   -0.5283576932   -0.1750409799   -0.1643286093
1.3200e+10   -0.1997795081   -0.1679283883    0.6162997876   -0.5744326423    0.6162997876   -0.5744326423   -0.1997796122   -0.1679282990
1.3300e+10   -0.2244675913   -0.1676941573    0.5670625109   -0.6159767096    0.5670625109   -0.6159767096   -0.2244676756   -0.1676940961
1.3400e+10   -0.2485335857   -0.1637681655    0.5157214576   -0.6530100255    0.5157214576   -0.6530100255   -0.2485336825   -0.1637681056
1.3500e+10   -0.2714572655   -0.1563681379    0.4627246145   -0.6856111369    0.4627246145   -0.6856111369   -0.2714573313   -0.1563680160
1.3600e+10   -0.2927786656   -0.1457728826    0.4084570983   -0.7139018280    0.4084570983   -0.7139018280   -0.2927787615   -0.1457727930
1.3700e+10   -0.3120995762   -0.1323083140    0.3532427310   -0.7380287366    0.3532427310   -0.7380287366   -0.3120996285   -0.1323081889
1.3800e+10   -0.3290837571   -0.1163349770    0.2973462497   -0.7581492743    0.2973462497   -0.7581492743   -0.3290837743   -0.1163348719
1.3900e+10   -0.3434549661   -0.0982378094    0.2409781981   -0.7744187497    0.2409781981   -0.7744187497   -0.3434550321   -0.0982377295
1.4000e+10   -0.3549939735   -0.0784179588    0.1843020206   -0.7869798485    0.1843020206   -0.7869798485   -0.3549939967   -0.0784178729
1.4100e+10   -0.3635348993   -0.0572865858    0.1274421000   -0.7959544194    0.1274421000   -0.7959544194   -0.3635348886   -0.0572864763
1.4200e+10   -0.3689618802   -0.0352605553    0.0704930667   -0.8014371940    0.0704930667   -0.8014371940   -0.3689619017   -0.0352604422
