! Port 1 = P1 P2 
! Port 2 = P2 P2 
# hz S ri R 50
! freq  reS11  imS11  reS21  imS21  reS12  imS12  reS22  imS22  
!
2.5000e+05   -0.0578654378   -0.0000686324    0.9854909608   -0.0002585340    0.9854909608   -0.0002585340    0.0819110912   -0.0000999317
1.0025e+08   -0.0590706330   -0.0225361797    0.9803600443   -0.0846571193    0.9803600443   -0.0846571193    0.0796542451   -0.0327014584
2.0025e+08   -0.0638523124   -0.0447175023    0.9671785586   -0.1673775350    0.9671785586   -0.1673775350    0.0720647383   -0.0645628225
3.0025e+08   -0.0720206568   -0.0660376851    0.9462521957   -0.2476491475    0.9462521957   -0.2476491475    0.0594662570   -0.0948207569
4.0025e+08   -0.0834755475   -0.0859158604    0.9181498090   -0.3246268776    0.9181498090   -0.3246268776    0.0421648739   -0.1226341662
5.0025e+08   -0.0979733948   -0.1037576682    0.8835391358   -0.3976408138    0.8835391358   -0.3976408138    0.0206424707   -0.1472114504
6.0025e+08   -0.1151223516   -0.1190265165    0.8431165341   -0.4661804216    0.8431165341   -0.4661804216   -0.0044583014   -0.1678753868
7.0025e+08   -0.1344099419   -0.1312900660    0.7975843234   -0.5298608898    0.7975843234   -0.5298608898   -0.0323701286   -0.1841013548
8.0025e+08   -0.1552443625   -0.1402426541    0.7476436644   -0.5884038867    0.7476436644   -0.5884038867   -0.0622467492   -0.1955350367
9.0025e+08   -0.1770256158   -0.1457326322    0.6939529256   -0.6416536497    0.6939529256   -0.6416536497   -0.0932435880   -0.2020176772
1.0002e+09   -0.1991407813   -0.1477140522    0.6371581454   -0.6895265732    0.6371581454   -0.6895265732   -0.1245116016   -0.2035327220
1.1002e+09   -0.2210194721   -0.1462585538    0.5778464698   -0.7320296672    0.5778464698   -0.7320296672   -0.1552627082   -0.2002148285
1.2002e+09   -0.2421300220   -0.1415228956    0.5165586394   -0.7692305916    0.5165586394   -0.7692305916   -0.1847667771   -0.1923127073
1.3002e+09   -0.2620029711   -0.1337389595    0.4537670676   -0.8012504129    0.4537670676   -0.8012504129   -0.2123799193   -0.1801736308
1.4002e+09   -0.2802304499   -0.1231937156    0.3898793683   -0.8282434973    0.3898793683   -0.8282434973   -0.2375447699   -0.1642181899
1.5002e+09   -0.2964629476   -0.1102147143    0.3252449772   -0.8503815337    0.3252449772   -0.8503815337   -0.2597869188   -0.1449216352
1.6002e+09   -0.3104171620   -0.0951597153    0.2601487023   -0.8678419026    0.2601487023   -0.8678419026   -0.2787236518   -0.1227983087
1.7002e+09   -0.3218674570   -0.0784056649    0.1948243036   -0.8807942391    0.1948243036   -0.8807942391   -0.2940536556   -0.0983876487
1.8002e+09   -0.3306559965   -0.0603384906    0.1294448411   -0.8893893046    0.1294448411   -0.8893893046   -0.3055664359   -0.0722392158
1.9002e+09   -0.3366414744   -0.0413576932    0.0641958338   -0.8937587722    0.0641958338   -0.8937587722   -0.3130879473   -0.0449221948
2.0002e+09   -0.3397666766   -0.0218587088    0.0008076148    0.8940019133    0.0008076148    0.8940019133   -0.3165500910   -0.0169957689
2.1002e+09   -0.3400123009   -0.0022359885    0.0654543464    0.8901860825    0.0654543464    0.8901860825   -0.3159411169    0.0109830102
2.2002e+09   -0.3374058819    0.0171222770    0.1296419470    0.8823436934    0.1296419470    0.8823436934   -0.3113141651    0.0384672377
2.3002e+09   -0.3320131757    0.0358314994    0.1932532800    0.8704780286    0.1932532800    0.8704780286   -0.3027787968    0.0649167518
2.4002e+09   -0.3239480479    0.0535193109    0.2561643408    0.8545600571    0.2561643408    0.8545600571   -0.2905099437    0.0898100763
2.5002e+09   -0.3133667977    0.0698247392    0.3182245784    0.8345367127    0.3182245784    0.8345367127   -0.2747430650    0.1126435047
2.6002e+09   -0.3004706782    0.0844029482    0.3792515599    0.8103360873    0.3792515599    0.8103360873   -0.2557763219    0.1329379455
2.7002e+09   -0.2855066910    0.0969301035    0.4390238280    0.7818755656    0.4390238280    0.7818755656   -0.2339719224    0.1502455825
2.8002e+09   -0.2687680997    0.1071089726    0.4972743677    0.7490721723    0.4972743677    0.7490721723   -0.2097563993    0.1641582189
2.9002e+09   -0.2505943856    0.1146766871    0.5536879860    0.7118532366    0.5536879860    0.7118532366   -0.1836202379    0.1743179042
3.0002e+09   -0.2313696036    0.1194124102    0.6078980496    0.6701708416    0.6078980496    0.6701708416   -0.1561154919    0.1804281724
3.1002e+09   -0.2115191219    0.1211476097    0.6594901118    0.6240138014    0.6594901118    0.6240138014   -0.1278503620    0.1822679334
3.2002e+09   -0.1915038605    0.1197751153    0.7080049449    0.5734235352    0.7080049449    0.5734235352   -0.0994807823    0.1797044033
3.3002e+09   -0.1718142561    0.1152577109    0.7529373721    0.5185229430    0.7529373721    0.5185229430   -0.0717027236    0.1727062501
3.4002e+09   -0.1529493073    0.1076429837    0.7937907544    0.4594688042    0.7937907544    0.4594688042   -0.0452177957    0.1613582249
3.5002e+09   -0.1354160425    0.0970589248    0.8300285962    0.3965510042    0.8300285962    0.3965510042   -0.0207389409    0.1458634513
3.6002e+09   -0.1197041277    0.0837262015    0.8611372010    0.3301421789    0.8611372010    0.3301421789    0.0010503282    0.1265539649
3.7002e+09   -0.1062678162    0.0679544818    0.8866399018    0.2607043130    0.8866399018    0.2607043130    0.0195202893    0.1038859105
3.8002e+09   -0.0955088989    0.0501384555    0.9061136038    0.1887984489    0.9061136038    0.1887984489    0.0341186405    0.0784339639
3.9002e+09   -0.0877569165    0.0307472860    0.9192145926    0.1150663648    0.9192145926    0.1150663648    0.0443985071    0.0508752524
4.0002e+09   -0.0832532226    0.0103076746    0.9256974057    0.0402116068    0.9256974057    0.0402116068    0.0500404014    0.0219651920
4.1002e+09   -0.0821344724   -0.0106044754    0.9254279128   -0.0350167391    0.9254279128   -0.0350167391    0.0508728828   -0.0074788022
4.2002e+09   -0.0844261868   -0.0314076268    0.9183926819   -0.1098504578    0.9183926819   -0.1098504578    0.0468814568   -0.0366302521
4.3002e+09   -0.0900536990   -0.0515246194    0.9047014545   -0.1835292626    0.9047014545   -0.1835292626    0.0381977010   -0.0646739613
4.4002e+09   -0.0988351776   -0.0703984479    0.8845813169   -0.2553267898    0.8845813169   -0.2553267898    0.0251030328   -0.0908312800
4.5002e+09   -0.1104877264   -0.0875274427    0.8583642530   -0.3245747690    0.8583642530   -0.3245747690    0.0080178406   -0.1144035744
4.6002e+09   -0.1246486509   -0.1024773936    0.8264700407   -0.3906823595    0.8264700407   -0.3906823595   -0.0125267101   -0.1347911826
4.7002e+09   -0.1408909128   -0.1148933339    0.7893877479   -0.4531453485    0.7893877479   -0.4531453485   -0.0359115456   -0.1515096537
4.8002e+09   -0.1587441608   -0.1245097915    0.7476495971   -0.5115606706    0.7476495971   -0.5115606706   -0.0614598721   -0.1642029099
4.9002e+09   -0.1777129765   -0.1311520719    0.7018109047   -0.5656229000    0.7018109047   -0.5656229000   -0.0884633022   -0.1726447164
5.0002e+09   -0.1972960164   -0.1347353663    0.6524274293   -0.6151224875    0.6524274293   -0.6151224875   -0.1162087582   -0.1767362339
5.1002e+09   -0.2170017086   -0.1352589798    0.6000384195   -0.6599361090    0.6000384195   -0.6599361090   -0.1440007749   -0.1764975045
5.2002e+09   -0.2363619085   -0.1327984956    0.5451517360   -0.7000154257    0.5451517360   -0.7000154257   -0.1711802571   -0.1720554240
5.3002e+09   -0.2549421118   -0.1274960650    0.4882337292   -0.7353733175    0.4882337292   -0.7353733175   -0.1971386400   -0.1636298522
5.4002e+09   -0.2723489956   -0.1195500176    0.4297022631   -0.7660697629    0.4297022631   -0.7660697629   -0.2213282581   -0.1515182981
5.5002e+09   -0.2882402921   -0.1092032824    0.3699120216   -0.7922012898    0.3699120216   -0.7922012898   -0.2432745314   -0.1360790109
5.6002e+09   -0.3023058799   -0.0967382312    0.3092028289   -0.8138710880    0.3092028289   -0.8138710880   -0.2625532697   -0.1177253422
5.7002e+09   -0.3143006755   -0.0824619857    0.2478305702   -0.8312031956    0.2478305702   -0.8312031956   -0.2788305526   -0.0969020371
5.8002e+09   -0.3240217380   -0.0667028155    0.1860217783   -0.8443134905    0.1860217783   -0.8443134905   -0.2918340943   -0.0740821521
5.9002e+09   -0.3313141794   -0.0498023438    0.1239635226   -0.8533068206    0.1239635226   -0.8533068206   -0.3013598662   -0.0497553725
6.0002e+09   -0.3360674836   -0.0321115118    0.0618162901   -0.8582698358    0.0618162901   -0.8582698358   -0.3072676123   -0.0244226220
6.1002e+09   -0.3382150591   -0.0139861025    0.0002803113    0.8592665264    0.0002803113    0.8592665264   -0.3094790506    0.0014104081
6.2002e+09   -0.3377327092    0.0042164738    0.0621984649    0.8563356989    0.0621984649    0.8563356989   -0.3079763372    0.0272377332
6.3002e+09   -0.3346379295    0.0221399797    0.1238131361    0.8494897515    0.1238131361    0.8494897515   -0.3028003497    0.0525571045
6.4002e+09   -0.3289897193    0.0394324629    0.1849943492    0.8387152551    0.1849943492    0.8387152551   -0.2940503673    0.0768742169
6.5002e+09   -0.3208885877    0.0557487729    0.2455976242    0.8239754286    0.2455976242    0.8239754286   -0.2818840909    0.0997064708
6.6002e+09   -0.3104772579    0.0707540142    0.3054563747    0.8052141883    0.3054563747    0.8052141883   -0.2665184120    0.1205878512
6.7002e+09   -0.2979415184    0.0841276188    0.3643744079    0.7823618023    0.3643744079    0.7823618023   -0.2482301644    0.1390746336
6.8002e+09   -0.2835109398    0.0955683147    0.4221200211    0.7553423062    0.4221200211    0.7553423062   -0.2273571538    0.1547524771
6.9002e+09   -0.2674591837    0.1048002030    0.4784211163    0.7240822139    0.4784211163    0.7240822139   -0.2042980393    0.1672449717
7.0002e+09   -0.2501035125    0.1115796520    0.5329615459    0.6885212769    0.5329615459    0.6885212769   -0.1795113513    0.1762233332
7.1002e+09   -0.2318029949    0.1157033714    0.5853803922    0.6486241249    0.5853803922    0.6486241249   -0.1535126283    0.1814176225
7.2002e+09   -0.2129550709    0.1170170772    0.6352733635    0.6043931062    0.6352733635    0.6043931062   -0.1268691916    0.1826287872
7.3002e+09   -0.1939896357    0.1154246325    0.6821982813    0.5558804334    0.6821982813    0.5558804334   -0.1001911632    0.1797412933
7.4002e+09   -0.1753609637    0.1108966525    0.7256826424    0.5032010553    0.7256826424    0.5032010553   -0.0741199636    0.1727346861
7.5002e+09   -0.1575368713    0.1034780935    0.7652352892    0.4465436652    0.7652352892    0.4465436652   -0.0493125760    0.1616939077
7.6002e+09   -0.1409852824    0.0932940626    0.8003613488    0.3861792261    0.8003613488    0.3861792261   -0.0264224325    0.1468167266
7.7002e+09   -0.1261587066    0.0805526002    0.8305796621    0.3224668474    0.8305796621    0.3224668474   -0.0060774060    0.1284171780
7.8002e+09   -0.1134768472    0.0655438446    0.8554435932    0.2558518208    0.8554435932    0.2558518208    0.0111446443    0.1069233114
7.9002e+09   -0.1033096397    0.0486350570    0.8745598367    0.1868638795    0.8745598367    0.1868638795    0.0247395504    0.0828697310
8.0002e+09   -0.0959604963    0.0302611205    0.8876082840    0.1161064819    0.8876082840    0.1161064819    0.0343001384    0.0568834365
8.1002e+09   -0.0916512166    0.0109110505    0.8943589574    0.0442419406    0.8943589574    0.0442419406    0.0395366811    0.0296639719
8.2002e+09   -0.0905098397   -0.0088846369    0.8946846870   -0.0280283028    0.8946846870   -0.0280283028    0.0402928226    0.0019632006
8.3002e+09   -0.0925654432   -0.0285877067    0.8885690157   -0.0999845954    0.8885690157   -0.0999845954    0.0365528790   -0.0254569599
8.4002e+09   -0.0977486501   -0.0476623053    0.8761076730   -0.1709157323    0.8761076730   -0.1709157323    0.0284407482   -0.0518437399
8.5002e+09   -0.1058950467   -0.0655923842    0.8575040026   -0.2401395632    0.8575040026   -0.2401395632    0.0162140630   -0.0764794044
8.6002e+09   -0.1167487058   -0.0819092321    0.8330585228   -0.3070249795    0.8330585228   -0.3070249795    0.0002560863   -0.0987160044
8.7002e+09   -0.1299784361   -0.0962050886    0.8031534568   -0.3710104809    0.8031534568   -0.3710104809   -0.0189466566   -0.1179953811
8.8002e+09   -0.1451933458   -0.1081445170    0.7682344623   -0.4316155300    0.7682344623   -0.4316155300   -0.0408269560   -0.1338644298
8.9002e+09   -0.1619598713   -0.1174719409    0.7287905120   -0.4884480116    0.7287905120   -0.4884480116   -0.0647615960   -0.1459849578
9.0002e+09   -0.1798195798   -0.1240153250    0.6853335988   -0.5412057301    0.6853335988   -0.5412057301   -0.0900964681   -0.1541378668
9.1002e+09   -0.1983057009   -0.1276850493    0.6383796187   -0.5896736966    0.6383796187   -0.5896736966   -0.1161699799   -0.1582205370
9.2002e+09   -0.2169581225   -0.1284696868    0.5884319372   -0.6337169366    0.5884319372   -0.6337169366   -0.1423340465   -0.1582403588
9.3002e+09   -0.2353359528   -0.1264293449    0.5359678439   -0.6732704221    0.5359678439   -0.6732704221   -0.1679713519   -0.1543044266
9.4002e+09   -0.2530274008   -0.1216871998    0.4814286913   -0.7083271043    0.4814286913   -0.7083271043   -0.1925089124   -0.1466072217
9.5002e+09   -0.2696569110   -0.1144203707    0.4252137149   -0.7389249233    0.4252137149   -0.7389249233   -0.2154276459   -0.1354172246
9.6002e+09   -0.2848904052   -0.1048508431    0.3676765370   -0.7651340083    0.3676765370   -0.7651340083   -0.2362691492   -0.1210639374
9.7002e+09   -0.2984375580   -0.0932361808    0.3091245751   -0.7870448630    0.3091245751   -0.7870448630   -0.2546386855   -0.1039245557
9.8002e+09   -0.3100530652   -0.0798619248    0.2498223328   -0.8047566024    0.2498223328   -0.8047566024   -0.2702063154   -0.0844136072
9.9002e+09   -0.3195365498   -0.0650346249    0.1899948873   -0.8183676396    0.1899948873   -0.8183676396   -0.2827064929   -0.0629723001
1.0000e+10   -0.3267317891   -0.0490758287    0.1298338980   -0.8279678045    0.1298338980   -0.8279678045   -0.2919366878   -0.0400608397
1.0100e+10   -0.3315255828   -0.0323172489    0.0695041778   -0.8336320583    0.0695041778   -0.8336320583   -0.2977554677   -0.0161513421
1.0200e+10   -0.3338465729   -0.0150967463    0.0091511623   -0.8354160113    0.0091511623   -0.8354160113   -0.3000805372    0.0082778443
1.0300e+10   -0.3336642272    0.0022450729    0.0510911129    0.8333530880    0.0510911129    0.8333530880   -0.2988873147    0.0327466637
1.0400e+10   -0.3309880830    0.0193677698    0.1110919109    0.8274534803    0.1110919109    0.8274534803   -0.2942075023    0.0567775713
1.0500e+10   -0.3258683349    0.0359339132    0.1707155033    0.8177042287    0.1707155033    0.8177042287   -0.2861296184    0.0798996307
1.0600e+10   -0.3183948509    0.0516123298    0.2298144606    0.8040716067    0.2298144606    0.8040716067   -0.2747976496    0.1016529098
1.0700e+10   -0.3086989035    0.0660813283    0.2882209022    0.7865042895    0.2882209022    0.7865042895   -0.2604130623    0.1215928741
1.0800e+10   -0.2969517834    0.0790319583    0.3457399783    0.7649396360    0.3457399783    0.7649396360   -0.2432333112    0.1392956748
1.0900e+10   -0.2833682375    0.0901739879    0.4021442769    0.7393088177    0.4021442769    0.7393088177   -0.2235750588    0.1543656690
1.1000e+10   -0.2682048240    0.0992408478    0.4571690455    0.7095462122    0.4571690455    0.7095462122   -0.2018126204    0.1664429499
1.1100e+10   -0.2517597458    0.1059964723    0.5105091447    0.6755986561    0.5105091447    0.6755986561   -0.1783768533    0.1752126320
1.1200e+10   -0.2343710869    0.1102427892    0.5618181963    0.6374363953    0.5618181963    0.6374363953   -0.1537525633    0.1804153323
1.1300e+10   -0.2164134288    0.1118278309    0.6107099406    0.5950645739    0.6107099406    0.5950645739   -0.1284731144    0.1818582034
1.1400e+10   -0.1982926064    0.1106540084    0.6567620754    0.5485358607    0.6567620754    0.5485358607   -0.1031127923    0.1794264516
1.1500e+10   -0.1804381248    0.1066870698    0.6995253430    0.4979596778    0.6995253430    0.4979596778   -0.0782754764    0.1730949589
1.1600e+10   -0.1632923728    0.0999614617    0.7385324624    0.4435147767    0.7385324624    0.4435147767   -0.0545796523    0.1629361151
1.1700e+10   -0.1472991869    0.0905869650    0.7733121818    0.3854562794    0.7733121818    0.3854562794   -0.0326417700    0.1491278413
1.1800e+10   -0.1328891324    0.0787511320    0.8034055519    0.3241207221    0.8034055519    0.3241207221   -0.0130555687    0.1319565499
1.1900e+10   -0.1204638808    0.0647188152    0.8283838435    0.2599269034    0.8283838435    0.2599269034    0.0036300416    0.1118157124
1.2000e+10   -0.1103800182    0.0488278545    0.8478673091    0.1933723091    0.8478673091    0.1933723091    0.0169334030    0.0891989000
1.2100e+10   -0.1029335460    0.0314807708    0.8615431467    0.1250244026    0.8615431467    0.1250244026    0.0264615848    0.0646873742
1.2200e+10   -0.0983456309    0.0131329826    0.8691812392    0.0555073192    0.8691812392    0.0555073192    0.0319296706    0.0389324476
1.2300e+10   -0.0967518814   -0.0057211528    0.8706466700   -0.0145150806    0.8706466700   -0.0145150806    0.0331749082    0.0126346048
1.2400e+10   -0.0981962528   -0.0245725685    0.8659074159   -0.0843609555    0.8659074159   -0.0843609555    0.0301647138   -0.0134888030
1.2500e+10   -0.1026284870   -0.0429131031    0.8550363326   -0.1533517011    0.8550363326   -0.1533517011    0.0229989257   -0.0387270849
1.2600e+10   -0.1099091383   -0.0602524233    0.8382081159   -0.2208314363    0.8382081159   -0.2208314363    0.0119025222   -0.0624010622
1.2700e+10   -0.1198123682   -0.0761379050    0.8156899889   -0.2861910759    0.8156899889   -0.2861910759   -0.0027813454   -0.0838899788
1.2800e+10   -0.1320386568   -0.0901717710    0.7878287334   -0.3488821726    0.7878287334   -0.3488821726   -0.0206095616   -0.1026541222
1.2900e+10   -0.1462291218   -0.1020220840    0.7550339587   -0.4084299794    0.7550339587   -0.4084299794   -0.0410595499   -0.1182496481
1.3000e+10   -0.1619813033   -0.1114305781    0.7177598375   -0.4644410758    0.7177598375   -0.4644410758   -0.0635522393   -0.1303388633
1.3100e+10   -0.1788654070   -0.1182167161    0.6764862802   -0.5166060221    0.6764862802   -0.5166060221   -0.0874750613   -0.1386947318
1.3200e+10   -0.1964405576   -0.1222784670    0.6317012359   -0.5646968044    0.6317012359   -0.5646968044   -0.1122043327   -0.1432006362
1.3300e+10   -0.2142668210   -0.1235861663    0.5838844870   -0.6085634373    0.5838844870   -0.6085634373   -0.1371233173   -0.1438420745
1.3400e+10   -0.2319214456   -0.1221816975    0.5334941605   -0.6481224300    0.5334941605   -0.6481224300   -0.1616426330   -0.1407028494
1.3500e+10   -0.2490051628   -0.1181677205    0.4809592727   -0.6833462241    0.4809592727   -0.6833462241   -0.1852098180   -0.1339506164
1.3600e+10   -0.2651517794   -0.1117002938    0.4266694650   -0.7142539053    0.4266694650   -0.7142539053   -0.2073222375   -0.1238259903
1.3700e+10   -0.2800324373   -0.1029803413    0.3709736204   -0.7408971338    0.3709736204   -0.7408971338   -0.2275319714   -0.1106298578
1.3800e+10   -0.2933589636   -0.0922453230    0.3141785532   -0.7633494118    0.3141785532   -0.7633494118   -0.2454505104   -0.0947118157
1.3900e+10   -0.3048854755   -0.0797616509    0.2565504085   -0.7816954079    0.2565504085   -0.7816954079   -0.2607504369   -0.0764592293
1.4000e+10   -0.3144088793   -0.0658178640    0.1983183611   -0.7960216778    0.1983183611   -0.7960216778   -0.2731653205   -0.0562880818
1.4100e+10   -0.3217683527   -0.0507188732    0.1396792503   -0.8064089500    0.1396792503   -0.8064089500   -0.2824890892   -0.0346342969
1.4200e+10   -0.3268445825   -0.0347810647    0.0808042411   -0.8129258912    0.0808042411   -0.8129258912   -0.2885743292   -0.0119474496
