! Port 1 = P1 P2 
! Port 2 = P2 P2 
# hz S ri R 50
! freq  reS11  imS11  reS21  imS21  reS12  imS12  reS22  imS22  
!
2.5000e+05    0.0705589102   -0.0001381507    0.9860726610   -0.0002723642    0.9860726610   -0.0002723642   -0.0461546609   -0.0001009931
1.0025e+08    0.0669057474   -0.0451964090    0.9802321480   -0.0891765061    0.9802321480   -0.0891765061   -0.0485732145   -0.0330967306
2.0025e+08    0.0554870275   -0.0888193092    0.9648793238   -0.1759859091    0.9648793238   -0.1759859091   -0.0566209700   -0.0652092365
3.0025e+08    0.0368901217   -0.1296377666    0.9405213338   -0.2595389068    0.9405213338   -0.2595389068   -0.0698946687   -0.0954468963
4.0025e+08    0.0118182083   -0.1663881887    0.9080096483   -0.3386712597    0.9080096483   -0.3386712597   -0.0879631986   -0.1228773362
5.0025e+08   -0.0187724733   -0.1979972575    0.8683714837   -0.4124933391    0.8683714837   -0.4124933391   -0.1101904402   -0.1466709374
6.0025e+08   -0.0537405911   -0.2236516808    0.8227014841   -0.4803925952    0.8227014841   -0.4803925952   -0.1357735300   -0.1661736985
7.0025e+08   -0.0918379036   -0.2428240858    0.7720993208   -0.5420013302    0.7720993208   -0.5420013302   -0.1638032306   -0.1809426733
8.0025e+08   -0.1317875111   -0.2552695831    0.7176273677   -0.5971649018    0.7176273677   -0.5971649018   -0.1933296729   -0.1907516006
9.0025e+08   -0.1723926870   -0.2610215580    0.6602379160   -0.6459330780    0.6602379160   -0.6459330780   -0.2234552986   -0.1955950664
1.0002e+09   -0.2125327672   -0.2603088902    0.6007968840   -0.6884837099    0.6007968840   -0.6884837099   -0.2533318145   -0.1956188437
1.1002e+09   -0.2512359414   -0.2535351183    0.5400275318   -0.7251126686    0.5400275318   -0.7251126686   -0.2822221732   -0.1911080476
1.2002e+09   -0.2876655697   -0.2412183564    0.4785296827   -0.7561822219    0.4785296827   -0.7561822219   -0.3094889898   -0.1824374240
1.3002e+09   -0.3211380821   -0.2239558860    0.4167653696   -0.7820940484    0.4167653696   -0.7820940484   -0.3346109413   -0.1700454233
1.4002e+09   -0.3511069983   -0.2023873415    0.3550749071   -0.8032567275    0.3550749071   -0.8032567275   -0.3571702491   -0.1544047361
1.5002e+09   -0.3771439660   -0.1771702687    0.2936958390   -0.8200627394    0.2936958390   -0.8200627394   -0.3768377386   -0.1360028789
1.6002e+09   -0.3989330807   -0.1489618154    0.2327681844   -0.8328714555    0.2327681844   -0.8328714555   -0.3933700205   -0.1153288109
1.7002e+09   -0.4162477078   -0.1184077589    0.1723583813   -0.8419956952    0.1723583813   -0.8419956952   -0.4065911400   -0.0928636757
1.8002e+09   -0.4289492222   -0.0861302577    0.1124592855   -0.8476897873    0.1124592855   -0.8476897873   -0.4163939384   -0.0690720666
1.9002e+09   -0.4369271488   -0.0527512958    0.0530654256   -0.8501572548    0.0530654256   -0.8501572548   -0.4226862350   -0.0444175432
2.0002e+09   -0.4401607089   -0.0188596068    0.0058986240    0.8495304858    0.0058986240    0.8495304858   -0.4254497324   -0.0193404913
2.1002e+09   -0.4386678454    0.0149668237    0.0645111645    0.8458791894    0.0645111645    0.8458791894   -0.4246939970    0.0057270497
2.2002e+09   -0.4325125201    0.0481625256    0.1228539252    0.8392076487    0.1228539252    0.8392076487   -0.4204637530    0.0303625051
2.3002e+09   -0.4217985873    0.0801626048    0.1809871501    0.8294620423    0.1809871501    0.8294620423   -0.4128324422    0.0541435496
2.4002e+09   -0.4066808911    0.1104091207    0.2389524868    0.8165272833    0.2389524868    0.8165272833   -0.4019127484    0.0766532445
2.5002e+09   -0.3873658765    0.1383433724    0.2967507803    0.8002359508    0.2967507803    0.8002359508   -0.3878556569    0.0974740411
2.6002e+09   -0.3641207429    0.1634081559    0.3543319100    0.7803739517    0.3543319100    0.7803739517   -0.3708573192    0.1161894987
2.7002e+09   -0.3372828090    0.1850516937    0.4115822305    0.7566896714    0.4115822305    0.7566896714   -0.3511661741    0.1323871750
2.8002e+09   -0.3072698810    0.2027349642    0.4683115892    0.7289067759    0.4683115892    0.7289067759   -0.3290905642    0.1456639418
2.9002e+09   -0.2745902360    0.2159448306    0.5242435649    0.6967389104    0.5242435649    0.6967389104   -0.3050061622    0.1556358458
3.0002e+09   -0.2398512704    0.2242107557    0.5790049002    0.6599106689    0.5790049002    0.6599106689   -0.2793622419    0.1619502659
3.1002e+09   -0.2037636753    0.2271285498    0.6321225414    0.6181793246    0.6321225414    0.6181793246   -0.2526851693    0.1643035931
3.2002e+09   -0.1671409881    0.2243868347    0.6830221261    0.5713631398    0.6830221261    0.5713631398   -0.2255778246    0.1624608628
3.3002e+09   -0.1308971186    0.2157983386    0.7310249539    0.5193849009    0.7310249539    0.5193849009   -0.1987174160    0.1562780549
3.4002e+09   -0.0960018154    0.2013317531    0.7754074804    0.4622449385    0.7754074804    0.4622449385   -0.1728249587    0.1457289930
3.5002e+09   -0.0634896149    0.1811377761    0.8153602146    0.4001326011    0.8153602146    0.4001326011   -0.1486682893    0.1309199290
3.6002e+09   -0.0343941524    0.1555762115    0.8500672757    0.3333950823    0.8500672757    0.3333950823   -0.1270161202    0.1121129497
3.7002e+09   -0.0097008213    0.1252235659    0.8787425804    0.2625537792    0.8787425804    0.2625537792   -0.1086023898    0.0897312801
3.8002e+09    0.0097047776    0.0908733855    0.9006721494    0.1883172525    0.9006721494    0.1883172525   -0.0940879365    0.0643593993
3.9002e+09    0.0230970693    0.0535133750    0.9152680630    0.1115572465    0.9152680630    0.1115572465   -0.0840159251    0.0367265201
4.0002e+09    0.0299614493    0.0142833851    0.9221128635    0.0332735160    0.9221128635    0.0332735160   -0.0787739341    0.0076756056
4.1002e+09    0.0300367114   -0.0255675620    0.9209925574   -0.0454457162    0.9209925574   -0.0454457162   -0.0785609516   -0.0218661585
4.2002e+09    0.0233352524   -0.0647694265    0.9119158386   -0.1234835246    0.9119158386   -0.1234835246   -0.0833724960   -0.0509575788
4.3002e+09    0.0101302775   -0.1020874279    0.8951135425   -0.1997520713    0.8951135425   -0.1997520713   -0.0930125987   -0.0786819206
4.4002e+09   -0.0090539561   -0.1363807463    0.8710218638   -0.2732475414    0.8710218638   -0.2732475414   -0.1070977609   -0.1041890397
4.5002e+09   -0.0334779744   -0.1666722169    0.8402484740   -0.3430995609    0.8402484740   -0.3430995609   -0.1250828062   -0.1267507602
4.6002e+09   -0.0622458904   -0.1921822609    0.8035270428   -0.4086033773    0.8035270428   -0.4086033773   -0.1463056660   -0.1457849961
4.7002e+09   -0.0943600419   -0.2123481396    0.7616703799   -0.4692327729    0.7616703799   -0.4692327729   -0.1700279260   -0.1608704139
4.8002e+09   -0.1287815409   -0.2268307509    0.7155169227   -0.5246484609    0.7155169227   -0.5246484609   -0.1954796337   -0.1717517552
4.9002e+09   -0.1644791867   -0.2355002166    0.6658894772   -0.5746814121    0.6658894772   -0.5746814121   -0.2218959021   -0.1783292863
5.0002e+09   -0.2004725915   -0.2384135405    0.6135576549   -0.6193131674    0.6135576549   -0.6193131674   -0.2485490844   -0.1806424113
5.1002e+09   -0.2358616144   -0.2357841625    0.5592130209   -0.6586468061    0.5592130209   -0.6586468061   -0.2747707007   -0.1788470168
5.2002e+09   -0.2698458588   -0.2279495777    0.5034527923   -0.6928770150    0.5034527923   -0.6928770150   -0.2999659398   -0.1731914207
5.3002e+09   -0.3017334511   -0.2153396571    0.4467730610   -0.7222602726    0.4467730610   -0.7222602726   -0.3236205898   -0.1639929693
5.4002e+09   -0.3309423714   -0.1984481899    0.3895685305   -0.7470876790    0.3895685305   -0.7470876790   -0.3453019898   -0.1516166482
5.5002e+09   -0.3570024421   -0.1778056069    0.3321267685   -0.7676639025    0.3321267685   -0.7676639025   -0.3646608315   -0.1364551686
5.6002e+09   -0.3795185119   -0.1539736314    0.2746841634   -0.7842763843    0.2746841634   -0.7842763843   -0.3814022580   -0.1189240590
5.7002e+09   -0.3982033983   -0.1275127865    0.2173674136   -0.7971985472    0.2173674136   -0.7971985472   -0.3953130953   -0.0994387130
5.8002e+09   -0.4128370387   -0.0989860474    0.1602547274   -0.8066649992    0.1602547274   -0.8066649992   -0.4062296484   -0.0784161906
5.9002e+09   -0.4232661525   -0.0689491917    0.1033727799   -0.8128670402    0.1033727799   -0.8128670402   -0.4140377092   -0.0562680961
6.0002e+09   -0.4293933685   -0.0379508755    0.0467147268   -0.8159470420    0.0467147268   -0.8159470420   -0.4186651205   -0.0334009073
6.1002e+09   -0.4311722230   -0.0065319860    0.0097496690    0.8159949053    0.0097496690    0.8159949053   -0.4200771098   -0.0102150629
6.2002e+09   -0.4286028984    0.0247724936    0.0660613129    0.8130467593    0.0660613129    0.8130467593   -0.4182737805    0.0128935112
6.3002e+09   -0.4217307255    0.0554310169    0.1222595348    0.8070848482    0.1222595348    0.8070848482   -0.4132887427    0.0355314733
6.4002e+09   -0.4106472369    0.0849137225    0.1783714032    0.7980386376    0.1783714032    0.7980386376   -0.4051895864    0.0573071697
6.5002e+09   -0.3954931874    0.1126903719    0.2343987135    0.7857880199    0.2343987135    0.7857880199   -0.3940806152    0.0778286035
6.6002e+09   -0.3764641999    0.1382305492    0.2903067026    0.7701675870    0.2903067026    0.7701675870   -0.3801063265    0.0967041173
6.7002e+09   -0.3538178970    0.1610059014    0.3460119802    0.7509734353    0.3460119802    0.7509734353   -0.3634570707    0.1135435718
6.8002e+09   -0.3278823530    0.1804954636    0.4013713995    0.7279719527    0.4013713995    0.7279719527   -0.3443749995    0.1279625650
6.9002e+09   -0.2990647413    0.1961945878    0.4561711711    0.7009115838    0.4561711711    0.7009115838   -0.3231604831    0.1395887487
7.0002e+09   -0.2678596461    0.2076276765    0.5101171123    0.6695381898    0.5101171123    0.6695381898   -0.3001782472    0.1480713501
7.1002e+09   -0.2348550901    0.2143658292    0.5628277645    0.6336134537    0.5628277645    0.6336134537   -0.2758616098    0.1530940281
7.2002e+09   -0.2007350438    0.2160485299    0.6138308347    0.5929372167    0.6138308347    0.5929372167   -0.2507145918    0.1543907196
7.3002e+09   -0.1662757380    0.2124092977    0.6625657155    0.5473715582    0.6625657155    0.5473715582   -0.2253088804    0.1517645582
7.4002e+09   -0.1323353240    0.2033031999    0.7083915967    0.4968676119    0.7083915967    0.4968676119   -0.2002767151    0.1451081344
7.5002e+09   -0.0998341738    0.1887345485    0.7506037162    0.4414916668    0.7506037162    0.4414916668   -0.1762960447    0.1344237018
7.6002e+09   -0.0697254519    0.1688814985    0.7884584206    0.3814483845    0.7884584206    0.3814483845   -0.1540692104    0.1198413676
7.7002e+09   -0.0429564336    0.1441138681    0.8212060408    0.3170988368    0.8212060408    0.3170988368   -0.1342944991    0.1016322619
7.8002e+09   -0.0204211969    0.1149997861    0.8481319685    0.2489658758    0.8481319685    0.2489658758   -0.1176314367    0.0802137081
7.9002e+09   -0.0029110040    0.0822995642    0.8685986462    0.1777330588    0.8685986462    0.1777330588   -0.1046641910    0.0561446280
8.0002e+09    0.0089359517    0.0469433536    0.8820892377    0.1042263930    0.8820892377    0.1042263930   -0.0958645149    0.0301094274
8.1002e+09    0.0146788027    0.0099937785    0.8882456670    0.0293836774    0.8882456670    0.0293836774   -0.0915589946    0.0028905607
8.2002e+09    0.0141070291   -0.0274000320    0.8868963997   -0.0457875349    0.8868963997   -0.0457875349   -0.0919039572   -0.0246641020
8.3002e+09    0.0072549308   -0.0640752970    0.8780705455   -0.1202597458    0.8780705455   -0.1202597458   -0.0968752521   -0.0516984716
8.4002e+09   -0.0056030108   -0.0989065512    0.8619956889   -0.1930388665    0.8619956889   -0.1930388665   -0.1062719210   -0.0773829476
8.5002e+09   -0.0239720274   -0.1308590666    0.8390810470   -0.2632095005    0.8390810470   -0.2632095005   -0.1197304744   -0.1009535332
8.6002e+09   -0.0471675350   -0.1590454182    0.8098873414   -0.3299769279    0.8098873414   -0.3299769279   -0.1367465590   -0.1217557211
8.7002e+09   -0.0743649052   -0.1827571056    0.7750864124   -0.3926960230    0.7750864124   -0.3926960230   -0.1567124722   -0.1392671925
8.8002e+09   -0.1046501217   -0.2014817443    0.7354177946   -0.4508843013    0.7354177946   -0.4508843013   -0.1789546851   -0.1531104028
8.9002e+09   -0.1370698106   -0.2149059192    0.6916455178   -0.5042231475    0.6916455178   -0.5042231475   -0.2027706945   -0.1630545826
9.0002e+09   -0.1706765690   -0.2229053405    0.6445194424   -0.5525471134    0.6445194424   -0.5525471134   -0.2274626840   -0.1690087341
9.1002e+09   -0.2045657429   -0.2255246423    0.5947436334   -0.5958252636    0.5947436334   -0.5958252636   -0.2523646940   -0.1710062556
9.2002e+09   -0.2379027669   -0.2229515454    0.5429533580   -0.6341366373    0.5429533580   -0.6341366373   -0.2768625611   -0.1691860259
9.3002e+09   -0.2699407143   -0.2154885871    0.4897005699   -0.6676438481    0.4897005699   -0.6676438481   -0.3004071350   -0.1637713210
9.4002e+09   -0.3000291701   -0.2035253047    0.4354472568   -0.6965666395    0.4354472568   -0.6965666395   -0.3225205039   -0.1550494762
9.5002e+09   -0.3276158629   -0.1875132128    0.3805652592   -0.7211575715    0.3805652592   -0.7211575715   -0.3427971899   -0.1433531246
9.6002e+09   -0.3522437220   -0.1679446036    0.3253404474   -0.7416808688    0.3253404474   -0.7416808688   -0.3609021779   -0.1290447165
9.7002e+09   -0.3735437692   -0.1453351287    0.2699804429   -0.7583950803    0.2699804429   -0.7583950803   -0.3765652101   -0.1125035992
9.8002e+09   -0.3912264714   -0.1202118992    0.2146255244   -0.7715385773    0.2146255244   -0.7715385773   -0.3895749239   -0.0941172703
9.9002e+09   -0.4050729530   -0.0931048732    0.1593594840   -0.7813187225    0.1593594840   -0.7813187225   -0.3997715045   -0.0742749211
1.0000e+10   -0.4149264913   -0.0645418222    0.1042215059   -0.7879043866    0.1042215059   -0.7879043866   -0.4070412874   -0.0533638403
1.0100e+10   -0.4206854801   -0.0350460372    0.0492179274   -0.7914202366    0.0492179274   -0.7914202366   -0.4113108608   -0.0317677098
1.0200e+10   -0.4222980086   -0.0051360883    0.0056661511    0.7919435012    0.0056661511    0.7919435012   -0.4125433273   -0.0098662913
1.0300e+10   -0.4197585486    0.0246731977    0.0604553646    0.7895021192    0.0604553646    0.7895021192   -0.4107356477    0.0119636850
1.0400e+10   -0.4131066504    0.0538690647    0.1151728521    0.7840748522    0.1151728521    0.7840748522   -0.4059177631    0.0333473358
1.0500e+10   -0.4024288126    0.0819392857    0.1698288520    0.7755918975    0.1698288520    0.7755918975   -0.3981537511    0.0539106587
1.0600e+10   -0.3878603926    0.1083719443    0.2244107024    0.7639383036    0.2244107024    0.7639383036   -0.3875432599    0.0732799784
1.0700e+10   -0.3695919115    0.1326557043    0.2788705236    0.7489576061    0.2788705236    0.7489576061   -0.3742260531    0.0910824627
1.0800e+10   -0.3478737702    0.1542820881    0.3331145486    0.7304595263    0.3331145486    0.7304595263   -0.3583850329    0.1069475314
1.0900e+10   -0.3230262583    0.1727521463    0.3869924059    0.7082269545    0.3869924059    0.7082269545   -0.3402540782    0.1205114726
1.1000e+10   -0.2954458304    0.1875847236    0.4402872958    0.6820284006    0.4402872958    0.6820284006   -0.3201222247    0.1314238230
1.1100e+10   -0.2656123771    0.1983293642    0.4927074618    0.6516320906    0.4927074618    0.6516320906   -0.2983389418    0.1393564559
1.1200e+10   -0.2340940471    0.2045830944    0.5438801581    0.6168237175    0.5438801581    0.6168237175   -0.2753178849    0.1440155529
1.1300e+10   -0.2015484490    0.2060110077    0.5933491503    0.5774267785    0.5933491503    0.5774267785   -0.2515375122    0.1451566591
1.1400e+10   -0.1687188127    0.2023698965    0.6405767699    0.5333263605    0.6405767699    0.5333263605   -0.2275387404    0.1426018013
1.1500e+10   -0.1364223196    0.1935344525    0.6849540095    0.4844911161    0.6849540095    0.4844911161   -0.2039163583    0.1362586571
1.1600e+10   -0.1055306560    0.1795206588    0.7258150379    0.4309991152    0.7258150379    0.4309991152   -0.1813049018    0.1261372179
1.1700e+10   -0.0769426611    0.1605086860    0.7624610065    0.3730576182    0.7624610065    0.3730576182   -0.1603592853    0.1123667806
1.1800e+10   -0.0515474789    0.1368578144    0.7941908703    0.3110181405    0.7941908703    0.3110181405   -0.1417277392    0.0952069704
1.1900e+10   -0.0301817060    0.1091117081    0.8203380636    0.2453830237    0.8203380636    0.2453830237   -0.1260209238    0.0750517452
1.2000e+10   -0.0135830009    0.0779912848    0.8403101818    0.1768010980    0.8403101818    0.1768010980   -0.1137780555    0.0524244731
1.2100e+10   -0.0023447304    0.0443733976    0.8536278713    0.1060512921    0.8536278713    0.1060512921   -0.1054336323    0.0279625305
1.2200e+10    0.0031238961    0.0092563773    0.8599588892    0.0340140709    0.8599588892    0.0340140709   -0.1012880817    0.0023926280
1.2300e+10    0.0026264876   -0.0262847594    0.8591432687   -0.0383662433    0.8591432687   -0.0383662433   -0.1014867000   -0.0235018038
1.2400e+10   -0.0038070573   -0.0611587308    0.8512054421   -0.1101287838    0.8512054421   -0.1101287838   -0.1060096865   -0.0489257193
1.2500e+10   -0.0159226388   -0.0943099726    0.8363525808   -0.1803418801    0.8363525808   -0.1803418801   -0.1146736216   -0.0731098786
1.2600e+10   -0.0332623603   -0.1247681053    0.8149592495   -0.2481445572    0.8149592495   -0.2481445572   -0.1271467582   -0.0953465453
1.2700e+10   -0.0551925858   -0.1516945037    0.7875399725   -0.3127873700    0.7875399725   -0.3127873700   -0.1429685011   -0.1150239018
1.2800e+10   -0.0809468647   -0.1744148316    0.7547137056   -0.3736556159    0.7547137056   -0.3736556159   -0.1615814927   -0.1316502441
1.2900e+10   -0.1096725061   -0.1924356002    0.7171642151   -0.4302834168    0.7171642151   -0.4302834168   -0.1823654501   -0.1448657592
1.3000e+10   -0.1404765298   -0.2054476693    0.6756008996   -0.4823553683    0.6756008996   -0.4823553683   -0.2046709445   -0.1544450818
1.3100e+10   -0.1724671814   -0.2133180738    0.6307233007   -0.5296979091    0.6307233007   -0.5296979091   -0.2278497924   -0.1602910958
1.3200e+10   -0.2047888379   -0.2160733512    0.5831920309   -0.5722619854    0.5831920309   -0.5722619854   -0.2512803482   -0.1624229629
1.3300e+10   -0.2366460294   -0.2138738648    0.5336069361   -0.6101037386    0.5336069361   -0.6101037386   -0.2743845050   -0.1609565674
1.3400e+10   -0.2673242349   -0.2069926051    0.4824921875   -0.6433577234    0.4824921875   -0.6433577234   -0.2966436835   -0.1560901951
1.3500e+10   -0.2961951527   -0.1957870870    0.4302921853   -0.6722134884    0.4302921853   -0.6722134884   -0.3176021704   -0.1480829954
1.3600e+10   -0.3227225228   -0.1806766285    0.3773666854   -0.6968948355    0.3773666854   -0.6968948355   -0.3368710419   -0.1372389698
1.3700e+10   -0.3464582157   -0.1621226378    0.3239968068   -0.7176386383    0.3239968068   -0.7176386383   -0.3541257341   -0.1238924989
1.3800e+10   -0.3670372190   -0.1406126549    0.2703910556   -0.7346785775    0.2703910556   -0.7346785775   -0.3691020362   -0.1083962734
1.3900e+10   -0.3841703593   -0.1166481879    0.2166945504   -0.7482315713    0.2166945504   -0.7482315713   -0.3815906343   -0.0911132699
1.4000e+10   -0.3976365161   -0.0907364765    0.1629990576   -0.7584875249    0.1629990576   -0.7584875249   -0.3914316911   -0.0724100230
1.4100e+10   -0.4072751035   -0.0633851879    0.1093538475   -0.7656014333    0.1093538475   -0.7656014333   -0.3985090643   -0.0526531444
1.4200e+10   -0.4129797208   -0.0350999570    0.0557770117   -0.7696880162    0.0557770117   -0.7696880162   -0.4027457385   -0.0322074265
