! Created Fri Apr  9 13:51:47 2021
! List of port names and net name(s): example Port n = <port_name> <net_name1> <net_name2> ...
! Port 1 = P1 P1 P3 
! Port 2 = P2 P2 P4 
! Port 3 = P5 N__5 P7 
! Port 4 = P6 N__6 P8 
! Port 5 = P9 P11 N__9 
! Port 6 = P10 N__10 P12 
# hz S ri R 50
! 6 Port Network Data from data block
! freq  reS11  imS11  reS12  imS12  reS13  imS13  reS14  imS14  
!       reS15  imS15  reS16  imS16  
!       reS21  imS21  reS22  imS22  
!       reS23  imS23  reS24  imS24  reS25  imS25  reS26  imS26  
!       reS31  imS31  reS32  imS32  reS33  imS33  reS34  imS34  
!       reS35  imS35  reS36  imS36  
!       reS41  imS41  reS42  imS42  
!       reS43  imS43  reS44  imS44  reS45  imS45  reS46  imS46  
!       reS51  imS51  reS52  imS52  reS53  imS53  reS54  imS54  
!       reS55  imS55  reS56  imS56  
!       reS61  imS61  reS62  imS62  
!       reS63  imS63  reS64  imS64  reS65  imS65  reS66  imS66  
!     
                 0    7.21170543e-05    -5.48689713e-09        0.999927881    -2.41462925e-08    -3.46802244e-12     -1.4074677e-10      3.7364625e-12     1.35524466e-10
                   1.75344877e-12     -7.5022906e-11     1.81338941e-12     4.88882015e-11
                      0.999927881    -2.41462925e-08     7.21170517e-05    -5.48638215e-09     3.76571063e-12     1.35479699e-10    -3.50625211e-12      -1.407086e-10
                   1.75325081e-12     4.90677079e-11     1.80463587e-12    -7.51549295e-11
                  -3.46802244e-12     -1.4074677e-10     3.76571063e-12     1.35479699e-10     7.02412708e-05     -4.9498354e-09        0.999929758    -3.59017627e-08
                  -1.01409983e-12    -1.89793195e-10    -9.22053625e-13     1.70744341e-10
                    3.7364625e-12     1.35524466e-10    -3.50625211e-12      -1.407086e-10        0.999929758    -3.59017627e-08     7.02413298e-05    -4.95023848e-09
                  -9.40962654e-13     1.70730828e-10    -8.68158699e-13     -1.8980002e-10
                   1.75344877e-12     -7.5022906e-11     1.75325081e-12     4.90677079e-11    -1.01409983e-12    -1.89793195e-10    -9.40962654e-13     1.70730828e-10
                   6.95049854e-05    -1.00674596e-09        0.999930494    -4.21413125e-08
                   1.81338941e-12     4.88882015e-11     1.80463587e-12    -7.51549295e-11    -9.22053625e-13     1.70744341e-10    -8.68158699e-13     -1.8980002e-10
                      0.999930494    -4.21413125e-08     6.95048904e-05    -1.00809461e-09

         250000000    0.000127111068    -5.40526501e-06        0.999806192     -0.00538601627    -3.08135307e-07    -3.44823192e-05     3.00939451e-07     3.33200377e-05
                   -1.3386574e-07    -1.49307932e-05     1.38685827e-07      1.4863745e-05
                      0.999806192     -0.00538601627     0.000132404563    -5.59633811e-06     2.68592685e-07     3.33212257e-05    -3.03961434e-07    -3.44830963e-05
                   1.30643655e-07     1.48638577e-05    -1.37399195e-07    -1.49307588e-05
                  -3.08135307e-07    -3.44823192e-05     2.68592685e-07     3.33212257e-05     0.000120897767     0.000801052711        0.999778201     -0.00814822838
                  -5.36979727e-07    -4.71472363e-05     4.29020984e-07     4.23418691e-05
                   3.00939451e-07     3.33200377e-05    -3.03961434e-07    -3.44830963e-05        0.999778201     -0.00814822838     0.000130818071     0.000800743282
                   4.64355161e-07      4.2340409e-05     -5.3533108e-07    -4.71488355e-05
                   -1.3386574e-07    -1.49307932e-05     1.30643655e-07     1.48638577e-05    -5.36979727e-07    -4.71472363e-05     4.64355161e-07      4.2340409e-05
                   0.000141960921      0.00219337655        0.999759605     -0.00995529571
                   1.38685827e-07      1.4863745e-05    -1.37399195e-07    -1.49307588e-05     4.29020984e-07     4.23418691e-05     -5.3533108e-07    -4.71488355e-05
                      0.999759605     -0.00995529571     0.000140824438      0.00219336775

         500000000    0.000171913218    -5.10396439e-05        0.999660903      -0.0106875122    -1.07683634e-06    -6.89205268e-05     1.07518417e-06     6.66067448e-05
                  -5.15679604e-07    -2.98493297e-05     5.35973567e-07     2.97154157e-05
                      0.999660903      -0.0106875122     0.000192827029    -5.18505073e-05     9.46837151e-07     6.66120609e-05    -1.06086213e-06    -6.89217622e-05
                   5.03950639e-07     2.97158673e-05    -5.29783661e-07    -2.98489499e-05
                  -1.07683634e-06    -6.89205268e-05     9.46837151e-07     6.66120609e-05     0.000170357853      0.00156646994        0.999564744      -0.0161985402
                  -2.03096523e-06    -9.42305172e-05     1.70835476e-06     8.46718679e-05
                   1.07518417e-06     6.66067448e-05    -1.06086213e-06    -6.89217622e-05        0.999564744      -0.0161985402     0.000209739581      0.00156502736
                   1.84842851e-06     8.46641435e-05    -2.02574516e-06    -9.42342719e-05
                  -5.15679604e-07    -2.98493297e-05     5.03950639e-07     2.97158673e-05    -2.03096523e-06    -9.42305172e-05     1.84842851e-06     8.46641435e-05
                   0.000253945651      0.00434901815         0.99949076      -0.0198112659
                   5.35973567e-07     2.97154157e-05    -5.29783661e-07    -2.98489499e-05     1.70835476e-06     8.46718679e-05    -2.02574516e-06    -9.42342719e-05
                       0.99949076      -0.0198112659     0.000249411165      0.00434901549

         750000000    0.000202211765    -0.000126026776        0.999497177      -0.0159419498     -2.3225738e-06    -0.000103321529     2.34096938e-06     9.98582727e-05
                  -1.14464537e-06    -4.47525454e-05     1.19094435e-06     4.45516275e-05
                      0.999497177      -0.0159419498     0.000248925094     -0.00012798299     2.05382139e-06     9.98723197e-05    -2.28781607e-06    -0.000103321547
                   1.11909888e-06     4.45526837e-05    -1.17633532e-06    -4.47512189e-05
                   -2.3225738e-06    -0.000103321529     2.05382139e-06     9.98723197e-05     0.000211755654      0.00230570247        0.999298435      -0.0241971521
                  -4.47942712e-06    -0.000141249824     3.83527891e-06     0.000126966856
                   2.34096938e-06     9.98582727e-05    -2.28781607e-06    -0.000103321547        0.999298435      -0.0241971521     0.000299868537      0.00230183205
                   4.14859494e-06     0.000126944911    -4.46985382e-06    -0.000141254796
                  -1.14464537e-06    -4.47525454e-05     1.11909888e-06     4.45526837e-05    -4.47942712e-06    -0.000141249824     4.14859494e-06     0.000126944911
                   0.000398620964      0.00647709324        0.999132744      -0.0296124054
                   1.19094435e-06     4.45516275e-05    -1.17633532e-06    -4.47512189e-05     3.83527891e-06     0.000126966856    -4.46985382e-06    -0.000141254796
                      0.999132744      -0.0296124054     0.000388305912      0.00647720979

             1e+09    0.000213102249    -0.000211234395        0.999318723      -0.0211745173    -4.04039461e-06     -0.00013768821     4.09120357e-06     0.000133078215
                  -2.01946303e-06    -5.96375933e-05     2.10228046e-06     5.93695998e-05
                      0.999318723      -0.0211745173     0.000295728882    -0.000214997986     3.58276917e-06     0.000133107156    -3.97985643e-06    -0.000137683814
                   1.97479058e-06     5.93715714e-05    -2.07572355e-06    -5.96344181e-05
                  -4.04039461e-06     -0.00013768821     3.58276917e-06     0.000133107156     0.000241497908      0.00303785136        0.998981023       -0.032170647
                   -7.8792869e-06    -0.000188204516     6.80983125e-06     0.000169219019
                   4.09120357e-06     0.000133078215    -3.97985643e-06    -0.000137683814        0.998981023       -0.032170647     0.000397552074      0.00302983242
                   7.36405058e-06     0.000169171459    -7.86477668e-06    -0.000188207941
                  -2.01946303e-06    -5.96375933e-05     1.97479058e-06     5.93715714e-05     -7.8792869e-06    -0.000188204516     7.36405058e-06     0.000169171459
                   0.000571800228      0.00859378162        0.998687468      -0.0393868634
                   2.10228046e-06     5.93695998e-05    -2.07572355e-06    -5.96344181e-05     6.80983125e-06     0.000169219019    -7.86477668e-06    -0.000188207941
                      0.998687468      -0.0393868634     0.000553375869      0.00859406589

          1.25e+09    0.000210187081    -0.000298634878        0.999121977      -0.0263949705    -6.22944705e-06    -0.000172022951     6.32747809e-06     0.000166262859
                  -3.13977373e-06     -7.4500687e-05     3.26965591e-06     7.41652052e-05
                      0.999121977      -0.0263949705     0.000338913137    -0.000305027671     5.53566871e-06     0.000166314408    -6.13600829e-06     -0.00017200937
                   3.07071438e-06     7.41684335e-05    -3.22754277e-06    -7.44944543e-05
                  -6.22944705e-06    -0.000172022951     5.53566871e-06     0.000166314408       0.0002650861      0.00376916557        0.998607829       -0.040129407
                  -1.22259816e-05    -0.000235078312     1.06290314e-05     0.000211407632
                   6.32747809e-06     0.000166262859    -6.13600829e-06     -0.00017200937        0.998607829       -0.040129407     0.000508165146      0.00375490414
                    1.1492043e-05      0.00021132016    -1.22062539e-05    -0.000235076002
                  -3.13977373e-06     -7.4500687e-05     3.07071438e-06     7.41684335e-05    -1.22259816e-05    -0.000235078312      1.1492043e-05      0.00021132016
                   0.000779202627       0.0107065305        0.998150585      -0.0491426897
                   3.26965591e-06     7.41652052e-05    -3.22754277e-06    -7.44944543e-05     1.06290314e-05     0.000211407632    -1.22062539e-05    -0.000235076002
                      0.998150585      -0.0491426897      0.00075031744       0.0107074641

           1.5e+09    0.000196189289    -0.000386585782        0.998902956      -0.0316071217    -8.89093529e-06    -0.000206322529     9.04837616e-06     0.000199405419
                  -4.50509016e-06    -8.93373286e-05     4.69246601e-06      8.8933755e-05
                      0.998902956      -0.0316071217     0.000381050122    -0.000396596126     7.91152827e-06     0.000199489162     -8.7573285e-06    -0.000206294093
                   4.40624685e-06     8.89386346e-05    -4.63125139e-06    -8.93266027e-05
                  -8.89093529e-06    -0.000206322529     7.91152827e-06     0.000199489162     0.000286440844      0.00450126134        0.998176121      -0.0480761595
                  -1.75192975e-05    -0.000281854425     1.52921562e-05     0.000253523887
                   9.04837616e-06     0.000199405419     -8.7573285e-06    -0.000206294093        0.998176121      -0.0480761595     0.000635531394      0.00447810705
                   1.65304304e-05      0.00025337855    -1.74929567e-05    -0.000281840923
                  -4.50509016e-06    -8.93373286e-05     4.40624685e-06     8.89386346e-05    -1.75192975e-05    -0.000281854425     1.65304304e-05      0.00025337855
                     0.0010255713       0.0128139172         0.99752048       -0.058884232
                   4.69246601e-06      8.8933755e-05    -4.63125139e-06    -8.93266027e-05     1.52921562e-05     0.000253523887    -1.74929567e-05    -0.000281840923
                       0.99752048       -0.058884232     0.000983933093       0.0128156088

          1.75e+09    0.000172821261    -0.000474479152        0.998659913      -0.0368122035    -1.20254196e-05    -0.000240577177     1.22547038e-05     0.000232504638
                  -6.11467184e-06     -0.00010414269     6.37000692e-06     0.000103670671
                      0.998659913      -0.0368122035     0.000423860624    -0.000489249055     1.07111748e-05     0.000232631517    -1.18440429e-05    -0.000240526882
                   5.98067169e-06      0.00010367767    -6.28606124e-06    -0.000104125688
                  -1.20254196e-05    -0.000240577177     1.07111748e-05     0.000232631517     0.000306504155      0.00523433402        0.997683789      -0.0560120338
                  -2.37593687e-05    -0.000328523589     2.07989691e-05     0.000295555522
                   1.22547038e-05     0.000232504638    -1.18440429e-05    -0.000240526882        0.997683789      -0.0560120338     0.000780565376      0.00519926858
                    2.2478585e-05     0.000295331448    -2.37257353e-05    -0.000328492531
                  -6.11467184e-06     -0.00010414269     5.98067169e-06      0.00010367767    -2.37593687e-05    -0.000328523589      2.2478585e-05     0.000295331448
                     0.0013094423       0.0149173154        0.996793019      -0.0686098478
                   6.37000692e-06     0.000103670671    -6.28606124e-06    -0.000104125688     2.07989691e-05     0.000295555522    -2.37257353e-05    -0.000328492531
                      0.996793019      -0.0686098478      0.00125266999       0.0149202062

             2e+09    0.000141329716    -0.000562213491        0.998392411      -0.0420109634     -1.5631944e-05    -0.000274787797     1.59441425e-05      0.00026554901
                  -7.96763468e-06    -0.000118912238     8.30159408e-06     0.000118371051
                      0.998392411      -0.0420109634     0.000468509269    -0.000583020556     1.39328048e-05     0.000265731927    -1.53946494e-05     -0.00027470699
                   7.79328505e-06     0.000118380677    -8.19098746e-06    -0.000118886988
                   -1.5631944e-05    -0.000274787797     1.39328048e-05     0.000265731927     0.000326448332      0.00596913548         0.99713049      -0.0639368095
                  -3.09510022e-05    -0.000375066788     2.71392822e-05     0.000337486214
                   1.59441425e-05      0.00026554901    -1.53946494e-05     -0.00027470699         0.99713049      -0.0639368095     0.000944281913      0.00591858296
                    2.9325139e-05     0.000337158784    -3.09074733e-05    -0.000375010323
                  -7.96763468e-06    -0.000118912238     7.79328505e-06     0.000118380677    -3.09510022e-05    -0.000375066788      2.9325139e-05     0.000337158784
                    0.00163392415       0.0170158631        0.995969846      -0.0783196325
                   8.30159408e-06     0.000118371051    -8.19098746e-06    -0.000118886988     2.71392822e-05     0.000337486214    -3.09074733e-05    -0.000375010323
                      0.995969846      -0.0783196325      0.00155971275       0.0170203524

          2.25e+09    0.000102031014    -0.000649527191        0.998099916      -0.0472038294    -1.97070219e-05    -0.000308946284     2.01194473e-05     0.000298534728
                  -1.00632054e-05    -0.000133641446     1.04861259e-05     0.000133030261
                      0.998099916      -0.0472038294     0.000515325734    -0.000677822977     1.75796749e-05     0.000298788134      -1.940579e-05    -0.000308825549
                   9.84292852e-06     0.000133043069    -1.03452238e-05    -0.000133605636
                  -1.97070219e-05    -0.000308946284     1.75796749e-05     0.000298788134     0.000346807109      0.00670404705         0.99651605      -0.0718525867
                   -3.9066393e-05    -0.000421465291     3.43305886e-05     0.000379296721
                   2.01194473e-05     0.000298534728      -1.940579e-05    -0.000308825549         0.99651605      -0.0718525867      0.00112715079      0.00663416911
                   3.70878212e-05      0.00037883824    -3.90124376e-05    -0.000421374333
                  -1.00632054e-05    -0.000133641446     9.84292852e-06     0.000133043069     -3.9066393e-05    -0.000421465291     3.70878212e-05      0.00037883824
                    0.00199838236       0.0191066132        0.995049926      -0.0880159789
                   1.04861259e-05     0.000133030261    -1.03452238e-05    -0.000133605636     3.43305886e-05     0.000379296721    -3.90124376e-05    -0.000421374333
                      0.995049926      -0.0880159789      0.00190437967       0.0191131887

           2.5e+09    5.51948029e-05    -0.000736280332        0.997782189        -0.05239123    -2.42525438e-05    -0.000343047922     2.47770794e-05     0.000331454685
                  -1.24003183e-05    -0.000148325632     1.29226794e-05     0.000147643632
                      0.997782189        -0.05239123     0.000564534603    -0.000773655094      2.1648569e-05      0.00033179468     -2.3878698e-05    -0.000342876499
                   1.21286532e-05     0.000147660246    -1.27476025e-05    -0.000148276704
                  -2.42525438e-05    -0.000343047922      2.1648569e-05      0.00033179468     0.000367649545      0.00744034712        0.995840088      -0.0797583573
                  -4.81188541e-05    -0.000467705924     4.23563452e-05     0.000420977773
                   2.47770794e-05     0.000331454685     -2.3878698e-05    -0.000342876499        0.995840088      -0.0797583573      0.00132914579       0.0073467456
                    4.5748577e-05     0.000420357438    -4.80522277e-05    -0.000467570377
                  -1.24003183e-05    -0.000148325632     1.21286532e-05     0.000147660246    -4.81188541e-05    -0.000467705924      4.5748577e-05     0.000420357438
                    0.00240289558       0.0211907003        0.994033229      -0.0976962144
                   1.29226794e-05     0.000147643632    -1.27476025e-05    -0.000148276704     4.23563452e-05     0.000420977773    -4.80522277e-05    -0.000467570377
                      0.994033229      -0.0976962144      0.00228678978       0.0211999223

          2.75e+09    1.04052327e-06    -0.000822283428        0.997439083       -0.057573494     -2.9267475e-05    -0.000377087923     2.99161363e-05      0.00036430213
                  -1.49779429e-05     -0.00016296022     1.56101859e-05     0.000162206485
                      0.997439083       -0.057573494     0.000616320063    -0.000870481292     2.61391262e-05     0.000364746472    -2.88119509e-05    -0.000376853871
                    1.4649332e-05     0.000162227581     -1.5397012e-05    -0.000162895346
                   -2.9267475e-05    -0.000377087923     2.61391262e-05     0.000364746472     0.000389165501       0.0081780857        0.995102447      -0.0876542715
                  -5.81026437e-05     -0.00051377388     5.12157343e-05     0.000462514424
                   2.99161363e-05      0.00036430213    -2.88119509e-05    -0.000376853871        0.995102447      -0.0876542715      0.00155033187      0.00805596387
                    5.5305506e-05     0.000461698159    -5.80208234e-05    -0.000513582644
                  -1.49779429e-05     -0.00016296022      1.4649332e-05     0.000162227581    -5.81026437e-05     -0.00051377388      5.5305506e-05     0.000461698159
                    0.00284740495       0.0232669773        0.992919635       -0.107360303
                   1.56101859e-05     0.000162206485     -1.5397012e-05    -0.000162895346     5.12157343e-05     0.000462514424    -5.80208234e-05    -0.000513582644
                      0.992919635       -0.107360303      0.00270681529        0.023279478

             3e+09   -5.99238501e-05    -0.000907253663        0.997070763      -0.0627508047    -3.47558576e-05     -0.00041105382      3.5530505e-05     0.000397075156
                  -1.77944326e-05    -0.000177541095     1.85478478e-05     0.000176713859
                      0.997070763      -0.0627508047     0.000671034591    -0.000968145978     3.10470537e-05     0.000397643382    -3.42106615e-05    -0.000410744697
