! Created Fri Apr  9 13:31:56 2021
! List of port names and net name(s): example Port n = <port_name> <net_name1> <net_name2> ...
! Port 1 = P1 P1 P3 
! Port 2 = P2 P2 P4 
! Port 3 = P5 N__5 P7 
! Port 4 = P6 N__6 P8 
! Port 5 = P9 P11 N__9 
! Port 6 = P10 N__10 P12 
# hz S ri R 50
! 6 Port Network Data from data block
! freq  reS11  imS11  reS12  imS12  reS13  imS13  reS14  imS14  
!       reS15  imS15  reS16  imS16  
!       reS21  imS21  reS22  imS22  
!       reS23  imS23  reS24  imS24  reS25  imS25  reS26  imS26  
!       reS31  imS31  reS32  imS32  reS33  imS33  reS34  imS34  
!       reS35  imS35  reS36  imS36  
!       reS41  imS41  reS42  imS42  
!       reS43  imS43  reS44  imS44  reS45  imS45  reS46  imS46  
!       reS51  imS51  reS52  imS52  reS53  imS53  reS54  imS54  
!       reS55  imS55  reS56  imS56  
!       reS61  imS61  reS62  imS62  
!       reS63  imS63  reS64  imS64  reS65  imS65  reS66  imS66  
!     
                 0    7.21177341e-05    -1.22335107e-09        0.999927882    -1.97832849e-08    -8.35364485e-13    -1.38195271e-10    -2.39761906e-13     1.37654972e-10
                   6.90137282e-12    -6.28482151e-11    -6.63453445e-12     6.12065811e-11
                      0.999927882    -1.97832849e-08     7.21177336e-05    -1.22326122e-09    -2.11047694e-13     1.37625958e-10    -8.65107002e-13    -1.38203371e-10
                  -6.66330246e-12     6.12512854e-11      6.9351129e-12    -6.28812983e-11
                  -8.35364485e-13    -1.38195271e-10    -2.11047694e-13     1.37625958e-10      7.0241434e-05     7.96902496e-10        0.999929759    -2.99055777e-08
                  -1.57909675e-12    -1.87044284e-10     1.59058405e-12     1.75953747e-10
                  -2.39761906e-13     1.37654972e-10    -8.65107002e-13    -1.38203371e-10        0.999929759    -2.99055777e-08     7.02414884e-05      7.9656397e-10
                   1.57915746e-12     1.75879818e-10    -1.45434565e-12    -1.86980171e-10
                   6.90137282e-12    -6.28482151e-11    -6.66330246e-12     6.12512854e-11    -1.57909675e-12    -1.87044284e-10     1.57915746e-12     1.75879818e-10
                   6.95054263e-05     5.15690918e-09        0.999930494    -3.60221172e-08
                  -6.63453445e-12     6.12065811e-11      6.9351129e-12    -6.28812983e-11     1.59058405e-12     1.75953747e-10    -1.45434565e-12    -1.86980171e-10
                      0.999930494    -3.60221172e-08     6.95053223e-05     5.15656037e-09

         250000000    0.000148218932     0.000698964365        0.999826364     -0.00468281628    -3.01817156e-07     -3.4277496e-05     3.02768608e-07     3.35143124e-05
                  -1.34186941e-07    -1.49240184e-05     1.38059286e-07     1.48713297e-05
                      0.999826364     -0.00468281628     0.000151634378     0.000698865619     2.79695188e-07     3.35150219e-05    -2.96440049e-07      -3.427814e-05
                   1.31919354e-07     1.48713926e-05     -1.3673084e-07    -1.49240163e-05
                  -3.01817156e-07     -3.4277496e-05     2.79695188e-07     3.35150219e-05     0.000152460112      0.00177305389        0.999807914     -0.00716837647
                  -5.13051409e-07    -4.64011721e-05     4.63046379e-07     4.31228885e-05
                   3.02768608e-07     3.35143124e-05    -2.96440049e-07      -3.427814e-05        0.999807914     -0.00716837647     0.000158742329      0.00177290147
                   4.85807884e-07     4.31221472e-05    -5.05527788e-07    -4.64025277e-05
                  -1.34186941e-07    -1.49240184e-05     1.31919354e-07     1.48713926e-05    -5.13051409e-07    -4.64011721e-05     4.85807884e-07     4.31221472e-05
                   0.000172119136      0.00318129796        0.999789863     -0.00897456534
                   1.38059286e-07     1.48713297e-05     -1.3673084e-07    -1.49240163e-05     4.63046379e-07     4.31228885e-05    -5.05527788e-07    -4.64025277e-05
                      0.999789863     -0.00897456534      0.00017132372      0.00318128805

         500000000    0.000222378425      0.00134247392        0.999707663     -0.00929621661    -1.06137603e-06    -6.85147325e-05     1.07336276e-06     6.69911283e-05
                  -5.17210575e-07    -2.98358488e-05     5.33184365e-07     2.97304622e-05
                      0.999707663     -0.00929621661     0.000235903296      0.00134205207     9.81584333e-07     6.69942569e-05    -1.04045623e-06    -6.85160673e-05
                   5.08689515e-07     2.97307092e-05    -5.27393997e-07     -2.9835687e-05
                  -1.06137603e-06    -6.85147325e-05     9.81584333e-07     6.69942569e-05      0.00024898501       0.0034889115        0.999636282      -0.0142600324
                  -1.97292523e-06    -9.27532894e-05     1.80539415e-06      8.6215092e-05
                   1.07336276e-06     6.69911283e-05    -1.04045623e-06    -6.85160673e-05        0.999636282      -0.0142600324     0.000274009655      0.00348820188
                   1.89587334e-06     8.62109913e-05    -1.94402646e-06    -9.27570305e-05
                  -5.17210575e-07    -2.98358488e-05     5.08689515e-07     2.97307092e-05    -1.97292523e-06    -9.27532894e-05     1.89587334e-06     8.62109913e-05
                   0.000326993367      0.00630364966        0.999564199      -0.0178708426
                   5.33184365e-07     2.97304622e-05    -5.27393997e-07     -2.9835687e-05     1.80539415e-06      8.6215092e-05    -1.94402646e-06    -9.27570305e-05
                      0.999564199      -0.0178708426     0.000323818958      0.00630362526

         750000000    0.000290115961      0.00195057427        0.999576822      -0.0138684419    -2.29536316e-06    -0.000102715796     2.32990046e-06     0.000100431391
                  -1.14830333e-06    -4.47322888e-05     1.18443613e-06     4.45740709e-05
                      0.999576822      -0.0138684419     0.000320372975       0.0019495588     2.12425947e-06     0.000100439703    -2.24927079e-06    -0.000102717088
                   1.12942289e-06     4.45746518e-05    -1.17122691e-06    -4.47316317e-05
                  -2.29536316e-06    -0.000102715796     2.12425947e-06     0.000100439703     0.000352718634      0.00516976913        0.999423734      -0.0213082511
                  -4.37379717e-06    -0.000139047392     4.02672183e-06     0.000129259365
                   2.32990046e-06     0.000100431391    -2.24927079e-06    -0.000102717088        0.999423734      -0.0213082511     0.000408797709      0.00516782007
                   4.22946602e-06     0.000129247415    -4.31061569e-06    -0.000139053856
                  -1.14830333e-06    -4.47322888e-05     1.12942289e-06     4.45746518e-05    -4.37379717e-06    -0.000139047392     4.22946602e-06     0.000129247415
                   0.000526755843      0.00938955632        0.999261741      -0.0267209833
                   1.18443613e-06     4.45740709e-05    -1.17122691e-06    -4.47316317e-05     4.02672183e-06     0.000129259365    -4.31061569e-06    -0.000139053856
                      0.999261741      -0.0267209833     0.000519509611       0.0093895688

             1e+09     0.00034647318      0.00254420392        0.999437505      -0.0184228171    -3.99857513e-06    -0.000136882516     4.06543334e-06     0.000133838385
                  -2.02609964e-06    -5.96104535e-05     2.09052591e-06     5.93993612e-05
                      0.999437505      -0.0184228171     0.000400047824      0.00254224549     3.70092465e-06     0.000133855625    -3.91772735e-06    -0.000136882105
                    1.9928319e-06     5.94004573e-05    -2.06685234e-06     -5.9608783e-05
                  -3.99857513e-06    -0.000136882516     3.70092465e-06     0.000133855625     0.000460035494      0.00683717635        0.999172049      -0.0283370673
                  -7.71746136e-06    -0.000185279543      7.1228243e-06     0.000172247346
                   4.06543334e-06     0.000133838385    -3.91772735e-06    -0.000136882105        0.999172049      -0.0283370673     0.000559482858      0.00683307139
                   7.48200914e-06     0.000172220961    -7.60756226e-06    -0.000185288088
                  -2.02609964e-06    -5.96104535e-05      1.9928319e-06     5.94004573e-05    -7.71746136e-06    -0.000185279543     7.48200914e-06     0.000172220961
                   0.000767788793       0.0124583215        0.998885042      -0.0355497102
                   2.09052591e-06     5.93993612e-05    -2.06685234e-06     -5.9608783e-05      7.1228243e-06     0.000172247346    -7.60756226e-06    -0.000185288088
                      0.998885042      -0.0355497102     0.000754819457        0.012458357

          1.25e+09    0.000396996503      0.00313241473         0.99928611      -0.0229680199    -6.17063162e-06    -0.000171016656      6.2809802e-06     0.000167209364
                  -3.15029532e-06    -7.44664662e-05      3.2510604e-06     7.42022086e-05
                       0.99928611      -0.0229680199     0.000480559696      0.00312908106     5.71280955e-06     0.000167240233    -6.04540641e-06    -0.000171011953
                   3.09852912e-06     7.42040256e-05    -3.21395416e-06    -7.44630682e-05
                  -6.17063162e-06    -0.000171016656     5.71280955e-06     0.000167240233     0.000576092394      0.00849841459        0.998876218      -0.0353555555
                  -1.19948456e-05    -0.000231426448     1.10927983e-05     0.000215162036
                    6.2809802e-06     0.000167209364    -6.04540641e-06    -0.000171011953        0.998876218      -0.0353555555     0.000731156414      0.00849104444
                   1.16528074e-05      0.00021511288    -1.18255796e-05     -0.00023143584
                  -3.15029532e-06    -7.44664662e-05     3.09852912e-06     7.42040256e-05    -1.19948456e-05    -0.000231426448     1.16528074e-05      0.00021511288
                    0.00105499306       0.0155176631          0.9984289      -0.0443648467
                    3.2510604e-06     7.42022086e-05    -3.21395416e-06    -7.44630682e-05     1.10927983e-05     0.000215162036    -1.18255796e-05     -0.00023143584
                        0.9984289      -0.0443648467      0.00103464774       0.0155180545

           1.5e+09    0.000444288015      0.00371716585        0.999118548      -0.0275074924    -8.81273874e-06    -0.000205111585     8.97583141e-06     0.000200539506
                  -4.52025415e-06    -8.92957189e-05     4.66545169e-06     8.89779829e-05
                      0.999118548      -0.0275074924     0.000564387023       0.0037119234     8.15933556e-06     0.000200589867    -8.63341591e-06    -0.000205099474
                   4.44590849e-06     8.89807746e-05    -4.61186574e-06    -8.92897377e-05
                  -8.81273874e-06    -0.000205111585     8.15933556e-06     0.000200589867      0.00070471393       0.0101555575        0.998533517       -0.042365868
                  -1.72097833e-05    -0.000277477025     1.59347729e-05     0.000257990361
                   8.97583141e-06     0.000200539506    -8.63341591e-06    -0.000205099474        0.998533517       -0.042365868     0.000927608924       0.0101434741
                   1.67391416e-05     0.000257907996    -1.69683721e-05    -0.000277485651
                  -4.52025415e-06    -8.92957189e-05     4.44590849e-06     8.89807746e-05    -1.72097833e-05    -0.000277477025     1.67391416e-05     0.000257907996
                     0.0013924641       0.0185680459         0.99789124      -0.0531685074
                   4.66545169e-06     8.89779829e-05    -4.61186574e-06    -8.92897377e-05     1.59347729e-05     0.000257990361    -1.69683721e-05    -0.000277485651
                       0.99789124      -0.0531685074      0.00136309085       0.0185688409

          1.75e+09    0.000490288132      0.00429934254        0.998933309      -0.0320421163    -1.19230395e-05    -0.000239164253     1.21509212e-05     0.000233821263
                  -6.13528358e-06    -0.000104093553      6.3330026e-06     0.000103721867
                      0.998933309      -0.0320421163     0.000653505869      0.00429155757     1.10415579e-05      0.00023389805    -1.16796536e-05    -0.000239140917
                   6.03425379e-06     0.000103725919    -6.25985572e-06    -0.000104083959
                  -1.19230395e-05    -0.000239164253     1.10415579e-05      0.00023389805     0.000847382095        0.011809366         0.99814233      -0.0493683926
                  -2.33575019e-05    -0.000323412744     2.16445359e-05      0.00030071586
                   1.21509212e-05     0.000233821263    -1.16796536e-05    -0.000239140917         0.99814233      -0.0493683926      0.00115030772       0.0117909201
                    2.2736603e-05     0.000300587843    -2.30310558e-05    -0.000323418272
                  -6.13528358e-06    -0.000104093553     6.03425379e-06     0.000103725919    -2.33575019e-05    -0.000323412744      2.2736603e-05     0.000300587843
                    0.00178169483       0.0216099963        0.997270533      -0.0619601191
                    6.3330026e-06     0.000103721867    -6.25985572e-06    -0.000104083959     2.16445359e-05      0.00030071586    -2.30310558e-05    -0.000323418272
                      0.997270533      -0.0619601191       0.0017416151       0.0216114683

             2e+09    0.000535895979      0.00487927825        0.998729632      -0.0365723747     -1.5502765e-05     -0.00027316717     1.58034099e-05     0.000267049279
                  -7.99438436e-06    -0.000118855202     8.25286931e-06     0.000118429158
                      0.998729632      -0.0365723747     0.000748754896      0.00486826191     1.43568562e-05     0.000267160417    -1.51852283e-05    -0.000273127828
                   7.86271691e-06     0.000118434802    -8.15689017e-06    -0.000118840802
                   -1.5502765e-05     -0.00027316717     1.43568562e-05     0.000267160417      0.00100447124       0.0134603928        0.997701638      -0.0563629524
                  -3.04404794e-05    -0.000369222001     2.82206363e-05     0.000343322678
                   1.58034099e-05     0.000267049279    -1.51852283e-05    -0.000273127828        0.997701638      -0.0563629524      0.00139954782          0.0134336
                   2.96433562e-05     0.000343134524    -3.00162031e-05    -0.000369221811
                  -7.99438436e-06    -0.000118855202     7.86271691e-06     0.000118434802    -3.04404794e-05    -0.000369222001     2.96433562e-05     0.000343134524
                    0.00222252017       0.0246435503        0.996565581      -0.0707381342
                   8.25286931e-06     0.000118429158    -8.15689017e-06    -0.000118840802     2.82206363e-05     0.000343322678    -3.00162031e-05    -0.000369221811
                      0.996565581      -0.0707381342      0.00217006026       0.0246459699

          2.25e+09    0.000581547622      0.00545730993        0.998507107      -0.0410985546     -1.9548493e-05    -0.000307115619     1.99353691e-05     0.000300218053
                  -1.00968263e-05     -0.00013357613     1.04239819e-05     0.000133095159
                      0.998507107      -0.0410985546     0.000850588035      0.00544225659     1.81075621e-05      0.00030037257    -1.91466796e-05    -0.000307054945
                   9.93017744e-06     0.000133102767     -1.0302222e-05    -0.000133555547
                   -1.9548493e-05    -0.000307115619     1.81075621e-05      0.00030037257      0.00117661113         0.01510702        0.997211375      -0.0633514034
                  -3.84474244e-05    -0.000414875661     3.56588324e-05     0.000385792344
                   1.99353691e-05     0.000300218053    -1.91466796e-05    -0.000307054945        0.997211375      -0.0633514034       0.0016759539       0.0150697971
                   3.74548578e-05      0.00038552769    -3.79121312e-05    -0.000414866093
                  -1.00968263e-05     -0.00013357613     9.93017744e-06     0.000133102767    -3.84474244e-05    -0.000414875661     3.74548578e-05      0.00038552769
                    0.00271529473       0.0276653531        0.995776304      -0.0795058187
                   1.04239819e-05     0.000133095159     -1.0302222e-05    -0.000133555547     3.56588324e-05     0.000385792344    -3.79121312e-05    -0.000414866093
                      0.995776304      -0.0795058187      0.00264881504       0.0276689764

           2.5e+09     0.00062745471      0.00603364821        0.998265452      -0.0456209599    -2.40610948e-05    -0.000341003656     2.45438559e-05     0.000333320259
                  -1.24414277e-05    -0.000148251647     1.28453585e-05     0.000147715183
                      0.998265452      -0.0456209599     0.000959195359        0.006013681      2.2290914e-05     0.000333528235    -2.35645448e-05    -0.000340915621
                   1.22356457e-05     0.000147725169    -1.26946124e-05    -0.000148223346
                  -2.40610948e-05    -0.000341003656      2.2290914e-05     0.000333528235      0.00136384413        0.016750607        0.996671202      -0.0703325031
                  -4.73774204e-05    -0.000460363656     4.39566152e-05      0.00042811158
                   2.45438559e-05     0.000333320259    -2.35645448e-05    -0.000340915621        0.996671202      -0.0703325031      0.00197951169       0.0167005124
                   4.61681369e-05     0.000427752154    -4.67179035e-05    -0.000460340957
                  -1.24414277e-05    -0.000148251647     1.22356457e-05     0.000147725169    -4.73774204e-05    -0.000460363656     4.61681369e-05     0.000427752154
                    0.00326013305       0.0306768703        0.994902752      -0.0882598395
                   1.28453585e-05     0.000147715183    -1.26946124e-05    -0.000148223346     4.39566152e-05      0.00042811158    -4.67179035e-05    -0.000460340957
                      0.994902752      -0.0882598395      0.00317797966       0.0306820367

          2.75e+09    0.000673809769        0.006608516         0.99800451       -0.050139832    -2.90392982e-05    -0.000374825889     2.96279251e-05     0.000366349298
                  -1.50271023e-05    -0.000162877152     1.55158716e-05     0.000162284539
                       0.99800451       -0.050139832      0.00107475117      0.00658266876     2.69062641e-05     0.000366621888    -2.84373313e-05    -0.000374703788
                   1.47779537e-05     0.000162297361     -1.5332933e-05    -0.000162839432
                  -2.90392982e-05    -0.000374825889     2.69062641e-05     0.000366621888      0.00156629107       0.0183910973         0.99608095      -0.0773063243
                  -5.72265442e-05    -0.000505668495     5.31093033e-05     0.000470265243
                   2.96279251e-05     0.000366349298    -2.84373313e-05    -0.000374703788         0.99608095      -0.0773063243       0.0023102671       0.0183254777
                   5.57780037e-05     0.000469790825    -5.64292812e-05    -0.000505628214
                  -1.50271023e-05    -0.000162877152     1.47779537e-05     0.000162297361    -5.72265442e-05    -0.000505668495     5.57780037e-05     0.000469790825
                     0.0038568766       0.0336768905        0.993944796      -0.0970001314
                   1.55158716e-05     0.000162284539     -1.5332933e-05    -0.000162839432     5.31093033e-05     0.000470265243    -5.64292812e-05    -0.000505628214
                      0.993944796      -0.0970001314      0.00375737939        0.033683961

             3e+09    0.000721097286      0.00718226127        0.997724435      -0.0546552489    -3.44868172e-05    -0.000408572998     3.51825109e-05     0.000399300855
                  -1.78523524e-05    -0.000177448419     1.84345275e-05     0.000176798401
                      0.997724435      -0.0546552489      0.00119760109       0.0071494735     3.19494017e-05     0.000399650167    -3.37690018e-05    -0.000408409844
