!Agilent Technologies,E8357A,US42070586,A.04.87.01
!Agilent E8357A: A.04.87.01
!Date: Thursday, April 15, 2021 17:28:09
!Correction: S11(Full 2 Port SOLT,1,2) S21(Full 2 Port SOLT,1,2) S12(Full 2 Port SOLT,1,2) S22(Full 2 Port SOLT,1,2) 
!S2P File: Measurements: S11, S21, S12, S22:
# Hz S  RI   R 50
300000 -3.073903e-003 1.261259e-002 3.514340e-001 -5.125201e-003 3.501245e-001 -4.911136e-003 -6.398228e-003 1.338887e-002
10759830.185 -4.149155e-004 2.520597e-003 3.367900e-001 -9.133278e-002 3.352891e-001 -9.651082e-002 -3.089107e-003 3.901862e-003
21219660.37 1.034681e-003 3.078826e-003 3.021814e-001 -1.732247e-001 3.015714e-001 -1.756919e-001 -1.511565e-003 4.928175e-003
31679490.555 2.087837e-003 2.968166e-003 2.479938e-001 -2.437118e-001 2.469276e-001 -2.460883e-001 1.968914e-004 5.373355e-003
42139320.74 3.121986e-003 2.505315e-003 1.768169e-001 -2.982419e-001 1.764105e-001 -2.996961e-001 1.636742e-003 5.176397e-003
52599150.925 3.620521e-003 2.039266e-003 9.636978e-002 -3.332592e-001 9.511945e-002 -3.343787e-001 2.552532e-003 4.838867e-003
63058981.11 3.868967e-003 1.446076e-003 9.175855e-003 -3.461358e-001 7.607779e-003 -3.469791e-001 3.170071e-003 4.327834e-003
73518811.295 4.121869e-003 1.095246e-003 -7.787269e-002 -3.334753e-001 -7.865341e-002 -3.341108e-001 3.808015e-003 3.745858e-003
83978641.48 4.239090e-003 4.728355e-004 -1.592558e-001 -3.026317e-001 -1.600913e-001 -3.034727e-001 4.138903e-003 2.948567e-003
94438471.665 4.276116e-003 -2.383610e-005 -2.317213e-001 -2.520004e-001 -2.323026e-001 -2.518113e-001 4.120956e-003 2.106969e-003
104898301.85 4.400467e-003 -4.876529e-004 -2.873484e-001 -1.855576e-001 -2.880043e-001 -1.853004e-001 4.149980e-003 1.349433e-003
115358132.035 4.614680e-003 -1.111059e-003 -3.264489e-001 -1.091541e-001 -3.275456e-001 -1.076958e-001 4.116659e-003 6.996281e-004
125817962.22 4.597954e-003 -1.951635e-003 -3.428946e-001 -2.319635e-002 -3.441294e-001 -2.236726e-002 4.044497e-003 -1.611223e-004
136277792.405 4.373031e-003 -2.942379e-003 -3.381102e-001 6.370544e-002 -3.382532e-001 6.500777e-002 3.763063e-003 -1.193780e-003
146737622.59 3.831408e-003 -3.992789e-003 -3.102630e-001 1.463020e-001 -3.105796e-001 1.479572e-001 3.180302e-003 -2.243427e-003
157197452.775 2.926835e-003 -4.779266e-003 -2.632976e-001 2.192553e-001 -2.638438e-001 2.207902e-001 2.350312e-003 -2.954490e-003
167657282.96 1.791413e-003 -5.239726e-003 -1.999400e-001 2.780531e-001 -1.997209e-001 2.797641e-001 1.373752e-003 -3.536303e-003
178117113.145 4.266204e-004 -5.352784e-003 -1.236554e-001 3.195552e-001 -1.224835e-001 3.210253e-001 3.069880e-004 -3.596594e-003
188576943.33 -6.940162e-004 -5.292609e-003 -3.904453e-002 3.401604e-001 -3.830772e-002 3.402755e-001 -8.384304e-004 -3.353947e-003
199036773.515 -1.720013e-003 -4.784576e-003 4.747307e-002 3.391092e-001 4.874766e-002 3.396407e-001 -1.777900e-003 -2.838860e-003
209496603.7 -2.756035e-003 -4.192628e-003 1.300355e-001 3.127939e-001 1.302945e-001 3.135208e-001 -2.756925e-003 -2.145921e-003
219956433.885 -3.485905e-003 -3.369291e-003 2.049430e-001 2.694794e-001 2.057637e-001 2.700095e-001 -3.587332e-003 -1.029040e-003
230416264.07 -4.204424e-003 -2.534146e-003 2.650163e-001 2.096931e-001 2.663592e-001 2.098838e-001 -4.345746e-003 3.719969e-004
240876094.255 -4.928973e-003 -1.545768e-003 3.086336e-001 1.362870e-001 3.100594e-001 1.358693e-001 -4.877890e-003 2.131585e-003
251335924.44 -5.496086e-003 -6.277537e-004 3.364297e-001 5.589063e-002 3.372588e-001 5.451218e-002 -5.432489e-003 3.974664e-003
261795754.625 -5.855349e-003 5.257464e-004 3.361324e-001 -3.100322e-002 3.377959e-001 -3.152968e-002 -5.374431e-003 6.076496e-003
272255584.81 -6.242358e-003 1.770257e-003 3.178255e-001 -1.132851e-001 3.183241e-001 -1.150754e-001 -5.177768e-003 8.639326e-003
282715414.995 -6.481746e-003 3.115920e-003 2.809473e-001 -1.916721e-001 2.810785e-001 -1.931287e-001 -4.782234e-003 1.123165e-002
293175245.18 -6.649228e-003 4.327417e-003 2.228517e-001 -2.542385e-001 2.220101e-001 -2.559130e-001 -3.922043e-003 1.370040e-002
303635075.365 -6.704455e-003 5.796588e-003 1.519515e-001 -3.016135e-001 1.506939e-001 -3.030967e-001 -2.496963e-003 1.633167e-002
314094905.55 -6.707726e-003 7.268997e-003 7.125992e-002 -3.288288e-001 7.045345e-002 -3.299493e-001 -8.630584e-004 1.869959e-002
324554735.735 -6.472970e-003 8.744032e-003 -1.467317e-002 -3.363763e-001 -1.566334e-002 -3.370571e-001 1.548518e-003 2.060925e-002
335014565.92 -6.297805e-003 1.048209e-002 -9.820183e-002 -3.220025e-001 -9.924676e-002 -3.222138e-001 4.254256e-003 2.227049e-002
345474396.105 -5.595561e-003 1.231596e-002 -1.755331e-001 -2.874215e-001 -1.769437e-001 -2.866726e-001 7.374782e-003 2.312246e-002
355934226.29 -4.777883e-003 1.439457e-002 -2.419625e-001 -2.340579e-001 -2.441051e-001 -2.335208e-001 1.080676e-002 2.326326e-002
366394056.475 -3.217878e-003 1.636008e-002 -2.925927e-001 -1.666439e-001 -2.942024e-001 -1.650482e-001 1.417405e-002 2.241399e-002
376853886.66 -1.013343e-003 1.819545e-002 -3.248157e-001 -8.668524e-002 -3.265971e-001 -8.584061e-002 1.766298e-002 2.068967e-002
387313716.845 1.781815e-003 1.964363e-002 -3.361758e-001 -3.018670e-003 -3.371689e-001 -8.271966e-004 2.048395e-002 1.789289e-002
397773547.03 5.045545e-003 2.018798e-002 -3.253098e-001 8.064004e-002 -3.269716e-001 8.270087e-002 2.292580e-002 1.417298e-002
408233377.215 8.568374e-003 2.003083e-002 -2.948105e-001 1.595162e-001 -2.958745e-001 1.609244e-001 2.406988e-002 9.338074e-003
418693207.4 1.187570e-002 1.910323e-002 -2.444686e-001 2.287341e-001 -2.448288e-001 2.297034e-001 2.420595e-002 4.370249e-003
429153037.585 1.506353e-002 1.726270e-002 -1.790109e-001 2.827375e-001 -1.789207e-001 2.841925e-001 2.308379e-002 -8.431497e-004
439612867.77 1.775870e-002 1.501428e-002 -1.019380e-001 3.189258e-001 -1.013713e-001 3.199953e-001 2.070613e-002 -5.865633e-003
450072697.955 2.003329e-002 1.217224e-002 -1.901117e-002 3.338974e-001 -1.825837e-002 3.345860e-001 1.731828e-002 -1.047328e-002
460532528.14 2.167091e-002 8.986243e-003 6.497955e-002 3.277750e-001 6.629751e-002 3.282200e-001 1.274714e-002 -1.414996e-002
470992358.325 2.249853e-002 5.611884e-003 1.449750e-001 3.014151e-001 1.473923e-001 3.010508e-001 7.189477e-003 -1.662689e-002
481452188.51 2.305815e-002 2.247213e-003 2.157286e-001 2.556514e-001 2.174049e-001 2.545198e-001 1.216268e-003 -1.781560e-002
491912018.695 2.291471e-002 -1.194827e-003 2.726562e-001 1.933534e-001 2.748106e-001 1.926354e-001 -4.722063e-003 -1.731665e-002
502371848.88 2.219030e-002 -4.811502e-003 3.117370e-001 1.189388e-001 3.142017e-001 1.181243e-001 -1.046441e-002 -1.554077e-002
512831679.065 2.091465e-002 -8.345173e-003 3.312935e-001 3.632588e-002 3.326414e-001 3.595876e-002 -1.565424e-002 -1.237688e-002
523291509.25 1.870790e-002 -1.175921e-002 3.291918e-001 -4.885326e-002 3.305460e-001 -4.967375e-002 -1.991745e-002 -7.753049e-003
533751339.435 1.554924e-002 -1.483628e-002 3.073777e-001 -1.299048e-001 3.068778e-001 -1.314911e-001 -2.329227e-002 -2.074556e-003
544211169.62 1.177871e-002 -1.708960e-002 2.647714e-001 -2.027905e-001 2.644096e-001 -2.052394e-001 -2.509545e-002 4.653607e-003
554670999.805 7.496863e-003 -1.844534e-002 2.054520e-001 -2.627647e-001 2.042629e-001 -2.648312e-001 -2.516192e-002 1.169611e-002
565130829.99 2.843470e-003 -1.905097e-002 1.331693e-001 -3.061585e-001 1.309482e-001 -3.081937e-001 -2.334437e-002 1.884572e-002
575590660.175 -2.106836e-003 -1.853684e-002 5.218281e-002 -3.294769e-001 5.028956e-002 -3.304824e-001 -1.997910e-002 2.530633e-002
586050490.36 -1.519406e-002 -2.759319e-002 -2.518725e-002 8.757321e-002 -1.849135e+000 2.683454e-001 5.654963e+001 1.892748e+001
596510320.545 -1.155787e-002 -1.432078e-002 -1.138818e-001 -3.121221e-001 -1.158027e-001 -3.121689e-001 -9.365115e-003 3.551368e-002
606970150.73 -1.564315e-002 -1.063599e-002 -1.893490e-001 -2.732359e-001 -1.908318e-001 -2.729025e-001 -2.228928e-003 3.856616e-002
617429980.915 -1.863687e-002 -6.151058e-003 -2.518878e-001 -2.173722e-001 -2.528619e-001 -2.160978e-001 5.260869e-003 3.983556e-002
627889811.1 -2.076980e-002 -1.344814e-003 -2.980603e-001 -1.482775e-001 -2.996787e-001 -1.461784e-001 1.286331e-002 3.901251e-002
638349641.285 -3.844056e-002 2.159219e-002 -4.145985e-001 -5.075870e-001 4.898672e+000 -3.762424e+000 -1.047664e+000 1.181534e+002
648809471.47 -2.211190e-002 9.157667e-003 -3.314216e-001 1.428136e-002 -3.328727e-001 1.714654e-002 2.589722e-002 3.234373e-002
659269301.655 -2.107684e-002 1.458379e-002 -3.164409e-001 9.701446e-002 -3.175373e-001 9.900469e-002 3.052252e-002 2.698616e-002
669729131.84 -1.890624e-002 1.938907e-002 -2.816040e-001 1.739724e-001 -2.819065e-001 1.754513e-001 3.368952e-002 2.038975e-002
680188962.025 -1.569518e-002 2.377945e-002 -2.289718e-001 2.394271e-001 -2.279692e-001 2.405488e-001 3.528749e-002 1.325493e-002
690648792.21 -1.176749e-002 2.715792e-002 -1.614548e-001 2.899790e-001 -1.598902e-001 2.912778e-001 3.461922e-002 5.739463e-003
701108622.395 -7.433876e-003 2.961512e-002 -8.423488e-002 3.209056e-001 -8.183782e-002 3.216745e-001 3.201481e-002 -1.384268e-003
711568452.58 -2.763927e-003 3.130840e-002 -1.287778e-003 3.313829e-001 1.458312e-003 3.319804e-001 2.781078e-002 -7.546703e-003
722028282.765 4.772103e-002 1.529363e-002 1.435152e-001 6.350043e-002 3.635260e+000 -1.256158e+000 3.643075e+000 -2.082172e+001
732488112.95 7.098594e-003 3.214860e-002 1.605159e-001 2.888494e-001 1.614870e-001 2.896977e-001 1.579124e-002 -1.583379e-002
742947943.135 1.175519e-002 3.149963e-002 2.275659e-001 2.393274e-001 2.297352e-001 2.388086e-001 8.246630e-003 -1.755092e-002
753407773.32 1.650319e-002 3.025567e-002 2.826556e-001 1.765847e-001 2.847466e-001 1.755319e-001 3.860671e-004 -1.780133e-002
763867603.505 2.114945e-002 2.818317e-002 3.180621e-001 9.962814e-002 3.196574e-001 9.778015e-002 -7.148952e-003 -1.578747e-002
774327433.69 2.544053e-002 2.528454e-002 3.318873e-001 1.634508e-002 3.323208e-001 1.553173e-002 -1.391645e-002 -1.187429e-002
784787263.875 2.934891e-002 2.142451e-002 3.247306e-001 -6.720358e-002 3.254693e-001 -6.881479e-002 -1.970706e-002 -6.416884e-003
795247094.06 3.254377e-002 1.681570e-002 2.975517e-001 -1.462621e-001 2.973256e-001 -1.480463e-001 -2.388008e-002 1.215675e-004
805706924.245 3.456000e-002 1.152363e-002 2.513996e-001 -2.164048e-001 2.507123e-001 -2.178257e-001 -2.644469e-002 7.285865e-003
816166754.43 3.527500e-002 5.797646e-003 1.897842e-001 -2.725008e-001 1.885262e-001 -2.740510e-001 -2.758816e-002 1.501261e-002
826626584.615 3.461085e-002 1.257423e-004 1.151136e-001 -3.111331e-001 1.135449e-001 -3.126116e-001 -2.680274e-002 2.271028e-002
837086414.8 3.250537e-002 -4.965442e-003 3.347743e-002 -3.296641e-001 3.157344e-002 -3.303730e-001 -2.444122e-002 3.013429e-002
847546244.985 2.922708e-002 -9.080601e-003 -5.034571e-002 -3.267746e-001 -5.237959e-002 -3.275004e-001 -2.065647e-002 3.693801e-002
858006075.17 2.514813e-002 -1.204682e-002 -1.310374e-001 -3.037421e-001 -1.329888e-001 -3.035956e-001 -1.557123e-002 4.266595e-002
868465905.355 2.088815e-002 -1.387789e-002 -2.032085e-001 -2.618198e-001 -2.052179e-001 -2.607601e-001 -9.260524e-003 4.719314e-002
878925735.54 1.668236e-002 -1.472774e-002 -2.621757e-001 -2.012268e-001 -2.636015e-001 -2.005774e-001 -2.096985e-003 5.034738e-002
889385565.725 1.255625e-002 -1.473614e-002 -3.044197e-001 -1.292107e-001 -3.056281e-001 -1.278568e-001 5.509239e-003 5.189788e-002
899845395.91 8.831173e-003 -1.410732e-002 -3.269085e-001 -4.861176e-002 -3.279615e-001 -4.778147e-002 1.324302e-002 5.172565e-002
910305226.095 5.389947e-003 -1.302301e-002 -3.281051e-001 3.460414e-002 -3.289239e-001 3.569630e-002 2.097993e-002 4.996823e-002
920765056.28 2.133431e-003 -1.170656e-002 -3.085787e-001 1.153223e-001 -3.093158e-001 1.168571e-001 2.796980e-002 4.649420e-002
931224886.465 -8.548879e-004 -9.966577e-003 -2.695831e-001 1.893941e-001 -2.698506e-001 1.912367e-001 3.409154e-002 4.150751e-002
941684716.65 -3.945750e-003 -8.077225e-003 -2.138321e-001 2.511416e-001 -2.132409e-001 2.528144e-001 3.889117e-002 3.515169e-002
952144546.835 -6.855639e-003 -5.616353e-003 -1.441521e-001 2.965089e-001 -1.434525e-001 2.980061e-001 4.226944e-002 2.806791e-002
962604377.02 -9.535592e-003 -2.508837e-003 -6.580461e-002 3.234131e-001 -6.406694e-002 3.247205e-001 4.392743e-002 2.023903e-002
973064207.205 -1.183731e-002 1.118780e-003 1.708247e-002 3.290086e-001 1.908262e-002 3.300835e-001 4.379357e-002 1.255692e-002
983524037.39 -1.357758e-002 5.301012e-003 9.952912e-002 3.139361e-001 1.010407e-001 3.147371e-001 4.217559e-002 4.745455e-003
993983867.575 -1.457122e-002 9.980759e-003 1.751365e-001 2.792405e-001 1.768274e-001 2.786044e-001 3.873032e-002 -2.120096e-003
1004443697.76 -1.473352e-002 1.501513e-002 2.397939e-001 2.256494e-001 2.414472e-001 2.250155e-001 3.419739e-002 -7.923678e-003
1014903527.945 -1.390170e-002 2.037128e-002 2.886824e-001 1.587013e-001 2.898006e-001 1.572487e-001 2.821992e-002 -1.228152e-002
1025363358.13 -1.166757e-002 2.551700e-002 3.192698e-001 8.111039e-002 3.200078e-001 7.918205e-002 2.187555e-002 -1.525381e-002
1035823188.315 -8.349537e-003 3.068604e-002 3.291827e-001 -1.738575e-003 3.292691e-001 -3.497954e-003 1.525260e-002 -1.655929e-002
1046283018.5 -3.894344e-003 3.492004e-002 3.180638e-001 -8.402192e-002 3.179288e-001 -8.608676e-002 8.697989e-003 -1.622785e-002
1056742848.685 1.531294e-003 3.847660e-002 2.862615e-001 -1.607789e-001 2.857833e-001 -1.629014e-001 2.358397e-003 -1.459540e-002
1067202678.87 7.501313e-003 4.068426e-002 2.365056e-001 -2.279139e-001 2.353885e-001 -2.295586e-001 -3.404090e-003 -1.148227e-002
1077662509.055 1.395915e-002 4.177251e-002 1.721685e-001 -2.798191e-001 1.704461e-001 -2.804505e-001 -8.429588e-003 -7.310983e-003
1088122339.24 2.034753e-002 4.166146e-002 9.661730e-002 -3.133572e-001 9.451382e-002 -3.144608e-001 -1.261370e-002 -1.945001e-003
1098582169.425 2.647723e-002 4.040131e-002 1.480477e-002 -3.281597e-001 1.277046e-002 -3.284989e-001 -1.580635e-002 4.264402e-003
1109041999.61 3.201102e-002 3.836045e-002 -6.710751e-002 -3.208233e-001 -7.017722e-002 -3.207782e-001 -1.770641e-002 1.155443e-002
1119501829.795 3.724868e-002 3.541591e-002 -1.454853e-001 -2.934495e-001 -1.486283e-001 -2.931231e-001 -1.858929e-002 1.931873e-002
1129961659.98 4.164126e-002 3.205562e-002 -2.143636e-001 -2.473839e-001 -2.166307e-001 -2.462071e-001 -1.800766e-002 2.737616e-002
1140421490.165 4.572859e-002 2.820954e-002 -2.696625e-001 -1.855370e-001 -2.717684e-001 -1.840549e-001 -1.579078e-002 3.566073e-002
1150881320.35 4.911114e-002 2.371916e-002 -3.080261e-001 -1.118506e-001 -3.088557e-001 -1.093474e-001 -1.183325e-002 4.393115e-002
1161341150.535 5.229241e-002 1.894082e-002 -3.259146e-001 -3.085040e-002 -3.268097e-001 -2.883025e-002 -6.125822e-003 5.145224e-002
1171800980.72 5.474586e-002 1.326481e-002 -3.233912e-001 5.194000e-002 -3.229676e-001 5.404883e-002 1.484200e-003 5.756514e-002
1182260810.905 5.621140e-002 6.601400e-003 -2.996209e-001 1.310123e-001 -2.992484e-001 1.335239e-001 1.029263e-002 6.189570e-002
1192720641.09 5.611484e-002 -4.318774e-004 -2.572585e-001 2.023503e-001 -2.558166e-001 2.043837e-001 1.991616e-002 6.425507e-002
1203180471.275 5.458910e-002 -7.829845e-003 -1.978127e-001 2.597564e-001 -1.966320e-001 2.615565e-001 3.002453e-002 6.403866e-002
1213640301.46 5.128352e-002 -1.510056e-002 -1.261247e-001 3.010532e-001 -1.245476e-001 3.019112e-001 3.964282e-002 6.137554e-002
1224100131.645 4.637605e-002 -2.157840e-002 -4.678088e-002 3.229712e-001 -4.528420e-002 3.238815e-001 4.856628e-002 5.642275e-002
1234559961.83 3.978632e-002 -2.707380e-002 3.533377e-002 3.238756e-001 3.664723e-002 3.247646e-001 5.556879e-002 4.898189e-002
1245019792.015 3.167645e-002 -3.084156e-002 1.147842e-001 3.055137e-001 1.162741e-001 3.049694e-001 6.051481e-002 4.023612e-002
1255479622.2 2.307185e-002 -3.249265e-002 1.869240e-001 2.668004e-001 1.892178e-001 2.665270e-001 6.327840e-002 3.055337e-002
1265939452.385 1.451126e-002 -3.219038e-002 2.480356e-001 2.114623e-001 2.501194e-001 2.104114e-001 6.369279e-002 2.035930e-002
1276399282.57 6.310658e-003 -2.998822e-002 2.927536e-001 1.427854e-001 2.948903e-001 1.409955e-001 6.197382e-002 1.044876e-002
1286859112.755 -8.883920e-004 -2.610773e-002 3.191372e-001 6.505610e-002 3.202934e-001 6.192783e-002 5.797496e-002 1.234990e-003
1297318942.94 -6.928563e-003 -2.078877e-002 3.252971e-001 -1.713758e-002 3.256203e-001 -2.024533e-002 5.240469e-002 -6.841221e-003
1307778773.125 -1.141891e-002 -1.444003e-002 3.110876e-001 -9.754173e-002 3.107319e-001 -1.012062e-001 4.530004e-002 -1.335022e-002
1318238603.31 -1.433724e-002 -7.273062e-003 2.761401e-001 -1.730514e-001 2.754262e-001 -1.759371e-001 3.760096e-002 -1.833433e-002
1328698433.495 -1.555928e-002 -1.123714e-004 2.240895e-001 -2.369483e-001 2.226228e-001 -2.390469e-001 2.935173e-002 -2.153360e-002
1339158263.68 -1.502912e-002 6.957394e-003 1.577215e-001 -2.855400e-001 1.549755e-001 -2.869317e-001 2.093462e-002 -2.330339e-002
1349618093.865 -1.353886e-002 1.385606e-002 8.032224e-002 -3.160279e-001 7.764009e-002 -3.168451e-001 1.213518e-002 -2.343441e-002
1360077924.05 -1.072968e-002 2.016983e-002 -2.185329e-003 -3.261932e-001 -4.492169e-003 -3.267133e-001 3.901952e-003 -2.163214e-002
1370537754.235 -6.821295e-003 2.602861e-002 -8.351478e-002 -3.154206e-001 -8.594807e-002 -3.148641e-001 -4.150924e-003 -1.790842e-002
1380997584.42 -1.943509e-003 3.117944e-002 -1.602770e-001 -2.838306e-001 -1.620453e-001 -2.832830e-001 -1.087558e-002 -1.259965e-002
1391457414.605 3.551150e-003 3.580717e-002 -2.259435e-001 -2.345500e-001 -2.278589e-001 -2.335826e-001 -1.650031e-002 -5.686997e-003
1401917244.79 9.888253e-003 3.970513e-002 -2.776249e-001 -1.703289e-001 -2.791549e-001 -1.688090e-001 -2.052171e-002 2.709253e-003
1412377074.975 1.690560e-002 4.260551e-002 -3.112053e-001 -9.482890e-002 -3.128275e-001 -9.320018e-002 -2.274591e-002 1.214751e-002
1422836905.16 2.459570e-002 4.452355e-002 -3.251139e-001 -1.374383e-002 -3.262665e-001 -1.060081e-002 -2.260220e-002 2.237363e-002
1433296735.345 3.300520e-002 4.502992e-002 -3.180594e-001 6.814716e-002 -3.185011e-001 7.156682e-002 -2.001267e-002 3.257719e-002
1443756565.53 4.135913e-002 4.385925e-002 -2.904341e-001 1.462813e-001 -2.897114e-001 1.488246e-001 -1.461876e-002 4.202548e-002
1454216395.715 4.945748e-002 4.096370e-002 -2.444828e-001 2.146970e-001 -2.430658e-001 2.167025e-001 -7.603920e-003 4.977633e-002
1464676225.9 6.580063e-002 4.661305e-002 -1.228990e-001 3.278390e-001 -3.562332e-001 7.378991e-001 -9.100254e-001 2.926036e+000
1475136056.085 6.226506e-002 3.041876e-002 -1.087358e-001 3.058763e-001 -1.070934e-001 3.073672e-001 1.089114e-002 5.931871e-002
1485595886.27 6.640106e-002 2.353503e-002 -2.840019e-002 3.231354e-001 -2.680938e-002 3.240407e-001 2.050538e-002 6.047661e-002
1496055716.455 6.862376e-002 1.622593e-002 5.370570e-002 3.204367e-001 5.590205e-002 3.199974e-001 2.956643e-002 5.906176e-002
1506515546.64 6.914934e-002 8.765552e-003 1.319547e-001 2.968829e-001 1.343039e-001 2.963607e-001 3.735621e-002 5.601861e-002
1516975376.825 6.801252e-002 1.984332e-003 2.023818e-001 2.542784e-001 2.083934e-001 2.502873e-001 3.285434e-002 4.411231e-002
1527435207.01 6.602826e-002 -4.141134e-003 2.586575e-001 1.955549e-001 2.601467e-001 1.945403e-001 4.828813e-002 4.612647e-002
1537895037.195 6.304298e-002 -9.146928e-003 2.994485e-001 1.246170e-001 3.004685e-001 1.231352e-001 5.147727e-002 4.043705e-002
1548354867.38 5.945300e-002 -1.337574e-002 3.182216e-001 4.596529e-002 3.193266e-001 4.444660e-002 5.301278e-002 3.481777e-002
1558814697.565 5.606060e-002 -1.709753e-002 3.193400e-001 -3.453253e-002 3.200890e-001 -3.590244e-002 5.399128e-002 2.931738e-002
1569274527.75 5.254008e-002 -2.018208e-002 2.996882e-001 -1.136064e-001 2.999790e-001 -1.150308e-001 5.405911e-002 2.392697e-002
1579734357.935 4.882069e-002 -2.327813e-002 2.614963e-001 -1.850520e-001 2.613920e-001 -1.869793e-001 5.351958e-002 1.896125e-002
