!Agilent Technologies,E8357A,US42070586,A.04.87.01
!Agilent E8357A: A.04.87.01
!Date: Thursday, April 15, 2021 17:30:00
!Correction: S11(Full 2 Port SOLT,1,2) S21(Full 2 Port SOLT,1,2) S12(Full 2 Port SOLT,1,2) S22(Full 2 Port SOLT,1,2) 
!S2P File: Measurements: S11, S21, S12, S22:
# Hz S  RI   R 50
300000 -1.551804e-003 1.722925e-002 3.503090e-001 -1.157555e-002 3.489555e-001 -1.190937e-002 -4.995583e-003 1.801455e-002
10759830.185 5.709212e-002 1.120388e-001 2.118267e-001 -2.644444e-001 2.080480e-001 -2.671768e-001 5.681279e-002 1.153708e-001
21219660.37 1.371426e-001 1.483219e-001 -5.402363e-002 -3.222307e-001 -5.706129e-002 -3.224298e-001 1.387941e-001 1.514205e-001
31679490.555 2.048732e-001 1.619061e-001 -2.636532e-001 -1.712829e-001 -2.659789e-001 -1.696192e-001 2.075972e-001 1.639206e-001
42139320.74 2.957620e-001 1.560865e-001 -2.921285e-001 7.069865e-002 -2.921573e-001 7.191690e-002 2.992983e-001 1.568882e-001
52599150.925 3.877792e-001 7.757436e-002 -1.512445e-001 2.466585e-001 -1.501014e-001 2.471104e-001 3.902480e-001 7.696420e-002
63058981.11 4.036666e-001 -5.714021e-002 6.111321e-002 2.798404e-001 6.183923e-002 2.804986e-001 4.052456e-001 -5.940266e-002
73518811.295 3.219404e-001 -1.570495e-001 2.393640e-001 1.548128e-001 2.410864e-001 1.554092e-001 3.214247e-001 -1.592846e-001
83978641.48 2.152483e-001 -1.806266e-001 2.905690e-001 -6.486170e-002 2.903208e-001 -6.506269e-002 2.145413e-001 -1.817300e-001
94438471.665 1.396889e-001 -1.566311e-001 1.510453e-001 -2.643685e-001 1.503483e-001 -2.662470e-001 1.394315e-001 -1.565319e-001
104898301.85 7.556108e-002 -1.203954e-001 -1.016304e-001 -2.976942e-001 -1.032184e-001 -2.999842e-001 7.655749e-002 -1.202388e-001
115358132.035 1.833074e-002 -4.457119e-002 -3.053791e-001 -1.297935e-001 -3.065182e-001 -1.292237e-001 1.886003e-002 -4.397339e-002
125817962.22 3.160562e-002 6.659137e-002 -2.963766e-001 1.447040e-001 -2.973205e-001 1.459478e-001 3.264804e-002 6.725542e-002
136277792.405 1.071944e-001 1.292499e-001 -8.578504e-002 3.095692e-001 -8.455800e-002 3.108551e-001 1.090000e-001 1.296258e-001
146737622.59 1.768273e-001 1.442017e-001 1.656336e-001 2.637046e-001 1.670662e-001 2.634533e-001 1.782382e-001 1.435813e-001
157197452.775 2.477648e-001 1.503340e-001 2.939817e-001 5.603311e-002 2.942519e-001 5.524851e-002 2.479685e-001 1.502346e-001
167657282.96 3.424158e-001 1.163880e-001 2.349342e-001 -1.638842e-001 2.345617e-001 -1.655021e-001 3.433729e-001 1.167208e-001
178117113.145 4.065158e-001 7.258830e-003 5.262452e-002 -2.732989e-001 5.122561e-002 -2.735005e-001 4.082609e-001 8.266150e-003
188576943.33 3.766082e-001 -1.249256e-001 -1.519229e-001 -2.348921e-001 -1.519196e-001 -2.342486e-001 3.795504e-001 -1.239691e-001
199036773.515 2.719922e-001 -1.974830e-001 -2.832225e-001 -6.243495e-002 -2.838390e-001 -6.207353e-002 2.739738e-001 -1.980042e-001
209496603.7 1.692640e-001 -1.867651e-001 -2.432570e-001 1.641073e-001 -2.422591e-001 1.632299e-001 1.701474e-001 -1.879147e-001
219956433.885 9.841264e-002 -1.499363e-001 -4.270791e-002 2.968342e-001 -4.059019e-002 2.988599e-001 9.918194e-002 -1.501037e-001
230416264.07 3.805997e-002 -8.898754e-002 1.977356e-001 2.343531e-001 2.016294e-001 2.344310e-001 3.617393e-002 -8.862909e-002
240876094.255 1.431421e-002 1.436740e-002 3.125938e-001 3.479637e-003 3.143705e-001 5.177452e-003 1.445511e-002 1.509740e-002
251335924.44 6.950406e-002 1.137899e-001 2.134657e-001 -2.360735e-001 2.123517e-001 -2.373299e-001 7.078812e-002 1.174814e-001
261795754.625 1.593018e-001 1.415823e-001 -3.093401e-002 -2.972212e-001 -2.978934e-002 -2.973618e-001 1.623449e-001 1.432857e-001
272255584.81 2.294269e-001 1.375689e-001 -2.263762e-001 -1.750907e-001 -2.273869e-001 -1.721737e-001 2.329855e-001 1.361800e-001
282715414.995 3.042960e-001 1.212703e-001 -2.812189e-001 4.554640e-002 -2.821952e-001 4.668192e-002 3.073430e-001 1.178530e-001
293175245.18 3.797506e-001 4.615403e-002 -1.589656e-001 2.145797e-001 -1.567421e-001 2.145869e-001 3.789091e-001 4.297415e-002
303635075.365 3.949406e-001 -7.732250e-002 3.590931e-002 2.593045e-001 3.907710e-002 2.613806e-001 3.902164e-001 -7.934601e-002
314094905.55 3.190127e-001 -1.834951e-001 2.139036e-001 1.645979e-001 2.157656e-001 1.667340e-001 3.099545e-001 -1.835746e-001
324554735.735 1.980730e-001 -2.090061e-001 2.818583e-001 -3.733197e-002 2.800758e-001 -3.716401e-002 1.913332e-001 -2.056644e-001
335014565.92 1.079337e-001 -1.671593e-001 1.705258e-001 -2.380983e-001 1.667991e-001 -2.414848e-001 1.067838e-001 -1.595227e-001
345474396.105 5.335638e-002 -1.060656e-001 -6.910493e-002 -2.936108e-001 -6.923197e-002 -2.964866e-001 5.932051e-002 -1.008683e-001
355934226.29 2.184438e-002 -2.052912e-002 -2.698392e-001 -1.470660e-001 -2.686423e-001 -1.460248e-001 3.223472e-002 -2.198438e-002
366394056.475 5.421844e-002 8.207159e-002 -2.831585e-001 1.035430e-001 -2.826854e-001 1.082753e-001 6.019299e-002 7.106202e-002
376853886.66 1.434358e-001 1.322471e-001 -1.074913e-001 2.730320e-001 -1.060348e-001 2.772806e-001 1.395223e-001 1.161278e-001
387313716.845 2.203705e-001 1.217244e-001 1.264472e-001 2.586600e-001 1.261145e-001 2.617224e-001 2.036087e-001 1.075987e-001
397773547.03 2.709893e-001 9.933471e-002 2.668635e-001 8.645815e-002 2.658051e-001 8.490638e-002 2.498438e-001 9.690739e-002
408233377.215 3.308735e-001 6.433446e-002 2.376934e-001 -1.270850e-001 2.380184e-001 -1.306677e-001 3.126541e-001 7.266385e-002
418693207.4 3.741967e-001 -2.060710e-002 7.417262e-002 -2.532268e-001 7.602332e-002 -2.565047e-001 3.679065e-001 -8.694821e-003
429153037.585 3.456483e-001 -1.318158e-001 -1.230666e-001 -2.353763e-001 -1.225730e-001 -2.361272e-001 3.533815e-001 -1.225521e-001
439612867.77 2.506079e-001 -1.937539e-001 -2.577650e-001 -8.356691e-002 -2.596722e-001 -8.003362e-002 2.672195e-001 -1.943897e-001
450072697.955 1.529797e-001 -1.779401e-001 -2.485638e-001 1.334432e-001 -2.461756e-001 1.365912e-001 1.684708e-001 -1.959642e-001
460532528.14 9.762505e-002 -1.296616e-001 -6.800543e-002 2.818071e-001 -6.741793e-002 2.859287e-001 9.854566e-002 -1.597603e-001
470992358.325 5.952019e-002 -7.619044e-002 1.692129e-001 2.476256e-001 1.679934e-001 2.482824e-001 4.050210e-002 -1.046552e-001
481452188.51 4.495963e-002 4.544908e-003 2.973055e-001 3.952288e-002 2.968826e-001 3.474709e-002 1.263586e-002 -3.738889e-003
491912018.695 9.166010e-002 8.576714e-002 2.191052e-001 -1.959208e-001 2.212240e-001 -2.007240e-001 6.389986e-002 9.918785e-002
502371848.88 1.677308e-001 1.119432e-001 1.689029e-003 -2.890416e-001 3.255944e-003 -2.896740e-001 1.618205e-001 1.354911e-001
512831679.065 2.262422e-001 1.034957e-001 -2.005794e-001 -1.917798e-001 -2.029532e-001 -1.887887e-001 2.436376e-001 1.208387e-001
523291509.25 2.846413e-001 9.009716e-002 -2.661000e-001 1.714010e-002 -2.703256e-001 1.839048e-002 3.136543e-001 8.711877e-002
533751339.435 3.546974e-001 3.754516e-002 -1.717506e-001 1.963191e-001 -1.726272e-001 1.962941e-001 3.796357e-001 1.287995e-002
544211169.62 3.839628e-001 -7.286955e-002 1.024262e-002 2.541933e-001 1.273046e-002 2.540219e-001 3.914134e-001 -1.073217e-001
554670999.805 3.277721e-001 -1.835251e-001 1.867354e-001 1.757356e-001 1.910098e-001 1.764863e-001 3.110609e-001 -2.143231e-001
565130829.99 2.114151e-001 -2.267133e-001 2.705900e-001 -9.697678e-003 2.729252e-001 -9.732233e-003 1.792668e-001 -2.409135e-001
575590660.175 1.065504e-001 -1.921759e-001 1.888817e-001 -2.129911e-001 1.869130e-001 -2.127861e-001 7.705805e-002 -1.826646e-001
586050490.36 4.137077e-002 -1.246944e-001 -3.371636e-002 -2.881773e-001 -3.825386e-002 -2.890665e-001 3.333821e-002 -9.847675e-002
596510320.545 -1.519350e-002 -2.583230e-002 -6.541446e-002 -1.580623e-001 -4.591156e+000 2.671497e-001 3.457741e+001 6.062383e+000
606970150.73 3.736291e-002 8.104545e-002 -2.864326e-001 7.080973e-002 -2.840456e-001 7.195968e-002 7.456068e-002 7.938672e-002
617429980.915 1.405208e-001 1.440814e-001 -1.313510e-001 2.507665e-001 -1.287015e-001 2.556453e-001 1.668271e-001 1.154533e-001
627889811.1 2.401915e-001 1.287907e-001 9.469998e-002 2.599129e-001 9.569997e-002 2.629603e-001 2.389373e-001 8.641965e-002
638349641.285 2.985327e-001 8.358319e-002 2.464638e-001 1.116849e-001 2.461477e-001 1.100730e-001 2.714996e-001 5.042839e-002
648809471.47 3.444181e-001 3.314589e-002 2.419845e-001 -9.513816e-002 2.430266e-001 -1.008255e-001 3.056575e-001 2.422855e-002
659269301.655 3.745520e-001 -5.187021e-002 1.003335e-001 -2.362589e-001 1.011867e-001 -2.394286e-001 3.455477e-001 -3.540661e-002
669729131.84 3.430035e-001 -1.621124e-001 -9.338930e-002 -2.408461e-001 -9.301898e-002 -2.401234e-001 3.374423e-001 -1.318929e-001
680188962.025 2.369244e-001 -2.276233e-001 -2.393238e-001 -1.072353e-001 -2.418100e-001 -1.039889e-001 2.585030e-001 -2.025507e-001
690648792.21 1.218986e-001 -2.011869e-001 -2.527596e-001 1.063514e-001 -2.562761e-001 1.090060e-001 1.593904e-001 -2.031110e-001
701108622.395 6.139062e-002 -1.227820e-001 -9.881039e-002 2.688124e-001 -9.832055e-002 2.677432e-001 8.945432e-002 -1.613296e-001
711568452.58 4.782545e-002 -4.643608e-002 1.345057e-001 2.548651e-001 1.397473e-001 2.531225e-001 4.027939e-002 -1.032875e-001
722028282.765 6.299906e-002 3.165327e-002 2.843251e-001 6.365910e-002 2.874207e-001 6.440414e-002 1.586366e-002 -1.285392e-002
732488112.95 1.282897e-001 9.279467e-002 2.361164e-001 -1.677419e-001 2.349596e-001 -1.674729e-001 6.578814e-002 8.807341e-002
742947943.135 2.149703e-001 9.278395e-002 3.305710e-002 -2.753206e-001 2.846494e-002 -2.779824e-001 1.682800e-001 1.272372e-001
753407773.32 2.649826e-001 5.500307e-002 -1.828077e-001 -2.139016e-001 -1.844620e-001 -2.140409e-001 2.542233e-001 1.043420e-001
763867603.505 2.886228e-001 2.728019e-002 -2.725819e-001 -1.515863e-002 -2.740149e-001 -1.388789e-002 3.138367e-001 6.204243e-002
774327433.69 3.272292e-001 -6.890602e-003 -1.930323e-001 1.766710e-001 -1.932009e-001 1.785554e-001 3.676682e-001 -7.049105e-003
784787263.875 3.508607e-001 -8.613639e-002 -1.401018e-002 2.560110e-001 -1.267852e-002 2.576286e-001 3.823028e-001 -1.219496e-001
795247094.06 3.082398e-001 -1.798714e-001 1.691125e-001 1.961153e-001 1.716722e-001 1.948384e-001 3.089961e-001 -2.346309e-001
805706924.245 2.090360e-001 -2.198922e-001 2.681350e-001 1.907018e-002 2.701461e-001 1.743712e-002 1.725096e-001 -2.698452e-001
816166754.43 1.168263e-001 -1.869194e-001 2.079775e-001 -1.905438e-001 2.074260e-001 -1.921221e-001 5.536624e-002 -2.088662e-001
826626584.615 6.547784e-002 -1.276199e-001 -2.649816e-003 -2.913301e-001 -4.966513e-003 -2.915488e-001 7.567650e-003 -1.095052e-001
837086414.8 3.540831e-002 -5.452675e-002 -2.249456e-001 -1.919900e-001 -2.264366e-001 -1.920422e-001 8.442983e-003 -1.037941e-002
847546244.985 4.894436e-002 4.243409e-002 -2.922242e-001 4.232626e-002 -2.923050e-001 4.326238e-002 6.374683e-002 8.300531e-002
858006075.17 1.319868e-001 1.103666e-001 -1.579429e-001 2.391823e-001 -1.564298e-001 2.408919e-001 1.712462e-001 1.200667e-001
868465905.355 2.262658e-001 1.056546e-001 6.677514e-002 2.691040e-001 6.914388e-002 2.701681e-001 2.613115e-001 7.814822e-002
878925735.54 2.845586e-001 6.672113e-002 2.345526e-001 1.344384e-001 2.347746e-001 1.334454e-001 2.923683e-001 1.829298e-002
889385565.725 3.299010e-001 2.520833e-002 2.525969e-001 -7.285337e-002 2.528541e-001 -7.486571e-002 3.071556e-001 -2.005853e-002
899845395.91 3.705163e-001 -4.789718e-002 1.225905e-001 -2.260673e-001 1.224196e-001 -2.275561e-001 3.296219e-001 -7.208563e-002
910305226.095 3.570865e-001 -1.579762e-001 -7.032742e-002 -2.464370e-001 -7.086327e-002 -2.473644e-001 3.166674e-001 -1.557869e-001
920765056.28 2.624343e-001 -2.428789e-001 -2.269832e-001 -1.298324e-001 -2.289073e-001 -1.284365e-001 2.402108e-001 -2.191786e-001
931224886.465 1.342939e-001 -2.395402e-001 -2.610280e-001 7.657567e-002 -2.624347e-001 7.835598e-002 1.418901e-001 -2.130927e-001
941684716.65 4.871000e-002 -1.624631e-001 -1.257578e-001 2.546759e-001 -1.246199e-001 2.557503e-001 8.045073e-002 -1.592973e-001
952144546.835 2.124654e-002 -6.912245e-002 1.077786e-001 2.695970e-001 1.097250e-001 2.689548e-001 5.033780e-002 -1.019779e-001
962604377.02 3.567869e-002 2.767804e-002 2.757237e-001 9.590199e-002 2.781205e-001 9.515576e-002 3.531043e-002 -2.696770e-002
973064207.205 1.119041e-001 1.081619e-001 2.514326e-001 -1.425505e-001 2.511921e-001 -1.437394e-001 7.701389e-002 6.139714e-002
983524037.39 2.241249e-001 1.145900e-001 6.111436e-002 -2.716721e-001 5.893523e-002 -2.729187e-001 1.717087e-001 9.710108e-002
993983867.575 2.964783e-001 5.508722e-002 -1.517013e-001 -2.229349e-001 -1.530523e-001 -2.224688e-001 2.503601e-001 7.053835e-002
1004443697.76 3.168442e-001 -5.099737e-003 -2.592860e-001 -4.449368e-002 -2.595273e-001 -4.370430e-002 2.987590e-001 3.050955e-002
1014903527.945 3.287518e-001 -5.280709e-002 -2.082244e-001 1.499085e-001 -2.075460e-001 1.512454e-001 3.451703e-001 -2.301251e-002
1025363358.13 3.316107e-001 -1.217944e-001 -4.033200e-002 2.492142e-001 -3.895637e-002 2.498486e-001 3.689115e-001 -1.199521e-001
1035823188.315 2.800413e-001 -1.999770e-001 1.463221e-001 2.074364e-001 1.470430e-001 2.074036e-001 3.162717e-001 -2.333283e-001
1046283018.5 1.773281e-001 -2.256185e-001 2.579202e-001 4.619492e-002 2.582233e-001 4.433353e-002 1.911432e-001 -2.867555e-001
1056742848.685 8.895834e-002 -1.729476e-001 2.200696e-001 -1.621944e-001 2.192183e-001 -1.650657e-001 6.457420e-002 -2.434624e-001
1067202678.87 6.168903e-002 -9.320797e-002 2.756202e-002 -2.822688e-001 2.599974e-002 -2.834623e-001 -1.931955e-003 -1.447734e-001
1077662509.055 6.945389e-002 -2.799322e-002 -1.964873e-001 -2.110184e-001 -1.980301e-001 -2.091017e-001 -1.376569e-002 -3.541972e-002
1088122339.24 1.001969e-001 3.585218e-002 -2.867438e-001 9.905824e-003 -2.876183e-001 1.230256e-002 3.535649e-002 7.564612e-002
1098582169.425 1.731281e-001 7.562280e-002 -1.793447e-001 2.159411e-001 -1.779601e-001 2.175700e-001 1.559921e-001 1.335409e-001
1109041999.61 2.483073e-001 5.485943e-002 3.468595e-002 2.680917e-001 3.658250e-002 2.678007e-001 2.758705e-001 9.416983e-002
1119501829.795 2.816476e-001 1.095895e-002 2.117097e-001 1.555527e-001 2.138781e-001 1.545618e-001 3.264326e-001 9.448192e-003
1129961659.98 2.990054e-001 -1.662206e-002 2.552801e-001 -4.332726e-002 2.553354e-001 -4.386372e-002 3.305171e-001 -5.678651e-002
1140421490.165 3.328378e-001 -5.430833e-002 1.448690e-001 -2.077505e-001 1.436828e-001 -2.090629e-001 3.306825e-001 -1.155869e-001
1150881320.35 3.437872e-001 -1.371602e-001 -4.411024e-002 -2.463403e-001 -4.656043e-002 -2.473609e-001 3.040769e-001 -1.931730e-001
1161341150.535 2.835644e-001 -2.221038e-001 -2.075721e-001 -1.468342e-001 -2.091297e-001 -1.466837e-001 2.174436e-001 -2.499540e-001
1171800980.72 1.748013e-001 -2.452573e-001 -2.598805e-001 4.547222e-002 -2.597495e-001 4.813808e-002 1.085728e-001 -2.316044e-001
1182260810.905 8.370107e-002 -1.965706e-001 -1.487447e-001 2.304988e-001 -1.468076e-001 2.330000e-001 4.929041e-002 -1.535054e-001
1192720641.09 3.640921e-002 -1.192712e-001 7.556413e-002 2.720814e-001 7.702563e-002 2.728116e-001 4.466464e-002 -8.072067e-002
1203180471.275 2.395149e-002 -2.500683e-002 2.572599e-001 1.250157e-001 2.577127e-001 1.236097e-001 5.519402e-002 -1.925972e-002
1213640301.46 7.557279e-002 7.847050e-002 2.600746e-001 -1.110415e-001 2.609582e-001 -1.135939e-001 9.848904e-002 4.617029e-002
1224100131.645 1.910446e-001 1.214789e-001 8.790182e-002 -2.606435e-001 8.658431e-002 -2.626019e-001 1.827923e-001 6.915494e-002
1234559961.83 2.913539e-001 8.024228e-002 -1.250185e-001 -2.325728e-001 -1.273746e-001 -2.320241e-001 2.489464e-001 3.514957e-002
1245019792.015 3.392344e-001 1.179268e-002 -2.462154e-001 -6.840784e-002 -2.472512e-001 -6.645987e-002 2.781939e-001 -3.601157e-003
1255479622.2 3.623898e-001 -5.450859e-002 -2.148740e-001 1.251984e-001 -2.152240e-001 1.264345e-001 3.115775e-001 -3.815204e-002
1265939452.385 3.670227e-001 -1.412125e-001 -6.357060e-002 2.350514e-001 -6.204691e-002 2.355603e-001 3.441483e-001 -1.113162e-001
1276399282.57 3.128173e-001 -2.378289e-001 1.172652e-001 2.121625e-001 1.196066e-001 2.123007e-001 3.161010e-001 -2.167670e-001
1286859112.755 1.927175e-001 -2.839643e-001 2.396226e-001 7.212401e-002 2.406104e-001 7.070828e-002 2.088282e-001 -2.871925e-001
1297318942.94 6.761146e-002 -2.353678e-001 2.302894e-001 -1.271551e-001 2.294235e-001 -1.293400e-001 7.993995e-002 -2.694160e-001
1307778773.125 1.074249e-002 -1.246851e-001 6.319013e-002 -2.670940e-001 5.971672e-002 -2.683822e-001 -4.522605e-003 -1.827985e-001
1318238603.31 2.625108e-002 -1.998010e-002 -1.649307e-001 -2.284484e-001 -1.669382e-001 -2.279578e-001 -3.263016e-002 -7.436711e-002
1328698433.495 8.558416e-002 6.080872e-002 -2.805369e-001 -2.492035e-002 -2.805192e-001 -2.305932e-002 -1.794110e-003 4.817704e-002
1339158263.68 1.878736e-001 9.708993e-002 -1.971859e-001 1.884923e-001 -1.957108e-001 1.913552e-001 1.142334e-001 1.343960e-001
1349618093.865 2.861226e-001 5.607998e-002 5.007354e-003 2.626439e-001 6.964344e-003 2.637987e-001 2.569615e-001 1.134818e-001
1360077924.05 3.226269e-001 -2.429240e-002 1.858230e-001 1.738239e-001 1.866949e-001 1.720903e-001 3.363015e-001 1.985541e-002
1370537754.235 3.124956e-001 -8.054361e-002 2.495722e-001 -9.965071e-003 2.496658e-001 -1.266078e-002 3.494670e-001 -7.194480e-002
1380997584.42 3.047575e-001 -1.140873e-001 1.655133e-001 -1.837398e-001 1.654399e-001 -1.848378e-001 3.395343e-001 -1.485289e-001
1391457414.605 2.975447e-001 -1.657903e-001 -1.355407e-002 -2.460526e-001 -1.412929e-002 -2.467052e-001 3.027006e-001 -2.316408e-001
1401917244.79 2.455013e-001 -2.246664e-001 -1.840839e-001 -1.666732e-001 -1.865722e-001 -1.658708e-001 2.066024e-001 -2.956680e-001
1412377074.975 1.528120e-001 -2.335520e-001 -2.561425e-001 1.474877e-002 -2.586774e-001 1.742503e-002 7.668554e-002 -2.812436e-001
1422836905.16 7.966690e-002 -1.765922e-001 -1.723509e-001 2.065517e-001 -1.710663e-001 2.085746e-001 -7.360028e-003 -1.831400e-001
1433296735.345 5.816565e-002 -1.025077e-001 4.000739e-002 2.741033e-001 4.336714e-002 2.746187e-001 -8.086612e-003 -7.503191e-002
1443756565.53 6.426856e-002 -3.388355e-002 2.360441e-001 1.511998e-001 2.380553e-001 1.504065e-001 3.147279e-002 4.104048e-003
1454216395.715 1.046860e-001 3.912601e-002 2.671936e-001 -7.763287e-002 2.673703e-001 -7.885423e-002 1.016306e-001 6.373446e-002
1464676225.9 2.087377e-001 5.682398e-002 7.291839e-002 -2.610618e-001 -8.239644e-001 -5.222546e-001 6.360511e-002 2.022726e+000
1475136056.085 2.834086e-001 4.325482e-002 -9.714717e-002 -2.406514e-001 -9.899712e-002 -2.431120e-001 2.788296e-001 1.055922e-002
1485595886.27 3.240118e-001 -1.616823e-002 -2.338057e-001 -9.527023e-002 -2.365379e-001 -9.409335e-002 2.917717e-001 -5.911934e-002
1496055716.455 3.431737e-001 -6.749567e-002 -2.252216e-001 9.978774e-002 -2.259530e-001 1.031894e-001 2.884041e-001 -9.809555e-002
1506515546.64 3.604423e-001 -1.346554e-001 -8.562949e-002 2.285441e-001 -8.358290e-002 2.306185e-001 2.995692e-001 -1.447363e-001
1516975376.825 3.337885e-001 -2.297835e-001 9.802236e-002 2.192814e-001 8.872163e-002 2.186961e-001 2.413270e-001 -1.499862e-001
1527435207.01 2.344397e-001 -3.008172e-001 2.265027e-001 9.302218e-002 2.274728e-001 9.095024e-002 1.872015e-001 -2.863772e-001
1537895037.195 1.015727e-001 -2.868082e-001 2.366364e-001 -9.932520e-002 2.354269e-001 -1.014916e-001 6.963938e-002 -2.682988e-001
1548354867.38 1.568841e-002 -1.920910e-001 8.520890e-002 -2.449762e-001 8.526101e-002 -2.473744e-001 3.627356e-004 -1.839382e-001
1558814697.565 -3.797154e-003 -7.608797e-002 -1.299893e-001 -2.363661e-001 -1.293010e-001 -2.347670e-001 -2.060161e-002 -8.898908e-002
1569274527.75 3.852492e-002 3.501165e-002 -2.618350e-001 -5.501848e-002 -2.636620e-001 -5.181781e-002 2.548951e-003 1.277330e-002
1579734357.935 1.436696e-001 1.082027e-001 -2.081859e-001 1.633483e-001 -2.105588e-001 1.642859e-001 9.274468e-002 9.499905e-002
