!Agilent Technologies,E8357A,US42070586,A.04.87.01
!Agilent E8357A: A.04.87.01
!Date: Thursday, April 15, 2021 17:31:29
!Correction: S11(Full 2 Port SOLT,1,2) S21(Full 2 Port SOLT,1,2) S12(Full 2 Port SOLT,1,2) S22(Full 2 Port SOLT,1,2) 
!S2P File: Measurements: S11, S21, S12, S22:
# Hz S  RI   R 50
300000 4.929352e-004 1.477711e-002 1.001100e+000 -1.843902e-002 9.980704e-001 -1.812999e-002 5.007477e-004 1.590289e-002
10759830.185 4.199908e-002 1.090276e-001 9.425592e-001 -2.957019e-001 9.421496e-001 -3.085072e-001 4.404300e-002 1.105285e-001
21219660.37 1.293587e-001 1.736509e-001 7.975315e-001 -5.455056e-001 7.961277e-001 -5.527419e-001 1.317275e-001 1.740846e-001
31679490.555 2.317368e-001 1.785364e-001 6.006529e-001 -7.297841e-001 5.970900e-001 -7.363621e-001 2.349852e-001 1.778708e-001
42139320.74 3.186912e-001 1.309229e-001 3.739506e-001 -8.476619e-001 3.726954e-001 -8.512953e-001 3.219199e-001 1.300629e-001
52599150.925 3.683887e-001 5.029255e-002 1.392107e-001 -9.058226e-001 1.377489e-001 -9.076334e-001 3.712237e-001 4.788360e-002
63058981.11 3.725675e-001 -4.335004e-002 -9.795195e-002 -9.088199e-001 -9.928071e-002 -9.117852e-001 3.743814e-001 -4.769528e-002
73518811.295 3.278634e-001 -1.260815e-001 -3.308553e-001 -8.521033e-001 -3.315169e-001 -8.554869e-001 3.281806e-001 -1.311904e-001
83978641.48 2.471869e-001 -1.790954e-001 -5.532478e-001 -7.461061e-001 -5.541742e-001 -7.469885e-001 2.471730e-001 -1.839801e-001
94438471.665 1.480835e-001 -1.840372e-001 -7.529855e-001 -5.758750e-001 -7.520792e-001 -5.765440e-001 1.478950e-001 -1.874504e-001
104898301.85 5.943617e-002 -1.338137e-001 -9.001878e-001 -3.438964e-001 -9.014191e-001 -3.428038e-001 5.920805e-002 -1.343201e-001
115358132.035 9.122363e-003 -4.104668e-002 -9.783880e-001 -6.694523e-002 -9.812942e-001 -6.566390e-002 8.350443e-003 -4.113131e-002
125817962.22 2.273814e-002 6.503679e-002 -9.510868e-001 2.240165e-001 -9.544187e-001 2.275263e-001 2.368419e-002 6.589439e-002
136277792.405 9.150602e-002 1.442028e-001 -8.343064e-001 4.838775e-001 -8.354468e-001 4.866673e-001 9.481357e-002 1.447214e-001
146737622.59 1.892798e-001 1.725498e-001 -6.501622e-001 6.857147e-001 -6.503143e-001 6.898503e-001 1.936885e-001 1.716293e-001
157197452.775 2.837287e-001 1.467583e-001 -4.310514e-001 8.205523e-001 -4.305367e-001 8.219545e-001 2.884156e-001 1.442045e-001
167657282.96 3.498624e-001 7.928342e-002 -1.977565e-001 8.905503e-001 -1.952139e-001 8.926561e-001 3.549069e-001 7.457089e-002
178117113.145 3.739147e-001 -1.126612e-002 3.754660e-002 9.066752e-001 3.995684e-002 9.062730e-001 3.776832e-001 -1.620763e-002
188576943.33 3.519313e-001 -1.011504e-001 2.708674e-001 8.689029e-001 2.721055e-001 8.676053e-001 3.537082e-001 -1.069052e-001
199036773.515 2.868317e-001 -1.694179e-001 4.922010e-001 7.779333e-001 4.935968e-001 7.778427e-001 2.876169e-001 -1.745490e-001
209496603.7 1.921775e-001 -1.921018e-001 6.939858e-001 6.219472e-001 6.939344e-001 6.225610e-001 1.917872e-001 -1.983917e-001
219956433.885 9.801570e-002 -1.659666e-001 8.553767e-001 4.111980e-001 8.554184e-001 4.123905e-001 9.704449e-002 -1.698771e-001
230416264.07 3.076582e-002 -9.045686e-002 9.490341e-001 1.509818e-001 9.510391e-001 1.505377e-001 2.899757e-002 -9.346095e-002
240876094.255 1.685916e-002 9.589948e-003 9.531848e-001 -1.350773e-001 9.547936e-001 -1.368437e-001 1.663228e-002 9.505684e-003
251335924.44 5.866646e-002 1.055275e-001 8.750064e-001 -4.095122e-001 8.743797e-001 -4.137774e-001 5.812845e-002 1.063019e-001
261795754.625 1.472611e-001 1.546625e-001 7.013758e-001 -6.297752e-001 7.039998e-001 -6.319231e-001 1.481735e-001 1.535864e-001
272255584.81 2.430932e-001 1.519591e-001 4.925908e-001 -7.809049e-001 4.921456e-001 -7.826151e-001 2.456673e-001 1.489581e-001
282715414.995 3.256832e-001 1.033336e-001 2.617780e-001 -8.743567e-001 2.607857e-001 -8.773221e-001 3.265956e-001 1.012836e-001
293175245.18 3.653905e-001 2.142710e-002 2.657392e-002 -8.958353e-001 2.344233e-002 -8.995600e-001 3.640493e-001 1.829061e-002
303635075.365 3.611645e-001 -6.927393e-002 -2.049514e-001 -8.691992e-001 -2.084623e-001 -8.729399e-001 3.598556e-001 -7.197764e-002
314094905.55 3.129494e-001 -1.462149e-001 -4.272801e-001 -7.948642e-001 -4.292381e-001 -7.978106e-001 3.109245e-001 -1.497107e-001
324554735.735 2.308725e-001 -1.907808e-001 -6.326839e-001 -6.657705e-001 -6.345205e-001 -6.637891e-001 2.279402e-001 -1.940495e-001
335014565.92 1.357407e-001 -1.860773e-001 -8.029019e-001 -4.766879e-001 -8.055233e-001 -4.742158e-001 1.324381e-001 -1.875579e-001
345474396.105 5.490837e-002 -1.302643e-001 -9.193407e-001 -2.338660e-001 -9.199470e-001 -2.293686e-001 5.273855e-002 -1.295748e-001
355934226.29 1.716712e-002 -3.485052e-002 -9.540840e-001 4.611984e-002 -9.582477e-001 5.250606e-002 1.547221e-002 -3.462838e-002
366394056.475 3.869040e-002 6.602727e-002 -8.958325e-001 3.259912e-001 -8.985218e-001 3.300622e-001 3.844282e-002 6.444831e-002
376853886.66 1.114997e-001 1.362086e-001 -7.522099e-001 5.657577e-001 -7.550572e-001 5.704761e-001 1.125376e-001 1.328199e-001
387313716.845 2.067373e-001 1.561215e-001 -5.548871e-001 7.399370e-001 -5.549794e-001 7.455142e-001 2.076484e-001 1.481319e-001
397773547.03 2.942718e-001 1.235269e-001 -3.267283e-001 8.470287e-001 -3.282897e-001 8.511066e-001 2.951638e-001 1.127470e-001
408233377.215 3.519818e-001 5.268669e-002 -9.306347e-002 8.902104e-001 -9.133878e-002 8.934437e-001 3.505455e-001 3.880407e-002
418693207.4 3.675063e-001 -3.645273e-002 1.383307e-001 8.776588e-001 1.407154e-001 8.801361e-001 3.633621e-001 -5.001735e-002
429153037.585 3.386900e-001 -1.212496e-001 3.600407e-001 8.158811e-001 3.639584e-001 8.154188e-001 3.304722e-001 -1.340047e-001
439612867.77 2.714998e-001 -1.810130e-001 5.652326e-001 7.012824e-001 5.717007e-001 7.003381e-001 2.603117e-001 -1.914386e-001
450072697.955 1.785212e-001 -1.993772e-001 7.468884e-001 5.349847e-001 7.506953e-001 5.318221e-001 1.677767e-001 -2.075065e-001
460532528.14 8.903264e-002 -1.649095e-001 8.825123e-001 3.097405e-001 8.858258e-001 3.050703e-001 7.766734e-002 -1.686904e-001
470992358.325 3.023173e-002 -8.431078e-002 9.458747e-001 4.012097e-002 9.498993e-001 3.582122e-002 2.075317e-002 -8.577909e-002
481452188.51 2.545872e-002 1.638379e-002 9.204097e-001 -2.405115e-001 9.244621e-001 -2.464442e-001 1.961029e-002 1.527555e-002
491912018.695 7.658812e-002 1.014146e-001 8.040923e-001 -4.967323e-001 8.072290e-001 -4.999866e-001 7.479434e-002 9.831018e-002
502371848.88 1.632177e-001 1.426018e-001 6.199639e-001 -6.937804e-001 6.200774e-001 -6.969839e-001 1.651087e-001 1.370618e-001
512831679.065 2.565656e-001 1.304343e-001 3.966412e-001 -8.216248e-001 3.943320e-001 -8.234800e-001 2.599335e-001 1.221660e-001
523291509.25 3.295195e-001 7.448837e-002 1.586321e-001 -8.810013e-001 1.556874e-001 -8.860008e-001 3.317020e-001 6.501103e-002
533751339.435 3.640367e-001 -7.819079e-003 -7.501827e-002 -8.833056e-001 -8.036856e-002 -8.845275e-001 3.633155e-001 -1.770734e-002
544211169.62 3.532096e-001 -9.515377e-002 -2.987580e-001 -8.307132e-001 -3.063711e-001 -8.331188e-001 3.493311e-001 -1.059116e-001
554670999.805 2.991395e-001 -1.667101e-001 -5.093983e-001 -7.310240e-001 -5.164549e-001 -7.327836e-001 2.935432e-001 -1.762445e-001
565130829.99 2.148286e-001 -2.036940e-001 -6.968621e-001 -5.825803e-001 -7.023182e-001 -5.784124e-001 2.080839e-001 -2.104872e-001
575590660.175 1.201649e-001 -1.905883e-001 -8.452877e-001 -3.757380e-001 -8.493541e-001 -3.716214e-001 1.152907e-001 -1.944028e-001
586050490.36 4.519926e-002 -1.274023e-001 -9.327030e-001 -1.250393e-001 -9.348404e-001 -1.194011e-001 4.345773e-002 -1.298755e-001
596510320.545 1.728904e-002 -3.193754e-002 -9.337565e-001 1.528905e-001 -9.348893e-001 1.601293e-001 1.865757e-002 -3.368973e-002
606970150.73 4.710241e-002 6.408200e-002 -8.452663e-001 4.185228e-001 -8.450625e-001 4.268000e-001 5.061414e-002 6.111609e-002
617429980.915 1.234500e-001 1.285809e-001 -6.790937e-001 6.407053e-001 -6.775325e-001 6.469886e-001 1.270764e-001 1.216724e-001
627889811.1 2.183381e-001 1.414503e-001 -4.634902e-001 7.914294e-001 -4.601201e-001 7.979378e-001 2.213953e-001 1.300156e-001
638349641.285 6.100742e-001 1.868790e-001 -3.400521e-003 9.576292e-002 1.269064e+001 -2.737000e+001 -7.093963e+001 -3.399026e+001
648809471.47 3.553067e-001 2.812588e-002 5.619061e-003 8.860725e-001 1.289540e-002 8.897755e-001 3.548909e-001 9.742149e-003
659269301.655 3.660257e-001 -6.090508e-002 2.299666e-001 8.477575e-001 2.380961e-001 8.488212e-001 3.596146e-001 -7.874325e-002
669729131.84 3.306405e-001 -1.427914e-001 4.445552e-001 7.610611e-001 4.498778e-001 7.614576e-001 3.195385e-001 -1.599933e-001
680188962.025 2.587886e-001 -1.968283e-001 6.358678e-001 6.262295e-001 6.434394e-001 6.229736e-001 2.428240e-001 -2.106291e-001
690648792.21 1.671411e-001 -2.064480e-001 7.999943e-001 4.373887e-001 8.059360e-001 4.358930e-001 1.475033e-001 -2.152571e-001
701108622.395 7.966791e-002 -1.652827e-001 9.064881e-001 2.030077e-001 9.113069e-001 1.974046e-001 6.204151e-002 -1.702129e-001
711568452.58 2.798532e-002 -8.311558e-002 9.391774e-001 -6.685448e-002 9.406796e-001 -7.244446e-002 1.427009e-002 -8.583222e-002
722028282.765 1.000173e-001 2.041786e-001 -9.388752e-001 7.234327e-002 -4.514194e+000 1.277219e+000 -8.683413e+000 -5.158092e+001
732488112.95 9.078737e-002 9.671654e-002 7.356381e-001 -5.786075e-001 7.344239e-001 -5.859290e-001 8.479450e-002 9.483990e-002
742947943.135 1.831998e-001 1.319849e-001 5.290360e-001 -7.530152e-001 5.264255e-001 -7.613529e-001 1.780432e-001 1.262572e-001
753407773.32 2.770629e-001 1.151122e-001 2.956938e-001 -8.631260e-001 2.932462e-001 -8.677189e-001 2.744358e-001 1.039136e-001
763867603.505 3.459210e-001 5.043819e-002 5.399055e-002 -8.930776e-001 4.903050e-002 -8.971978e-001 3.414647e-001 3.493536e-002
774327433.69 3.709801e-001 -3.730005e-002 -1.764361e-001 -8.632198e-001 -1.817355e-001 -8.647775e-001 3.633811e-001 -5.532519e-002
784787263.875 3.522754e-001 -1.249304e-001 -3.896598e-001 -7.879419e-001 -3.961471e-001 -7.886474e-001 3.401982e-001 -1.441691e-001
795247094.06 2.926460e-001 -1.925613e-001 -5.835951e-001 -6.668082e-001 -5.901064e-001 -6.656082e-001 2.766170e-001 -2.096760e-001
805706924.245 2.051681e-001 -2.221680e-001 -7.514982e-001 -4.978074e-001 -7.576790e-001 -4.952892e-001 1.868099e-001 -2.349248e-001
816166754.43 1.110833e-001 -2.030596e-001 -8.772035e-001 -2.814465e-001 -8.815089e-001 -2.744241e-001 9.511952e-002 -2.106675e-001
826626584.615 3.907168e-002 -1.341291e-001 -9.368168e-001 -1.934870e-002 -9.394219e-001 -1.274594e-002 2.946563e-002 -1.382919e-001
837086414.8 1.631416e-002 -3.551098e-002 -9.099786e-001 2.576446e-001 -9.104447e-001 2.637227e-001 1.409249e-002 -3.976747e-002
847546244.985 5.225809e-002 6.032072e-002 -7.921788e-001 5.125736e-001 -7.915055e-001 5.190940e-001 5.680745e-002 5.160416e-002
858006075.17 1.339227e-001 1.191501e-001 -5.995136e-001 7.129681e-001 -5.979457e-001 7.198635e-001 1.425950e-001 1.028892e-001
868465905.355 2.311862e-001 1.242243e-001 -3.673787e-001 8.380852e-001 -3.628708e-001 8.436226e-001 2.394322e-001 9.907243e-002
878925735.54 3.140353e-001 7.905050e-002 -1.219369e-001 8.882318e-001 -1.175191e-001 8.909836e-001 3.175902e-001 4.688381e-002
889385565.725 3.602374e-001 5.047444e-004 1.112398e-001 8.741571e-001 1.172611e-001 8.772690e-001 3.571191e-001 -3.554586e-002
899845395.91 3.620654e-001 -8.829930e-002 3.291192e-001 8.117466e-001 3.332246e-001 8.127877e-001 3.507464e-001 -1.254066e-001
910305226.095 3.202566e-001 -1.667232e-001 5.266808e-001 7.025371e-001 5.312732e-001 7.032352e-001 3.011808e-001 -1.999424e-001
920765056.28 2.445927e-001 -2.149053e-001 7.008169e-001 5.485405e-001 7.058347e-001 5.467564e-001 2.196769e-001 -2.407521e-001
931224886.465 1.523203e-001 -2.181216e-001 8.388187e-001 3.457936e-001 8.431471e-001 3.425766e-001 1.254626e-001 -2.351750e-001
941684716.65 6.910186e-002 -1.713925e-001 9.188469e-001 9.965772e-002 9.238656e-001 9.507834e-002 4.521951e-002 -1.795307e-001
952144546.835 2.304593e-002 -8.490632e-002 9.227914e-001 -1.709746e-001 9.225987e-001 -1.756897e-001 6.556456e-003 -8.690440e-002
962604377.02 3.217924e-002 1.433974e-002 8.351351e-001 -4.367476e-001 8.357964e-001 -4.412191e-001 2.527891e-002 1.379748e-002
973064207.205 9.567417e-002 9.188674e-002 6.648632e-001 -6.563633e-001 6.620526e-001 -6.613923e-001 9.684513e-002 8.698546e-002
983524037.39 1.897195e-001 1.213059e-001 4.404170e-001 -8.053669e-001 4.376206e-001 -8.102649e-001 1.957696e-001 1.086971e-001
993983867.575 2.822479e-001 9.646665e-002 1.963302e-001 -8.781990e-001 1.923742e-001 -8.812780e-001 2.870586e-001 7.502376e-002
1004443697.76 3.455947e-001 2.902732e-002 -4.279088e-002 -8.838071e-001 -4.772241e-002 -8.841949e-001 3.463330e-001 6.417824e-004
1014903527.945 3.665106e-001 -5.892359e-002 -2.673388e-001 -8.336957e-001 -2.711042e-001 -8.337536e-001 3.594795e-001 -9.077006e-002
1025363358.13 3.427167e-001 -1.445269e-001 -4.722185e-001 -7.369872e-001 -4.755422e-001 -7.352795e-001 3.265497e-001 -1.766267e-001
1035823188.315 2.797489e-001 -2.079757e-001 -6.519026e-001 -5.943347e-001 -6.560850e-001 -5.922839e-001 2.563176e-001 -2.358278e-001
1046283018.5 1.916654e-001 -2.314015e-001 -7.971040e-001 -4.060504e-001 -8.025374e-001 -4.018591e-001 1.632661e-001 -2.517369e-001
1056742848.685 1.008969e-001 -2.052307e-001 -8.948731e-001 -1.758827e-001 -8.975911e-001 -1.695067e-001 7.241906e-002 -2.161776e-001
1067202678.87 3.542183e-002 -1.309537e-001 -9.244835e-001 8.705446e-002 -9.249734e-001 9.466916e-002 1.191592e-002 -1.349200e-001
1077662509.055 2.198107e-002 -3.068571e-002 -8.674128e-001 3.574494e-001 -8.653942e-001 3.625753e-001 6.243003e-003 -3.079965e-002
1088122339.24 6.749708e-002 6.077103e-002 -7.232105e-001 5.957396e-001 -7.193379e-001 6.000308e-001 6.105548e-002 5.996313e-002
1098582169.425 1.560866e-001 1.113667e-001 -5.108967e-001 7.702791e-001 -5.057361e-001 7.740903e-001 1.562091e-001 1.047504e-001
1109041999.61 2.543295e-001 1.064209e-001 -2.672067e-001 8.651571e-001 -2.622656e-001 8.677819e-001 2.585774e-001 9.109406e-002
1119501829.795 3.331048e-001 5.251976e-002 -2.107001e-002 8.862543e-001 -1.568841e-002 8.884659e-001 3.347645e-001 2.860362e-002
1129961659.98 3.726257e-001 -3.138425e-002 2.097237e-001 8.466254e-001 2.137818e-001 8.473905e-001 3.680381e-001 -6.175379e-002
1140421490.165 3.658290e-001 -1.218045e-001 4.156118e-001 7.583378e-001 4.203452e-001 7.579018e-001 3.524339e-001 -1.557045e-001
1150881320.35 3.158062e-001 -1.972371e-001 5.956333e-001 6.292979e-001 6.012334e-001 6.273226e-001 2.938078e-001 -2.280635e-001
1161341150.535 2.348056e-001 -2.384390e-001 7.463251e-001 4.605739e-001 7.519773e-001 4.567385e-001 2.066761e-001 -2.642277e-001
1171800980.72 1.415849e-001 -2.336136e-001 8.593327e-001 2.493342e-001 8.627131e-001 2.430948e-001 1.097409e-001 -2.503546e-001
1182260810.905 6.158109e-002 -1.795734e-001 9.146768e-001 7.004290e-004 9.164662e-001 -7.040984e-003 3.174308e-002 -1.868919e-001
1192720641.09 2.164925e-002 -8.717442e-002 8.904602e-001 -2.696477e-001 8.897586e-001 -2.764164e-001 -1.433198e-003 -8.709358e-002
1203180471.275 3.958082e-002 1.360513e-002 7.749728e-001 -5.239177e-001 7.729467e-001 -5.298303e-001 2.681963e-002 1.638790e-002
1213640301.46 1.111324e-001 8.713365e-002 5.801826e-001 -7.231131e-001 5.784189e-001 -7.293490e-001 1.082719e-001 8.598300e-002
1224100131.645 2.090549e-001 1.077567e-001 3.422240e-001 -8.420855e-001 3.381707e-001 -8.473830e-001 2.127160e-001 9.800603e-002
1234559961.83 2.990445e-001 7.355344e-002 9.490949e-002 -8.813459e-001 8.891626e-002 -8.845927e-001 3.039814e-001 5.270584e-002
1245019792.015 3.568947e-001 1.100794e-003 -1.368847e-001 -8.596751e-001 -1.441527e-001 -8.585082e-001 3.555755e-001 -2.985515e-002
1255479622.2 3.695334e-001 -8.712868e-002 -3.476300e-001 -7.863720e-001 -3.539160e-001 -7.860495e-001 3.595864e-001 -1.240611e-001
1265939452.385 3.389726e-001 -1.696528e-001 -5.366690e-001 -6.739904e-001 -5.429264e-001 -6.716321e-001 3.160383e-001 -2.090594e-001
1276399282.57 2.718801e-001 -2.272450e-001 -6.988158e-001 -5.196391e-001 -7.043264e-001 -5.154790e-001 2.381603e-001 -2.619665e-001
1286859112.755 1.829184e-001 -2.454642e-001 -8.265359e-001 -3.221270e-001 -8.302920e-001 -3.145661e-001 1.420687e-001 -2.716717e-001
1297318942.94 9.539525e-002 -2.156819e-001 -9.013295e-001 -8.537588e-002 -9.047045e-001 -7.842875e-002 5.078094e-002 -2.292856e-001
1307778773.125 3.386138e-002 -1.395359e-001 -9.042418e-001 1.776108e-001 -9.048257e-001 1.871267e-001 -6.875707e-003 -1.404517e-001
1318238603.31 2.451836e-002 -3.953858e-002 -8.202267e-001 4.404159e-001 -8.182027e-001 4.475080e-001 -6.452429e-003 -3.184658e-002
1328698433.495 7.455368e-002 4.927968e-002 -6.527706e-001 6.636555e-001 -6.489128e-001 6.698583e-001 5.622325e-002 5.769004e-002
1339158263.68 1.642962e-001 9.378996e-002 -4.265302e-001 8.139786e-001 -4.201204e-001 8.182347e-001 1.567031e-001 9.568354e-002
1349618093.865 2.597726e-001 8.220131e-002 -1.776541e-001 8.849466e-001 -1.688714e-001 8.874593e-001 2.586656e-001 7.276787e-002
1360077924.05 3.332002e-001 2.399367e-002 6.881996e-002 8.826916e-001 7.547822e-002 8.826227e-001 3.302911e-001 3.989323e-003
1370537754.235 3.667190e-001 -6.057229e-002 2.967671e-001 8.220825e-001 3.016755e-001 8.197930e-001 3.566768e-001 -8.872777e-002
1380997584.42 3.549252e-001 -1.486743e-001 4.975056e-001 7.098049e-001 5.010920e-001 7.095009e-001 3.361344e-001 -1.806425e-001
1391457414.605 3.015291e-001 -2.205116e-001 6.650559e-001 5.571937e-001 6.708815e-001 5.551621e-001 2.716546e-001 -2.515430e-001
1401917244.79 2.165831e-001 -2.555655e-001 7.927471e-001 3.677560e-001 8.001589e-001 3.636813e-001 1.795442e-001 -2.814787e-001
1412377074.975 1.245026e-001 -2.414820e-001 8.750530e-001 1.462484e-001 8.807806e-001 1.396300e-001 8.311405e-002 -2.593286e-001
1422836905.16 5.076176e-002 -1.801055e-001 9.005904e-001 -1.031403e-001 9.026451e-001 -1.114020e-001 1.001381e-002 -1.876787e-001
1433296735.345 2.068305e-002 -8.430962e-002 8.474028e-001 -3.633121e-001 8.476648e-001 -3.724354e-001 -1.384225e-002 -8.423546e-002
1443756565.53 4.939825e-002 1.371037e-002 7.055282e-001 -6.028616e-001 7.037790e-001 -6.092521e-001 2.575421e-002 1.751208e-002
1454216395.715 1.291032e-001 7.923628e-002 4.908666e-001 -7.802480e-001 4.877524e-001 -7.845610e-001 1.159441e-001 7.936706e-002
1464676225.9 1.583728e-001 -2.871541e-002 -2.326895e-001 -3.084240e-001 -1.129051e+000 2.317168e-001 8.166787e+000 4.968842e+000
1475136056.085 3.167165e-001 4.770064e-002 -1.280999e-002 -8.808109e-001 -1.688453e-002 -8.874490e-001 3.118904e-001 2.618371e-002
1485595886.27 3.679236e-001 -3.115510e-002 -2.386238e-001 -8.267457e-001 -2.467313e-001 -8.329823e-001 3.578133e-001 -6.298195e-002
1496055716.455 3.735332e-001 -1.212894e-001 -4.352467e-001 -7.288863e-001 -4.453481e-001 -7.299218e-001 3.536433e-001 -1.609880e-001
1506515546.64 3.372303e-001 -2.030486e-001 -6.033043e-001 -5.967987e-001 -6.133962e-001 -5.929013e-001 3.050605e-001 -2.441987e-001
1516975376.825 2.666264e-001 -2.592786e-001 -7.398001e-001 -4.256606e-001 -7.129535e-001 -4.481595e-001 2.049372e-001 -2.088735e-001
1527435207.01 1.733241e-001 -2.690224e-001 -8.447471e-001 -2.289561e-001 -8.468748e-001 -2.205652e-001 1.192178e-001 -2.957049e-001
1537895037.195 8.383296e-002 -2.325864e-001 -8.983514e-001 9.424706e-003 -8.961200e-001 1.772400e-002 2.734852e-002 -2.443422e-001
1548354867.38 3.114173e-002 -1.483844e-001 -8.690518e-001 2.717589e-001 -8.670527e-001 2.778299e-001 -2.011983e-002 -1.462305e-001
1558814697.565 2.712462e-002 -4.829922e-002 -7.605602e-001 5.208380e-001 -7.583341e-001 5.260245e-001 -1.217844e-002 -3.928129e-002
1569274527.75 7.946473e-002 3.604307e-002 -5.685468e-001 7.212677e-001 -5.677655e-001 7.242523e-001 5.673593e-002 4.560691e-002
1579734357.935 1.718033e-001 7.503489e-002 -3.300910e-001 8.450081e-001 -3.289511e-001 8.469772e-001 1.619138e-001 7.793118e-002
