! Created Tue Apr 13 08:55:27 2021
# hz S ri R 50
! 2 Port Network Data from SP1.SP block
! freq  reS11  imS11  reS21  imS21  reS12  imS12  reS22  imS22  
!     
                 0       0.549805552    -6.10072736e-06                  0                  0                  0                  0        0.549805552    -6.10072736e-06
         300000000       0.549774683     -0.00610050094                  0                  0                  0                  0        0.549774683     -0.00610050094
         600000000       0.549682101      -0.0121996443                  0                  0                  0                  0        0.549682101      -0.0121996443
         900000000        0.54952789      -0.0182960758                  0                  0                  0                  0         0.54952789      -0.0182960758
           1.2e+09        0.54931219      -0.0243884481                  0                  0                  0                  0         0.54931219      -0.0243884481
           1.5e+09       0.549035194      -0.0304754238                  0                  0                  0                  0        0.549035194      -0.0304754238
           1.8e+09       0.548697148      -0.0365556789                  0                  0                  0                  0        0.548697148      -0.0365556789
           2.1e+09       0.548298353      -0.0426279059                  0                  0                  0                  0        0.548298353      -0.0426279059
           2.4e+09        0.54783916      -0.0486908168                  0                  0                  0                  0         0.54783916      -0.0486908168
           2.7e+09       0.547319969       -0.054743146                  0                  0                  0                  0        0.547319969       -0.054743146
             3e+09       0.546741229      -0.0607836532                  0                  0                  0                  0        0.546741229      -0.0607836532
           3.3e+09       0.546103433      -0.0668111259                  0                  0                  0                  0        0.546103433      -0.0668111259
           3.6e+09       0.545407119      -0.0728243816                  0                  0                  0                  0        0.545407119      -0.0728243816
           3.9e+09       0.544652867      -0.0788222703                  0                  0                  0                  0        0.544652867      -0.0788222703
           4.2e+09       0.543841294      -0.0848036765                  0                  0                  0                  0        0.543841294      -0.0848036765
           4.5e+09       0.542973055      -0.0907675206                  0                  0                  0                  0        0.542973055      -0.0907675206
           4.8e+09       0.542048837       -0.096712761                  0                  0                  0                  0        0.542048837       -0.096712761
           5.1e+09        0.54106936       -0.102638395                  0                  0                  0                  0         0.54106936       -0.102638395
           5.4e+09        0.54003537        -0.10854346                  0                  0                  0                  0         0.54003537        -0.10854346
           5.7e+09        0.53894764       -0.114427035                  0                  0                  0                  0         0.53894764       -0.114427035
             6e+09       0.537806966        -0.12028824                  0                  0                  0                  0        0.537806966        -0.12028824
           6.3e+09       0.536614162       -0.126126238                  0                  0                  0                  0        0.536614162       -0.126126238
           6.6e+09       0.535370061       -0.131940233                  0                  0                  0                  0        0.535370061       -0.131940233
           6.9e+09       0.534075509       -0.137729473                  0                  0                  0                  0        0.534075509       -0.137729473
           7.2e+09       0.532731365       -0.143493249                  0                  0                  0                  0        0.532731365       -0.143493249
           7.5e+09       0.531338496       -0.149230892                  0                  0                  0                  0        0.531338496       -0.149230892
           7.8e+09       0.529897777       -0.154941775                  0                  0                  0                  0        0.529897777       -0.154941775
           8.1e+09       0.528410087       -0.160625314                  0                  0                  0                  0        0.528410087       -0.160625314
           8.4e+09       0.526876306       -0.166280961                  0                  0                  0                  0        0.526876306       -0.166280961
           8.7e+09       0.525297316       -0.171908212                  0                  0                  0                  0        0.525297316       -0.171908212
             9e+09       0.523673995       -0.177506597                  0                  0                  0                  0        0.523673995       -0.177506597
           9.3e+09       0.522007218       -0.183075686                  0                  0                  0                  0        0.522007218       -0.183075686
           9.6e+09       0.520297854       -0.188615082                  0                  0                  0                  0        0.520297854       -0.188615082
           9.9e+09       0.518546766       -0.194124426                  0                  0                  0                  0        0.518546766       -0.194124426
          1.02e+10       0.516754806       -0.199603388                  0                  0                  0                  0        0.516754806       -0.199603388
          1.05e+10       0.514922818       -0.205051673                  0                  0                  0                  0        0.514922818       -0.205051673
          1.08e+10       0.513051633       -0.210469014                  0                  0                  0                  0        0.513051633       -0.210469014
          1.11e+10       0.511142071       -0.215855174                  0                  0                  0                  0        0.511142071       -0.215855174
          1.14e+10       0.509194938       -0.221209942                  0                  0                  0                  0        0.509194938       -0.221209942
          1.17e+10       0.507211026       -0.226533135                  0                  0                  0                  0        0.507211026       -0.226533135
           1.2e+10       0.505191111       -0.231824591                  0                  0                  0                  0        0.505191111       -0.231824591
          1.23e+10       0.503135955       -0.237084172                  0                  0                  0                  0        0.503135955       -0.237084172
          1.26e+10       0.501046304       -0.242311764                  0                  0                  0                  0        0.501046304       -0.242311764
          1.29e+10       0.498922888       -0.247507268                  0                  0                  0                  0        0.498922888       -0.247507268
          1.32e+10       0.496766418       -0.252670607                  0                  0                  0                  0        0.496766418       -0.252670607
          1.35e+10       0.494577591       -0.257801719                  0                  0                  0                  0        0.494577591       -0.257801719
          1.38e+10       0.492357086        -0.26290056                  0                  0                  0                  0        0.492357086        -0.26290056
          1.41e+10       0.490105565       -0.267967097                  0                  0                  0                  0        0.490105565       -0.267967097
          1.44e+10       0.487823675       -0.273001312                  0                  0                  0                  0        0.487823675       -0.273001312
          1.47e+10       0.485512043       -0.278003201                  0                  0                  0                  0        0.485512043       -0.278003201
           1.5e+10       0.483171283       -0.282972768                  0                  0                  0                  0        0.483171283       -0.282972768
          1.53e+10        0.48080199       -0.287910027                  0                  0                  0                  0         0.48080199       -0.287910027
          1.56e+10       0.478404745       -0.292815003                  0                  0                  0                  0        0.478404745       -0.292815003
          1.59e+10       0.475980113       -0.297687726                  0                  0                  0                  0        0.475980113       -0.297687726
          1.62e+10       0.473528642       -0.302528236                  0                  0                  0                  0        0.473528642       -0.302528236
          1.65e+10       0.471050868       -0.307336576                  0                  0                  0                  0        0.471050868       -0.307336576
          1.68e+10       0.468547309       -0.312112798                  0                  0                  0                  0        0.468547309       -0.312112798
          1.71e+10       0.466018473       -0.316856954                  0                  0                  0                  0        0.466018473       -0.316856954
          1.74e+10       0.463464852       -0.321569105                  0                  0                  0                  0        0.463464852       -0.321569105
          1.77e+10       0.460886924       -0.326249312                  0                  0                  0                  0        0.460886924       -0.326249312
           1.8e+10       0.458285156       -0.330897639                  0                  0                  0                  0        0.458285156       -0.330897639
          1.83e+10       0.455660004       -0.335514154                  0                  0                  0                  0        0.455660004       -0.335514154
          1.86e+10        0.45301191       -0.340098925                  0                  0                  0                  0         0.45301191       -0.340098925
          1.89e+10       0.450341305       -0.344652023                  0                  0                  0                  0        0.450341305       -0.344652023
          1.92e+10       0.447648611       -0.349173518                  0                  0                  0                  0        0.447648611       -0.349173518
          1.95e+10       0.444934239       -0.353663482                  0                  0                  0                  0        0.444934239       -0.353663482
          1.98e+10        0.44219859       -0.358121987                  0                  0                  0                  0         0.44219859       -0.358121987
          2.01e+10       0.439442055       -0.362549106                  0                  0                  0                  0        0.439442055       -0.362549106
          2.04e+10       0.436665019       -0.366944909                  0                  0                  0                  0        0.436665019       -0.366944909
          2.07e+10       0.433867855        -0.37130947                  0                  0                  0                  0        0.433867855        -0.37130947
           2.1e+10       0.431050931       -0.375642858                  0                  0                  0                  0        0.431050931       -0.375642858
          2.13e+10       0.428214607       -0.379945144                  0                  0                  0                  0        0.428214607       -0.379945144
          2.16e+10       0.425359234       -0.384216397                  0                  0                  0                  0        0.425359234       -0.384216397
          2.19e+10       0.422485159       -0.388456686                  0                  0                  0                  0        0.422485159       -0.388456686
          2.22e+10        0.41959272       -0.392666079                  0                  0                  0                  0         0.41959272       -0.392666079
          2.25e+10       0.416682252       -0.396844641                  0                  0                  0                  0        0.416682252       -0.396844641
          2.28e+10       0.413754082       -0.400992439                  0                  0                  0                  0        0.413754082       -0.400992439
          2.31e+10       0.410808532       -0.405109536                  0                  0                  0                  0        0.410808532       -0.405109536
          2.34e+10       0.407845922       -0.409195996                  0                  0                  0                  0        0.407845922       -0.409195996
          2.37e+10       0.404866563       -0.413251881                  0                  0                  0                  0        0.404866563       -0.413251881
           2.4e+10       0.401870765       -0.417277252                  0                  0                  0                  0        0.401870765       -0.417277252
          2.43e+10       0.398858832       -0.421272168                  0                  0                  0                  0        0.398858832       -0.421272168
          2.46e+10       0.395831065       -0.425236689                  0                  0                  0                  0        0.395831065       -0.425236689
          2.49e+10       0.392787761       -0.429170872                  0                  0                  0                  0        0.392787761       -0.429170872
          2.52e+10       0.389729215       -0.433074775                  0                  0                  0                  0        0.389729215       -0.433074775
          2.55e+10       0.386655717       -0.436948454                  0                  0                  0                  0        0.386655717       -0.436948454
          2.58e+10       0.383567554       -0.440791964                  0                  0                  0                  0        0.383567554       -0.440791964
          2.61e+10       0.380465013        -0.44460536                  0                  0                  0                  0        0.380465013        -0.44460536
          2.64e+10       0.377348376       -0.448388697                  0                  0                  0                  0        0.377348376       -0.448388697
          2.67e+10       0.374217922       -0.452142027                  0                  0                  0                  0        0.374217922       -0.452142027
           2.7e+10       0.371073929       -0.455865404                  0                  0                  0                  0        0.371073929       -0.455865404
          2.73e+10       0.367916674       -0.459558881                  0                  0                  0                  0        0.367916674       -0.459558881
          2.76e+10        0.36474643       -0.463222511                  0                  0                  0                  0         0.36474643       -0.463222511
          2.79e+10       0.361563468       -0.466856344                  0                  0                  0                  0        0.361563468       -0.466856344
          2.82e+10       0.358368059       -0.470460435                  0                  0                  0                  0        0.358368059       -0.470460435
          2.85e+10       0.355160471       -0.474034835                  0                  0                  0                  0        0.355160471       -0.474034835
          2.88e+10       0.351940971       -0.477579596                  0                  0                  0                  0        0.351940971       -0.477579596
          2.91e+10       0.348709823       -0.481094771                  0                  0                  0                  0        0.348709823       -0.481094771
          2.94e+10       0.345467291       -0.484580412                  0                  0                  0                  0        0.345467291       -0.484580412
          2.97e+10       0.342213638       -0.488036572                  0                  0                  0                  0        0.342213638       -0.488036572
             3e+10       0.338949125       -0.491463305                  0                  0                  0                  0        0.338949125       -0.491463305
