! Created Tue Apr 13 08:55:01 2021
# hz S ri R 50
! 2 Port Network Data from SP1.SP block
! freq  reS11  imS11  reS21  imS21  reS12  imS12  reS22  imS22  
!     
                 0       0.782924401    -8.13521432e-06                  0                  0                  0                  0        0.782924401    -8.13521432e-06
         300000000       0.782878195     -0.00813485859                  0                  0                  0                  0        0.782878195     -0.00813485859
         600000000       0.782739625      -0.0162675842                  0                  0                  0                  0        0.782739625      -0.0162675842
         900000000       0.782508819      -0.0243960492                  0                  0                  0                  0        0.782508819      -0.0243960492
           1.2e+09       0.782185997      -0.0325181365                  0                  0                  0                  0        0.782185997      -0.0325181365
           1.5e+09       0.781771461      -0.0406317444                  0                  0                  0                  0        0.781771461      -0.0406317444
           1.8e+09       0.781265599      -0.0487347922                  0                  0                  0                  0        0.781265599      -0.0487347922
           2.1e+09        0.78066888      -0.0568252249                  0                  0                  0                  0         0.78066888      -0.0568252249
           2.4e+09       0.779981856      -0.0649010175                  0                  0                  0                  0        0.779981856      -0.0649010175
           2.7e+09       0.779205155      -0.0729601802                  0                  0                  0                  0        0.779205155      -0.0729601802
             3e+09        0.77833948      -0.0810007623                  0                  0                  0                  0         0.77833948      -0.0810007623
           3.3e+09       0.777385606       -0.089020856                  0                  0                  0                  0        0.777385606       -0.089020856
           3.6e+09       0.776344378      -0.0970186007                  0                  0                  0                  0        0.776344378      -0.0970186007
           3.9e+09       0.775216704       -0.104992186                  0                  0                  0                  0        0.775216704       -0.104992186
           4.2e+09       0.774003555       -0.112939855                  0                  0                  0                  0        0.774003555       -0.112939855
           4.5e+09       0.772705958       -0.120859907                  0                  0                  0                  0        0.772705958       -0.120859907
           4.8e+09       0.771324995       -0.128750699                  0                  0                  0                  0        0.771324995       -0.128750699
           5.1e+09       0.769861794       -0.136610651                  0                  0                  0                  0        0.769861794       -0.136610651
           5.4e+09       0.768317532       -0.144438243                  0                  0                  0                  0        0.768317532       -0.144438243
           5.7e+09       0.766693424        -0.15223202                  0                  0                  0                  0        0.766693424        -0.15223202
             6e+09        0.76499072       -0.159990593                  0                  0                  0                  0         0.76499072       -0.159990593
           6.3e+09       0.763210703       -0.167712636                  0                  0                  0                  0        0.763210703       -0.167712636
           6.6e+09       0.761354686       -0.175396891                  0                  0                  0                  0        0.761354686       -0.175396891
           6.9e+09       0.759424003       -0.183042166                  0                  0                  0                  0        0.759424003       -0.183042166
           7.2e+09       0.757420007       -0.190647334                  0                  0                  0                  0        0.757420007       -0.190647334
           7.5e+09       0.755344067       -0.198211335                  0                  0                  0                  0        0.755344067       -0.198211335
           7.8e+09       0.753197565       -0.205733172                  0                  0                  0                  0        0.753197565       -0.205733172
           8.1e+09        0.75098189       -0.213211913                  0                  0                  0                  0         0.75098189       -0.213211913
           8.4e+09       0.748698435       -0.220646688                  0                  0                  0                  0        0.748698435       -0.220646688
           8.7e+09       0.746348594       -0.228036687                  0                  0                  0                  0        0.746348594       -0.228036687
             9e+09       0.743933761       -0.235381163                  0                  0                  0                  0        0.743933761       -0.235381163
           9.3e+09       0.741455324       -0.242679422                  0                  0                  0                  0        0.741455324       -0.242679422
           9.6e+09       0.738914664       -0.249930831                  0                  0                  0                  0        0.738914664       -0.249930831
           9.9e+09       0.736313149       -0.257134808                  0                  0                  0                  0        0.736313149       -0.257134808
          1.02e+10        0.73365214       -0.264290822                  0                  0                  0                  0         0.73365214       -0.264290822
          1.05e+10        0.73093298       -0.271398395                  0                  0                  0                  0         0.73093298       -0.271398395
          1.08e+10       0.728156996       -0.278457094                  0                  0                  0                  0        0.728156996       -0.278457094
          1.11e+10       0.725325499       -0.285466532                  0                  0                  0                  0        0.725325499       -0.285466532
          1.14e+10       0.722439778       -0.292426366                  0                  0                  0                  0        0.722439778       -0.292426366
          1.17e+10       0.719501103       -0.299336291                  0                  0                  0                  0        0.719501103       -0.299336291
           1.2e+10       0.716510723       -0.306196045                  0                  0                  0                  0        0.716510723       -0.306196045
          1.23e+10       0.713469862       -0.313005398                  0                  0                  0                  0        0.713469862       -0.313005398
          1.26e+10       0.710379724       -0.319764157                  0                  0                  0                  0        0.710379724       -0.319764157
          1.29e+10       0.707241484       -0.326472158                  0                  0                  0                  0        0.707241484       -0.326472158
          1.32e+10       0.704056298        -0.33312927                  0                  0                  0                  0        0.704056298        -0.33312927
          1.35e+10       0.700825294       -0.339735387                  0                  0                  0                  0        0.700825294       -0.339735387
          1.38e+10       0.697549576        -0.34629043                  0                  0                  0                  0        0.697549576        -0.34629043
          1.41e+10       0.694230222       -0.352794345                  0                  0                  0                  0        0.694230222       -0.352794345
          1.44e+10       0.690868287       -0.359247096                  0                  0                  0                  0        0.690868287       -0.359247096
          1.47e+10       0.687464799       -0.365648671                  0                  0                  0                  0        0.687464799       -0.365648671
           1.5e+10       0.684020763       -0.371999076                  0                  0                  0                  0        0.684020763       -0.371999076
          1.53e+10        0.68053716       -0.378298331                  0                  0                  0                  0         0.68053716       -0.378298331
          1.56e+10       0.677014947       -0.384546475                  0                  0                  0                  0        0.677014947       -0.384546475
          1.59e+10       0.673455055       -0.390743559                  0                  0                  0                  0        0.673455055       -0.390743559
          1.62e+10       0.669858396       -0.396889648                  0                  0                  0                  0        0.669858396       -0.396889648
          1.65e+10       0.666225857       -0.402984815                  0                  0                  0                  0        0.666225857       -0.402984815
          1.68e+10       0.662558304       -0.409029147                  0                  0                  0                  0        0.662558304       -0.409029147
          1.71e+10       0.658856582       -0.415022739                  0                  0                  0                  0        0.658856582       -0.415022739
          1.74e+10       0.655121516       -0.420965693                  0                  0                  0                  0        0.655121516       -0.420965693
          1.77e+10        0.65135391       -0.426858119                  0                  0                  0                  0         0.65135391       -0.426858119
           1.8e+10       0.647554549       -0.432700133                  0                  0                  0                  0        0.647554549       -0.432700133
          1.83e+10         0.6437242       -0.438491858                  0                  0                  0                  0          0.6437242       -0.438491858
          1.86e+10       0.639863612       -0.444233419                  0                  0                  0                  0        0.639863612       -0.444233419
          1.89e+10       0.635973517       -0.449924947                  0                  0                  0                  0        0.635973517       -0.449924947
          1.92e+10        0.63205463       -0.455566577                  0                  0                  0                  0         0.63205463       -0.455566577
          1.95e+10        0.62810765       -0.461158446                  0                  0                  0                  0         0.62810765       -0.461158446
          1.98e+10       0.624133263       -0.466700693                  0                  0                  0                  0        0.624133263       -0.466700693
          2.01e+10       0.620132138       -0.472193461                  0                  0                  0                  0        0.620132138       -0.472193461
          2.04e+10       0.616104931       -0.477636894                  0                  0                  0                  0        0.616104931       -0.477636894
          2.07e+10       0.612052284       -0.483031137                  0                  0                  0                  0        0.612052284       -0.483031137
           2.1e+10       0.607974829       -0.488376336                  0                  0                  0                  0        0.607974829       -0.488376336
          2.13e+10       0.603873183       -0.493672639                  0                  0                  0                  0        0.603873183       -0.493672639
          2.16e+10       0.599747953       -0.498920194                  0                  0                  0                  0        0.599747953       -0.498920194
          2.19e+10       0.595599734       -0.504119151                  0                  0                  0                  0        0.595599734       -0.504119151
          2.22e+10       0.591429113       -0.509269657                  0                  0                  0                  0        0.591429113       -0.509269657
          2.25e+10       0.587236664       -0.514371863                  0                  0                  0                  0        0.587236664       -0.514371863
          2.28e+10       0.583022953       -0.519425919                  0                  0                  0                  0        0.583022953       -0.519425919
          2.31e+10       0.578788538       -0.524431975                  0                  0                  0                  0        0.578788538       -0.524431975
          2.34e+10       0.574533967        -0.52939018                  0                  0                  0                  0        0.574533967        -0.52939018
          2.37e+10       0.570259779       -0.534300685                  0                  0                  0                  0        0.570259779       -0.534300685
           2.4e+10       0.565966508       -0.539163641                  0                  0                  0                  0        0.565966508       -0.539163641
          2.43e+10       0.561654678       -0.543979197                  0                  0                  0                  0        0.561654678       -0.543979197
          2.46e+10       0.557324808       -0.548747505                  0                  0                  0                  0        0.557324808       -0.548747505
          2.49e+10       0.552977408       -0.553468716                  0                  0                  0                  0        0.552977408       -0.553468716
          2.52e+10       0.548612984       -0.558142981                  0                  0                  0                  0        0.548612984       -0.558142981
          2.55e+10       0.544232033       -0.562770451                  0                  0                  0                  0        0.544232033       -0.562770451
          2.58e+10       0.539835049       -0.567351277                  0                  0                  0                  0        0.539835049       -0.567351277
          2.61e+10       0.535422518       -0.571885613                  0                  0                  0                  0        0.535422518       -0.571885613
          2.64e+10       0.530994922       -0.576373611                  0                  0                  0                  0        0.530994922       -0.576373611
          2.67e+10       0.526552737       -0.580815425                  0                  0                  0                  0        0.526552737       -0.580815425
           2.7e+10       0.522096435       -0.585211207                  0                  0                  0                  0        0.522096435       -0.585211207
          2.73e+10       0.517626481       -0.589561114                  0                  0                  0                  0        0.517626481       -0.589561114
          2.76e+10       0.513143338         -0.5938653                  0                  0                  0                  0        0.513143338         -0.5938653
          2.79e+10       0.508647462       -0.598123921                  0                  0                  0                  0        0.508647462       -0.598123921
          2.82e+10       0.504139307       -0.602337136                  0                  0                  0                  0        0.504139307       -0.602337136
          2.85e+10       0.499619319       -0.606505103                  0                  0                  0                  0        0.499619319       -0.606505103
          2.88e+10       0.495087944       -0.610627981                  0                  0                  0                  0        0.495087944       -0.610627981
          2.91e+10       0.490545621        -0.61470593                  0                  0                  0                  0        0.490545621        -0.61470593
          2.94e+10       0.485992787       -0.618739114                  0                  0                  0                  0        0.485992787       -0.618739114
          2.97e+10       0.481429873       -0.622727695                  0                  0                  0                  0        0.481429873       -0.622727695
             3e+10       0.476857307       -0.626671839                  0                  0                  0                  0        0.476857307       -0.626671839
