! Created Tue Apr 13 08:56:19 2021
# hz S ri R 50
! 2 Port Network Data from SP1.SP block
! freq  reS11  imS11  reS21  imS21  reS12  imS12  reS22  imS22  
!     
                 0      0.0314715911    -2.58190148e-06                  0                  0                  0                  0       0.0314715911    -2.58190148e-06
         300000000      0.0314624348     -0.00258184031                  0                  0                  0                  0       0.0314624348     -0.00258184031
         600000000      0.0314349379     -0.00516331874                  0                  0                  0                  0       0.0314349379     -0.00516331874
         900000000      0.0313891354     -0.00774407447                  0                  0                  0                  0       0.0313891354     -0.00774407447
           1.2e+09      0.0313250655      -0.0103237485                  0                  0                  0                  0       0.0313250655      -0.0103237485
           1.5e+09      0.0312427816      -0.0129019847                  0                  0                  0                  0       0.0312427816      -0.0129019847
           1.8e+09      0.0311423517      -0.0154784306                  0                  0                  0                  0       0.0311423517      -0.0154784306
           2.1e+09      0.0310238584      -0.0180527385                  0                  0                  0                  0       0.0310238584      -0.0180527385
           2.4e+09      0.0308873984      -0.0206245661                  0                  0                  0                  0       0.0308873984      -0.0206245661
           2.7e+09      0.0307330821      -0.0231935775                  0                  0                  0                  0       0.0307330821      -0.0231935775
             3e+09      0.0305610327      -0.0257594439                  0                  0                  0                  0       0.0305610327      -0.0257594439
           3.3e+09      0.0303713864      -0.0283218443                  0                  0                  0                  0       0.0303713864      -0.0283218443
           3.6e+09      0.0301642909      -0.0308804665                  0                  0                  0                  0       0.0301642909      -0.0308804665
           3.9e+09      0.0299399055      -0.0334350071                  0                  0                  0                  0       0.0299399055      -0.0334350071
           4.2e+09      0.0296984001      -0.0359851726                  0                  0                  0                  0       0.0296984001      -0.0359851726
           4.5e+09      0.0294399541      -0.0385306799                  0                  0                  0                  0       0.0294399541      -0.0385306799
           4.8e+09      0.0291647564      -0.0410712563                  0                  0                  0                  0       0.0291647564      -0.0410712563
           5.1e+09       0.028873004      -0.0436066402                  0                  0                  0                  0        0.028873004      -0.0436066402
           5.4e+09      0.0285649017      -0.0461365816                  0                  0                  0                  0       0.0285649017      -0.0461365816
           5.7e+09      0.0282406607      -0.0486608418                  0                  0                  0                  0       0.0282406607      -0.0486608418
             6e+09      0.0279004985      -0.0511791943                  0                  0                  0                  0       0.0279004985      -0.0511791943
           6.3e+09      0.0275446375      -0.0536914242                  0                  0                  0                  0       0.0275446375      -0.0536914242
           6.6e+09      0.0271733048      -0.0561973288                  0                  0                  0                  0       0.0271733048      -0.0561973288
           6.9e+09      0.0267867307      -0.0586967174                  0                  0                  0                  0       0.0267867307      -0.0586967174
           7.2e+09      0.0263851487      -0.0611894113                  0                  0                  0                  0       0.0263851487      -0.0611894113
           7.5e+09      0.0259687942      -0.0636752437                  0                  0                  0                  0       0.0259687942      -0.0636752437
           7.8e+09      0.0255379042      -0.0661540594                  0                  0                  0                  0       0.0255379042      -0.0661540594
           8.1e+09       0.025092716      -0.0686257149                  0                  0                  0                  0        0.025092716      -0.0686257149
           8.4e+09      0.0246334675      -0.0710900781                  0                  0                  0                  0       0.0246334675      -0.0710900781
           8.7e+09      0.0241603957      -0.0735470277                  0                  0                  0                  0       0.0241603957      -0.0735470277
             9e+09      0.0236737365      -0.0759964535                  0                  0                  0                  0       0.0236737365      -0.0759964535
           9.3e+09      0.0231737242      -0.0784382554                  0                  0                  0                  0       0.0231737242      -0.0784382554
           9.6e+09      0.0226605907      -0.0808723435                  0                  0                  0                  0       0.0226605907      -0.0808723435
           9.9e+09      0.0221345656      -0.0832986375                  0                  0                  0                  0       0.0221345656      -0.0832986375
          1.02e+10      0.0215958749      -0.0857170664                  0                  0                  0                  0       0.0215958749      -0.0857170664
          1.05e+10      0.0210447416      -0.0881275681                  0                  0                  0                  0       0.0210447416      -0.0881275681
          1.08e+10      0.0204813845      -0.0905300889                  0                  0                  0                  0       0.0204813845      -0.0905300889
          1.11e+10      0.0199060183      -0.0929245828                  0                  0                  0                  0       0.0199060183      -0.0929245828
          1.14e+10      0.0193188533      -0.0953110118                  0                  0                  0                  0       0.0193188533      -0.0953110118
          1.17e+10      0.0187200952      -0.0976893446                  0                  0                  0                  0       0.0187200952      -0.0976893446
           1.2e+10      0.0181099447       -0.100059557                  0                  0                  0                  0       0.0181099447       -0.100059557
          1.23e+10      0.0174885973        -0.10242163                  0                  0                  0                  0       0.0174885973        -0.10242163
          1.26e+10      0.0168562437       -0.104775551                  0                  0                  0                  0       0.0168562437       -0.104775551
          1.29e+10      0.0162130689       -0.107121313                  0                  0                  0                  0       0.0162130689       -0.107121313
          1.32e+10      0.0155592527       -0.109458914                  0                  0                  0                  0       0.0155592527       -0.109458914
          1.35e+10      0.0148949694       -0.111788355                  0                  0                  0                  0       0.0148949694       -0.111788355
          1.38e+10      0.0142203879       -0.114109643                  0                  0                  0                  0       0.0142203879       -0.114109643
          1.41e+10      0.0135356717       -0.116422787                  0                  0                  0                  0       0.0135356717       -0.116422787
          1.44e+10      0.0128409787         -0.1187278                  0                  0                  0                  0       0.0128409787         -0.1187278
          1.47e+10      0.0121364614       -0.121024699                  0                  0                  0                  0       0.0121364614       -0.121024699
           1.5e+10      0.0114222672       -0.123313502                  0                  0                  0                  0       0.0114222672       -0.123313502
          1.53e+10      0.0106985381       -0.125594229                  0                  0                  0                  0       0.0106985381       -0.125594229
          1.56e+10     0.00996541075       -0.127866905                  0                  0                  0                  0      0.00996541075       -0.127866905
          1.59e+10     0.00922301706       -0.130131552                  0                  0                  0                  0      0.00922301706       -0.130131552
          1.62e+10     0.00847148381       -0.132388197                  0                  0                  0                  0      0.00847148381       -0.132388197
          1.65e+10       0.007710933       -0.134636867                  0                  0                  0                  0        0.007710933       -0.134636867
          1.68e+10     0.00694148194        -0.13687759                  0                  0                  0                  0      0.00694148194        -0.13687759
          1.71e+10     0.00616324341       -0.139110394                  0                  0                  0                  0      0.00616324341       -0.139110394
          1.74e+10      0.0053763258       -0.141335308                  0                  0                  0                  0       0.0053763258       -0.141335308
          1.77e+10     0.00458083324       -0.143552361                  0                  0                  0                  0      0.00458083324       -0.143552361
           1.8e+10      0.0037768658       -0.145761582                  0                  0                  0                  0       0.0037768658       -0.145761582
          1.83e+10     0.00296451961       -0.147963001                  0                  0                  0                  0      0.00296451961       -0.147963001
          1.86e+10     0.00214388705       -0.150156647                  0                  0                  0                  0      0.00214388705       -0.150156647
          1.89e+10     0.00131505691       -0.152342547                  0                  0                  0                  0      0.00131505691       -0.152342547
          1.92e+10    0.000478114507        -0.15452073                  0                  0                  0                  0     0.000478114507        -0.15452073
          1.95e+10   -0.000366858085       -0.156691222                  0                  0                  0                  0    -0.000366858085       -0.156691222
          1.98e+10    -0.00121978192       -0.158854052                  0                  0                  0                  0     -0.00121978192       -0.158854052
          2.01e+10    -0.00208058101       -0.161009243                  0                  0                  0                  0     -0.00208058101       -0.161009243
          2.04e+10    -0.00294918217       -0.163156821                  0                  0                  0                  0     -0.00294918217       -0.163156821
          2.07e+10    -0.00382551486       -0.165296811                  0                  0                  0                  0     -0.00382551486       -0.165296811
           2.1e+10    -0.00470951106       -0.167429234                  0                  0                  0                  0     -0.00470951106       -0.167429234
          2.13e+10    -0.00560110507       -0.169554112                  0                  0                  0                  0     -0.00560110507       -0.169554112
          2.16e+10    -0.00650023343       -0.171671467                  0                  0                  0                  0     -0.00650023343       -0.171671467
          2.19e+10    -0.00740683474       -0.173781317                  0                  0                  0                  0     -0.00740683474       -0.173781317
          2.22e+10    -0.00832084955       -0.175883681                  0                  0                  0                  0     -0.00832084955       -0.175883681
          2.25e+10    -0.00924222019       -0.177978576                  0                  0                  0                  0     -0.00924222019       -0.177978576
          2.28e+10     -0.0101708907       -0.180066018                  0                  0                  0                  0      -0.0101708907       -0.180066018
          2.31e+10     -0.0111068067       -0.182146021                  0                  0                  0                  0      -0.0111068067       -0.182146021
          2.34e+10     -0.0120499153         -0.1842186                  0                  0                  0                  0      -0.0120499153         -0.1842186
          2.37e+10     -0.0130001648       -0.186283766                  0                  0                  0                  0      -0.0130001648       -0.186283766
           2.4e+10     -0.0139575048        -0.18834153                  0                  0                  0                  0      -0.0139575048        -0.18834153
          2.43e+10     -0.0149218861       -0.190391903                  0                  0                  0                  0      -0.0149218861       -0.190391903
          2.46e+10     -0.0158932605       -0.192434893                  0                  0                  0                  0      -0.0158932605       -0.192434893
          2.49e+10     -0.0168715807       -0.194470508                  0                  0                  0                  0      -0.0168715807       -0.194470508
          2.52e+10     -0.0178568002       -0.196498753                  0                  0                  0                  0      -0.0178568002       -0.196498753
          2.55e+10     -0.0188488734       -0.198519635                  0                  0                  0                  0      -0.0188488734       -0.198519635
          2.58e+10     -0.0198477554       -0.200533158                  0                  0                  0                  0      -0.0198477554       -0.200533158
          2.61e+10     -0.0208534017       -0.202539324                  0                  0                  0                  0      -0.0208534017       -0.202539324
          2.64e+10     -0.0218657686       -0.204538137                  0                  0                  0                  0      -0.0218657686       -0.204538137
          2.67e+10     -0.0228848127       -0.206529596                  0                  0                  0                  0      -0.0228848127       -0.206529596
           2.7e+10      -0.023910491       -0.208513703                  0                  0                  0                  0       -0.023910491       -0.208513703
          2.73e+10     -0.0249427611       -0.210490456                  0                  0                  0                  0      -0.0249427611       -0.210490456
          2.76e+10     -0.0259815806       -0.212459854                  0                  0                  0                  0      -0.0259815806       -0.212459854
          2.79e+10     -0.0270269075       -0.214421894                  0                  0                  0                  0      -0.0270269075       -0.214421894
          2.82e+10     -0.0280786999       -0.216376573                  0                  0                  0                  0      -0.0280786999       -0.216376573
          2.85e+10     -0.0291369162       -0.218323887                  0                  0                  0                  0      -0.0291369162       -0.218323887
          2.88e+10     -0.0302015147       -0.220263831                  0                  0                  0                  0      -0.0302015147       -0.220263831
          2.91e+10     -0.0312724541         -0.2221964                  0                  0                  0                  0      -0.0312724541         -0.2221964
          2.94e+10     -0.0323496927       -0.224121586                  0                  0                  0                  0      -0.0323496927       -0.224121586
          2.97e+10      -0.033433189       -0.226039384                  0                  0                  0                  0       -0.033433189       -0.226039384
             3e+10     -0.0345229017       -0.227949786                  0                  0                  0                  0      -0.0345229017       -0.227949786
