! Created Tue Apr 13 08:52:09 2021
# hz S ri R 50
! 2 Port Network Data from SP1.SP block
! freq  reS11  imS11  reS21  imS21  reS12  imS12  reS22  imS22  
!     
                 0      0.0381638929     -2.5463441e-06     3.50390945e-17    -8.49760523e-24     3.50390945e-17    -8.49760523e-24       0.0381638929     -2.5463441e-06
         300000000      0.0450551862     -0.00846134533     0.000472054792      0.00361750563     0.000472054792      0.00361750563       0.0450551862     -0.00846134533
         600000000      0.0427612502      -0.0228187652      0.00169896264      0.00704259815      0.00169896264      0.00704259815       0.0427612501      -0.0228187652
         900000000      0.0356703372      -0.0350604412      0.00373764012       0.0100335274      0.00373764012       0.0100335274       0.0356703372      -0.0350604411
           1.2e+09       0.025485855      -0.0445612957      0.00639518006        0.012445959      0.00639518006        0.012445959       0.0254858549      -0.0445612956
           1.5e+09      0.0132171646      -0.0508077882      0.00951206154        0.014162047      0.00951206154        0.014162047       0.0132171644      -0.0508077881
           1.8e+09   -0.000137857073      -0.0534566243       0.0129102703       0.0151048079       0.0129102703       0.0151048079    -0.000137857321      -0.0534566241
           2.1e+09     -0.0135874712      -0.0524297149       0.0164041009       0.0152406689       0.0164041009       0.0152406689      -0.0135874715      -0.0524297146
           2.4e+09     -0.0260858306      -0.0478367185       0.0198045471       0.0145792055       0.0198045471       0.0145792055       -0.026085831      -0.0478367181
           2.7e+09     -0.0367478689       -0.040103965       0.0229370871       0.0131712825       0.0229370871       0.0131712825      -0.0367478693      -0.0401039644
             3e+09     -0.0447844741      -0.0298428136       0.0256436437       0.0111045565       0.0256436437       0.0111045565      -0.0447844743      -0.0298428128
           3.3e+09     -0.0496899113      -0.0178656164       0.0277942267      0.00849466266       0.0277942267      0.00849466266      -0.0496899115      -0.0178656156
           3.6e+09     -0.0510987454     -0.00506457746       0.0292853121      0.00548342377       0.0292853121      0.00548342377      -0.0510987455     -0.00506457644
           3.9e+09     -0.0489132497      0.00760176753       0.0300476915      0.00222982569       0.0300476915      0.00222982569      -0.0489132497       0.0076017687
           4.2e+09     -0.0432915047       0.0191833269       0.0300482932     -0.00109669286       0.0300482932     -0.00109669286      -0.0432915045       0.0191833281
           4.5e+09     -0.0346319506       0.0288022992       0.0292915843     -0.00432343238       0.0292915843     -0.00432343238      -0.0346319504       0.0288023004
           4.8e+09     -0.0235480235       0.0357114758       0.0278199626     -0.00728220796       0.0278199626     -0.00728220796      -0.0235480231       0.0357114771
           5.1e+09     -0.0108282572       0.0393443405       0.0257127012     -0.00981744302       0.0257127012     -0.00981744302      -0.0108282566       0.0393443417
           5.4e+09      0.0026138569       0.0393544993       0.0230831048      -0.0117944599       0.0230831048      -0.0117944599      0.00261385769       0.0393545004
           5.7e+09      0.0157992023       0.0356414474       0.0200735752      -0.0131073574       0.0200735752      -0.0131073574       0.0157992031       0.0356414484
             6e+09      0.0277473804       0.0283609482       0.0168485562      -0.0136858587       0.0168485562      -0.0136858587       0.0277473814        0.028360949
           6.3e+09      0.0375419605       0.0179192023       0.0135855135      -0.0135003719       0.0135855135      -0.0135003719       0.0375419615       0.0179192029
           6.6e+09      0.0443931371      0.00494982993       0.0104646248      -0.0125644641       0.0104646248      -0.0125644641       0.0443931382      0.00494983047
           6.9e+09      0.0476926408     -0.00972588067      0.00765823397      -0.0109342411      0.00765823397      -0.0109342411       0.0476926418      -0.0097258803
           7.2e+09      0.0470557086      -0.0251568668      0.00532204294     -0.00870411036      0.00532204294     -0.00870411036       0.0470557093      -0.0251568667
           7.5e+09      0.0423500679      -0.0403415684      0.00359454333     -0.00599706659      0.00359454333     -0.00599706659       0.0423500685      -0.0403415684
           7.8e+09      0.0337116096       -0.054115832      0.00264495611      -0.0029226208      0.00264495611      -0.0029226208       0.0337116099       -0.054115832
           8.1e+09      0.0216068291      -0.0653438767      0.00256404333     0.000319838752      0.00256404333     0.000319838752       0.0216068292      -0.0653438768
           8.4e+09     0.00693240982       -0.073499709      0.00276810838      0.00317121199      0.00276810838      0.00317121199      0.00693240956       -0.073499709
           8.7e+09    -0.00974340696      -0.0778174334      0.00356818901      0.00622869221      0.00356818901      0.00622869221     -0.00974340752      -0.0778174334
             9e+09     -0.0273696631      -0.0778552138      0.00519254649      0.00888451645      0.00519254649      0.00888451645      -0.0273696639      -0.0778552135
           9.3e+09      -0.044814696      -0.0734489314      0.00739112523       0.0110733214      0.00739112523       0.0110733214       -0.044814697      -0.0734489309
           9.6e+09     -0.0609476118      -0.0647208074       0.0100197042       0.0127012115       0.0100197042       0.0127012115      -0.0609476131      -0.0647208066
           9.9e+09     -0.0746987127      -0.0520737297       0.0129374028       0.0136961491       0.0129374028       0.0136961491       -0.074698714      -0.0520737285
          1.02e+10     -0.0851239512      -0.0361689274       0.0159968499       0.0140147413       0.0159968499       0.0140147413      -0.0851239526      -0.0361689259
          1.05e+10     -0.0914640214      -0.0178883469       0.0190466505       0.0136440762       0.0190466505       0.0136440762      -0.0914640227       -0.017888345
          1.08e+10     -0.0931936514      0.00171626573       0.0219360887       0.0126024086       0.0219360887       0.0126024086      -0.0931936525      0.00171626804
          1.11e+10      -0.090057041       0.0214844926       0.0245205253       0.0109391985       0.0245205253       0.0109391985      -0.0900570419       0.0214844952
          1.14e+10     -0.0820877971       0.0402148952       0.0266673563      0.00873442091       0.0266673563      0.00873442091      -0.0820877977       0.0402148981
          1.17e+10     -0.0696127968       0.0567358118       0.0282625592      0.00609670193       0.0282625592      0.00609670193      -0.0696127971        0.056735815
           1.2e+10     -0.0532392469       0.0699753708       0.0292174322      0.00315983886       0.0292174322      0.00315983886      -0.0532392468       0.0699753741
          1.23e+10     -0.0338255767       0.0790270114       0.0294750185     7.73837466e-05       0.0294750185     7.73837466e-05      -0.0338255763       0.0790270147
          1.26e+10     -0.0124375876       0.0832072867        0.029015479     -0.00298492749        0.029015479     -0.00298492749      -0.0124375867         0.08320729
          1.29e+10     0.00970852692       0.0821024801       0.0278595466     -0.00585864489       0.0278595466     -0.00585864489      0.00970852813       0.0821024833
          1.32e+10      0.0313134787       0.0756011336       0.0260691289     -0.00838329152       0.0260691289     -0.00838329152       0.0313134801       0.0756011366
          1.35e+10      0.0510695837       0.0639100891       0.0237448891      -0.0104174382       0.0237448891      -0.0104174382       0.0510695854       0.0639100917
          1.38e+10       0.067738383       0.0475522096       0.0210201053      -0.0118488132       0.0210201053      -0.0118488132       0.0677383849       0.0475522118
          1.41e+10       0.080227047       0.0273448626       0.0180516903      -0.0126022364       0.0180516903      -0.0126022364       0.0802270491       0.0273448645
          1.44e+10      0.0876586782        0.004359063       0.0150092884      -0.0126445033       0.0150092884      -0.0126445033       0.0876586804      0.00435906454
          1.47e+10      0.0894308148      -0.0201399923       0.0120634798      -0.0119853924       0.0120634798      -0.0119853924       0.0894308168       -0.020139991
           1.5e+10      0.0852573883      -0.0447695269      0.00937512061      -0.0106746918      0.00937512061      -0.0106746918       0.0852573902      -0.0447695261
          1.53e+10      0.0751961182      -0.0681070066      0.00708821237     -0.00879520537      0.00708821237     -0.00879520537       0.0751961197      -0.0681070063
          1.56e+10      0.0596655049      -0.0886113316      0.00533191057      -0.0064499887      0.00533191057      -0.0064499887        0.059665506      -0.0886113315
          1.59e+10      0.0394671334       -0.104952277      0.00424089628     -0.00373518189      0.00424089628     -0.00373518189       0.0394671341       -0.104952277
          1.62e+10      0.0158171017       -0.116373234       0.0037834372    -0.000936820366       0.0037834372    -0.000936820366       0.0158171019       -0.116373234
          1.65e+10     -0.0102107057       -0.121966757      0.00373869833      0.00168463782      0.00373869833      0.00168463782      -0.0102107061       -0.121966757
          1.68e+10     -0.0371951206       -0.121258147      0.00418866975      0.00456110098      0.00418866975      0.00456110098      -0.0371951216       -0.121258147
          1.71e+10     -0.0635887775       -0.114144273      0.00533082376      0.00716741571      0.00533082376      0.00716741571       -0.063588779       -0.114144272
          1.74e+10     -0.0878647616       -0.100888145      0.00704958784      0.00942347097      0.00704958784      0.00942347097      -0.0878647633       -0.100888144
          1.77e+10       -0.10859834      -0.0821072381      0.00923354514       0.0112429001      0.00923354514       0.0112429001       -0.108598342      -0.0821072367
           1.8e+10       -0.12454359      -0.0587419418       0.0117756077       0.0125435624       0.0117756077       0.0125435624       -0.124543592      -0.0587419397
          1.83e+10      -0.134703015      -0.0320071696       0.0145584393       0.0132582145       0.0145584393       0.0132582145       -0.134703017       -0.032007167
          1.86e+10      -0.138385079     -0.00332696794       0.0174519303       0.0133409859       0.0174519303       0.0133409859       -0.138385081     -0.00332696478
          1.89e+10      -0.135245286       0.0257404529       0.0203148422       0.0127722372       0.0203148422       0.0127722372       -0.135245288       0.0257404566
          1.92e+10      -0.125310016       0.0535854275       0.0229991567       0.0115632088       0.0229991567       0.0115632088       -0.125310018       0.0535854316
          1.95e+10      -0.108980918       0.0786334231       0.0253573032       0.0097600013       0.0253573032       0.0097600013        -0.10898092       0.0786334278
          1.98e+10     -0.0870197137       0.0994304794       0.0272519373      0.00744556508       0.0272519373      0.00744556508      -0.0870197145       0.0994304844
          2.01e+10     -0.0605154685        0.114724024        0.028565775      0.00473776674        0.028565775      0.00473776674      -0.0605154687        0.114724029
          2.04e+10     -0.0308332795        0.123535631       0.0292123387      0.00178454458       0.0292123387      0.00178454458       -0.030833279        0.123535636
          2.07e+10    0.000452741744        0.125221737        0.029145055     -0.00124488093        0.029145055     -0.00124488093      0.00045274276        0.125221742
           2.1e+10       0.031640828        0.119518582        0.028363015     -0.00417210372        0.028363015     -0.00417210372       0.0316408295        0.119518587
          2.13e+10      0.0609920845         0.10656753       0.0269128877     -0.00682325098       0.0269128877     -0.00682325098       0.0609920866        0.106567535
          2.16e+10      0.0868281043       0.0869187608       0.0248870805     -0.00904343008       0.0248870805     -0.00904343008       0.0868281068        0.086918765
          2.19e+10       0.107625931       0.0615120797       0.0224140125      -0.0107087416       0.0224140125      -0.0107087416        0.107625934       0.0615120832
          2.22e+10       0.122110759       0.0316337567       0.0196481923      -0.0117355972       0.0196481923      -0.0117355972        0.122110762       0.0316337596
          2.25e+10       0.129335702      -0.0011507932       0.0167562897      -0.0120852592       0.0167562897      -0.0120852592        0.129335705     -0.00115079094
          2.28e+10       0.128742468      -0.0350820391       0.0139033637      -0.0117631369       0.0139033637      -0.0117631369        0.128742471      -0.0350820374
          2.31e+10       0.120202084      -0.0682991046       0.0112411116      -0.0108132403       0.0112411116      -0.0108132403        0.120202086      -0.0682991034
          2.34e+10       0.104041865      -0.0989065517      0.00890053134     -0.00931052808      0.00890053134     -0.00931052808        0.104041867      -0.0989065513
          2.37e+10      0.0810346784       -0.125050545      0.00698928437     -0.00734861645      0.00698928437     -0.00734861645       0.0810346799       -0.125050545
           2.4e+10      0.0524265796       -0.145410581        0.005593805     -0.00502964623        0.005593805     -0.00502964623       0.0524265805       -0.145410581
          2.43e+10      0.0196567404       -0.158752635      0.00473206625     -0.00251192871      0.00473206625     -0.00251192871       0.0196567405       -0.158752635
          2.46e+10     -0.0156030135        -0.16420412      0.00434464497     4.57680045e-06      0.00434464497     4.57680045e-06      -0.0156030143        -0.16420412
          2.49e+10     -0.0514529134       -0.161359385      0.00447173263      0.00267209822      0.00447173263      0.00267209822      -0.0514529151       -0.161359385
          2.52e+10     -0.0859438269       -0.150262326       0.0051578844      0.00525608818       0.0051578844      0.00525608818      -0.0859438293       -0.150262326
          2.55e+10      -0.117188561       -0.131403351      0.00639634761       0.0076263188      0.00639634761       0.0076263188       -0.117188564        -0.13140335
          2.58e+10      -0.143459749       -0.105695213      0.00813257096       0.0096905363      0.00813257096       0.0096905363       -0.143459753       -0.105695211
          2.61e+10      -0.163280004       -0.074425399       0.0103001817       0.0113526323       0.0103001817       0.0113526323       -0.163280008      -0.0744253964
          2.64e+10      -0.175499193      -0.0391903311       0.0128148887       0.0125204283       0.0128148887       0.0125204283       -0.175499197      -0.0391903276
          2.67e+10      -0.179355219     -0.00181415346       0.0155699882       0.0131140502       0.0155699882       0.0131140502       -0.179355223     -0.00181414889
           2.7e+10      -0.174517002       0.0357408997       0.0184349192       0.0130734071       0.0184349192       0.0130734071       -0.174517006       0.0357409053
          2.73e+10      -0.161107988       0.0714704668       0.0212590912       0.0123692107       0.0212590912       0.0123692107       -0.161107991       0.0714704732
          2.76e+10      -0.139697662        0.103452669       0.0238816262        0.011009793       0.0238816262        0.011009793       -0.139697664        0.103452676
          2.79e+10      -0.111292079        0.129907473       0.0261391049      0.00904802072       0.0261391049      0.00904802072       -0.111292081         0.12990748
          2.82e+10      -0.077286177        0.149320385       0.0278815717      0.00658187894       0.0278815717      0.00658187894      -0.0772861776        0.149320393
          2.85e+10     -0.0393986984        0.160520942       0.0289896747      0.00375158192       0.0289896747      0.00375158192      -0.0393986982         0.16052095
          2.88e+10    0.000406266731        0.162752092       0.0293838887     0.000728629682       0.0293838887     0.000728629682     0.000406267906          0.1627521
          2.91e+10      0.0400159314        0.155723183       0.0290332157     -0.00229703617       0.0290332157     -0.00229703617       0.0400159335        0.155723191
          2.94e+10      0.0772848125        0.139639625       0.0279648746     -0.00513395021       0.0279648746     -0.00513395021       0.0772848154        0.139639632
          2.97e+10       0.110147501        0.115205732        0.026257684     -0.00760722835        0.026257684     -0.00760722835        0.110147505        0.115205739
             3e+10       0.136735353        0.083600767       0.0240339766      -0.0095739427       0.0240339766      -0.0095739427        0.136735357       0.0836007731
