! Created Tue Apr 13 08:55:51 2021
# hz S ri R 50
! 2 Port Network Data from SP1.SP block
! freq  reS11  imS11  reS21  imS21  reS12  imS12  reS22  imS22  
!     
                 0       0.299878074    -4.22171072e-06                  0                  0                  0                  0        0.299878074    -4.22171072e-06
         300000000       0.299859712     -0.00422158315                  0                  0                  0                  0        0.299859712     -0.00422158315
         600000000       0.299804635     -0.00844240145                  0                  0                  0                  0        0.299804635     -0.00844240145
         900000000       0.299712894       -0.012661692                  0                  0                  0                  0        0.299712894       -0.012661692
           1.2e+09       0.299584567      -0.0168786959                  0                  0                  0                  0        0.299584567      -0.0168786959
           1.5e+09       0.299419764      -0.0210926599                  0                  0                  0                  0        0.299419764      -0.0210926599
           1.8e+09       0.299218625      -0.0253028384                  0                  0                  0                  0        0.299218625      -0.0253028384
           2.1e+09       0.298981322      -0.0295084955                  0                  0                  0                  0        0.298981322      -0.0295084955
           2.4e+09       0.298708054      -0.0337089063                  0                  0                  0                  0        0.298708054      -0.0337089063
           2.7e+09       0.298399049       -0.037903359                  0                  0                  0                  0        0.298399049       -0.037903359
             3e+09        0.29805456      -0.0420911562                  0                  0                  0                  0         0.29805456      -0.0420911562
           3.3e+09       0.297674871      -0.0462716165                  0                  0                  0                  0        0.297674871      -0.0462716165
           3.6e+09       0.297260284       -0.050444076                  0                  0                  0                  0        0.297260284       -0.050444076
           3.9e+09       0.296811131      -0.0546078891                  0                  0                  0                  0        0.296811131      -0.0546078891
           4.2e+09       0.296327762      -0.0587624303                  0                  0                  0                  0        0.296327762      -0.0587624303
           4.5e+09       0.295810547      -0.0629070948                  0                  0                  0                  0        0.295810547      -0.0629070948
           4.8e+09       0.295259878      -0.0670412996                  0                  0                  0                  0        0.295259878      -0.0670412996
           5.1e+09       0.294676163       -0.071164484                  0                  0                  0                  0        0.294676163       -0.071164484
           5.4e+09       0.294059825      -0.0752761106                  0                  0                  0                  0        0.294059825      -0.0752761106
           5.7e+09       0.293411303      -0.0793756657                  0                  0                  0                  0        0.293411303      -0.0793756657
             6e+09       0.292731046      -0.0834626594                  0                  0                  0                  0        0.292731046      -0.0834626594
           6.3e+09       0.292019516      -0.0875366262                  0                  0                  0                  0        0.292019516      -0.0875366262
           6.6e+09       0.291277185      -0.0915971251                  0                  0                  0                  0        0.291277185      -0.0915971251
           6.9e+09       0.290504531      -0.0956437395                  0                  0                  0                  0        0.290504531      -0.0956437395
           7.2e+09       0.289702039      -0.0996760772                  0                  0                  0                  0        0.289702039      -0.0996760772
           7.5e+09       0.288870198        -0.10369377                  0                  0                  0                  0        0.288870198        -0.10369377
           7.8e+09       0.288009503       -0.107696474                  0                  0                  0                  0        0.288009503       -0.107696474
           8.1e+09       0.287120449       -0.111683868                  0                  0                  0                  0        0.287120449       -0.111683868
           8.4e+09       0.286203531       -0.115655655                  0                  0                  0                  0        0.286203531       -0.115655655
           8.7e+09       0.285259246       -0.119611559                  0                  0                  0                  0        0.285259246       -0.119611559
             9e+09       0.284288086       -0.123551328                  0                  0                  0                  0        0.284288086       -0.123551328
           9.3e+09       0.283290543       -0.127474729                  0                  0                  0                  0        0.283290543       -0.127474729
           9.6e+09       0.282267104        -0.13138155                  0                  0                  0                  0        0.282267104        -0.13138155
           9.9e+09       0.281218251         -0.1352716                  0                  0                  0                  0        0.281218251         -0.1352716
          1.02e+10        0.28014446       -0.139144706                  0                  0                  0                  0         0.28014446       -0.139144706
          1.05e+10       0.279046203       -0.143000712                  0                  0                  0                  0        0.279046203       -0.143000712
          1.08e+10       0.277923942       -0.146839481                  0                  0                  0                  0        0.277923942       -0.146839481
          1.11e+10       0.276778131       -0.150660891                  0                  0                  0                  0        0.276778131       -0.150660891
          1.14e+10        0.27560922       -0.154464837                  0                  0                  0                  0         0.27560922       -0.154464837
          1.17e+10       0.274417644       -0.158251227                  0                  0                  0                  0        0.274417644       -0.158251227
           1.2e+10       0.273203834       -0.162019983                  0                  0                  0                  0        0.273203834       -0.162019983
          1.23e+10       0.271968209        -0.16577104                  0                  0                  0                  0        0.271968209        -0.16577104
          1.26e+10       0.270711179       -0.169504346                  0                  0                  0                  0        0.270711179       -0.169504346
          1.29e+10       0.269433142       -0.173219857                  0                  0                  0                  0        0.269433142       -0.173219857
          1.32e+10        0.26813449       -0.176917542                  0                  0                  0                  0         0.26813449       -0.176917542
          1.35e+10         0.2668156       -0.180597378                  0                  0                  0                  0          0.2668156       -0.180597378
          1.38e+10       0.265476842       -0.184259352                  0                  0                  0                  0        0.265476842       -0.184259352
          1.41e+10       0.264118574       -0.187903457                  0                  0                  0                  0        0.264118574       -0.187903457
          1.44e+10       0.262741144       -0.191529694                  0                  0                  0                  0        0.262741144       -0.191529694
          1.47e+10       0.261344891       -0.195138071                  0                  0                  0                  0        0.261344891       -0.195138071
           1.5e+10       0.259930142       -0.198728601                  0                  0                  0                  0        0.259930142       -0.198728601
          1.53e+10       0.258497216       -0.202301302                  0                  0                  0                  0        0.258497216       -0.202301302
          1.56e+10       0.257046421       -0.205856196                  0                  0                  0                  0        0.257046421       -0.205856196
          1.59e+10       0.255578055       -0.209393311                  0                  0                  0                  0        0.255578055       -0.209393311
          1.62e+10       0.254092408       -0.212912675                  0                  0                  0                  0        0.254092408       -0.212912675
          1.65e+10       0.252589761       -0.216414322                  0                  0                  0                  0        0.252589761       -0.216414322
          1.68e+10       0.251070384       -0.219898287                  0                  0                  0                  0        0.251070384       -0.219898287
          1.71e+10       0.249534542       -0.223364608                  0                  0                  0                  0        0.249534542       -0.223364608
          1.74e+10       0.247982488       -0.226813321                  0                  0                  0                  0        0.247982488       -0.226813321
          1.77e+10       0.246414469       -0.230244469                  0                  0                  0                  0        0.246414469       -0.230244469
           1.8e+10       0.244830725        -0.23365809                  0                  0                  0                  0        0.244830725        -0.23365809
          1.83e+10       0.243231488       -0.237054227                  0                  0                  0                  0        0.243231488       -0.237054227
          1.86e+10       0.241616982        -0.24043292                  0                  0                  0                  0        0.241616982        -0.24043292
          1.89e+10       0.239987425       -0.243794211                  0                  0                  0                  0        0.239987425       -0.243794211
          1.92e+10       0.238343029        -0.24713814                  0                  0                  0                  0        0.238343029        -0.24713814
          1.95e+10       0.236683999        -0.25046475                  0                  0                  0                  0        0.236683999        -0.25046475
          1.98e+10       0.235010535       -0.253774078                  0                  0                  0                  0        0.235010535       -0.253774078
          2.01e+10       0.233322831       -0.257066165                  0                  0                  0                  0        0.233322831       -0.257066165
          2.04e+10       0.231621075       -0.260341049                  0                  0                  0                  0        0.231621075       -0.260341049
          2.07e+10       0.229905453       -0.263598766                  0                  0                  0                  0        0.229905453       -0.263598766
           2.1e+10       0.228176143       -0.266839352                  0                  0                  0                  0        0.228176143       -0.266839352
          2.13e+10       0.226433319       -0.270062842                  0                  0                  0                  0        0.226433319       -0.270062842
          2.16e+10       0.224677154       -0.273269269                  0                  0                  0                  0        0.224677154       -0.273269269
          2.19e+10       0.222907813       -0.276458664                  0                  0                  0                  0        0.222907813       -0.276458664
          2.22e+10        0.22112546       -0.279631058                  0                  0                  0                  0         0.22112546       -0.279631058
          2.25e+10       0.219330255        -0.28278648                  0                  0                  0                  0        0.219330255        -0.28278648
          2.28e+10       0.217522355       -0.285924956                  0                  0                  0                  0        0.217522355       -0.285924956
          2.31e+10       0.215701912       -0.289046513                  0                  0                  0                  0        0.215701912       -0.289046513
          2.34e+10       0.213869079       -0.292151174                  0                  0                  0                  0        0.213869079       -0.292151174
          2.37e+10       0.212024004       -0.295238963                  0                  0                  0                  0        0.212024004       -0.295238963
           2.4e+10       0.210166833         -0.2983099                  0                  0                  0                  0        0.210166833         -0.2983099
          2.43e+10        0.20829771       -0.301364005                  0                  0                  0                  0         0.20829771       -0.301364005
          2.46e+10       0.206416777       -0.304401297                  0                  0                  0                  0        0.206416777       -0.304401297
          2.49e+10       0.204524174       -0.307421792                  0                  0                  0                  0        0.204524174       -0.307421792
          2.52e+10        0.20262004       -0.310425506                  0                  0                  0                  0         0.20262004       -0.310425506
          2.55e+10       0.200704512       -0.313412453                  0                  0                  0                  0        0.200704512       -0.313412453
          2.58e+10       0.198777725       -0.316382647                  0                  0                  0                  0        0.198777725       -0.316382647
          2.61e+10       0.196839814       -0.319336097                  0                  0                  0                  0        0.196839814       -0.319336097
          2.64e+10       0.194890912       -0.322272817                  0                  0                  0                  0        0.194890912       -0.322272817
          2.67e+10       0.192931152       -0.325192814                  0                  0                  0                  0        0.192931152       -0.325192814
           2.7e+10       0.190960664       -0.328096097                  0                  0                  0                  0        0.190960664       -0.328096097
          2.73e+10       0.188979579       -0.330982675                  0                  0                  0                  0        0.188979579       -0.330982675
          2.76e+10       0.186988027       -0.333852553                  0                  0                  0                  0        0.186988027       -0.333852553
          2.79e+10       0.184986137       -0.336705737                  0                  0                  0                  0        0.184986137       -0.336705737
          2.82e+10       0.182974037       -0.339542233                  0                  0                  0                  0        0.182974037       -0.339542233
          2.85e+10       0.180951856       -0.342362044                  0                  0                  0                  0        0.180951856       -0.342362044
          2.88e+10       0.178919721       -0.345165175                  0                  0                  0                  0        0.178919721       -0.345165175
          2.91e+10        0.17687776       -0.347951628                  0                  0                  0                  0         0.17687776       -0.347951628
          2.94e+10         0.1748261       -0.350721406                  0                  0                  0                  0          0.1748261       -0.350721406
          2.97e+10       0.172764866       -0.353474512                  0                  0                  0                  0        0.172764866       -0.353474512
             3e+10       0.170694187       -0.356210946                  0                  0                  0                  0        0.170694187       -0.356210946
