! Created Tue Apr 13 08:53:50 2021
# hz S ri R 50
! 2 Port Network Data from SP1.SP block
! freq  reS11  imS11  reS21  imS21  reS12  imS12  reS22  imS22  
!     
                 0       0.783262393    -8.10990054e-06     5.72197677e-17    -4.55779498e-22     5.72197677e-17    -4.55779498e-22        0.783262393    -8.10990054e-06
         300000000       0.758084529       -0.193505058       0.0014634214      0.00590736617       0.0014634214      0.00590736617        0.758084529       -0.193505058
         600000000       0.685617255       -0.373564252      0.00507923616       0.0105833418      0.00507923616       0.0105833418        0.685617255       -0.373564252
         900000000        0.57132655        -0.52887593       0.0102504212       0.0130846764       0.0102504212       0.0130846764         0.57132655        -0.52887593
           1.2e+09       0.423242186       -0.650052132        0.015718502        0.013079735        0.015718502        0.013079735        0.423242186       -0.650052132
           1.5e+09       0.251446118       -0.730194984        0.020317811       0.0108061287        0.020317811       0.0108061287        0.251446118       -0.730194984
           1.8e+09      0.0671821524       -0.765384631       0.0231705949      0.00700431523       0.0231705949      0.00700431523        0.067182152       -0.765384631
           2.1e+09      -0.118099163        -0.75472843       0.0238762311      0.00269939088       0.0238762311      0.00269939088       -0.118099164       -0.754728429
           2.4e+09      -0.293138584       -0.700190262       0.0225620219     -0.00105452132       0.0225620219     -0.00105452132       -0.293138585       -0.700190261
           2.7e+09      -0.448086541       -0.606277232       0.0198159284     -0.00343471047       0.0198159284     -0.00343471047       -0.448086542       -0.606277231
             3e+09      -0.574584981         -0.4795748       0.0165074144     -0.00400945405       0.0165074144     -0.00400945405       -0.574584982       -0.479574799
           3.3e+09      -0.666410542       -0.328041977       0.0135656482     -0.00280807019       0.0135656482     -0.00280807019       -0.666410542       -0.328041976
           3.6e+09      -0.719276467       -0.160760207        0.011774737    -0.000273159063        0.011774737    -0.000273159063       -0.719276467       -0.160760207
           3.9e+09       -0.73115258        0.012724627       0.0116082422      0.00285848835       0.0116082422      0.00285848835        -0.73115258       0.0127246285
           4.2e+09      -0.702181087        0.182856639       0.0131437576      0.00573229277       0.0131437576      0.00573229277       -0.702181087        0.182856641
           4.5e+09      -0.634561856        0.340487625       0.0160622145      0.00756356802       0.0160622145      0.00756356802       -0.634561856        0.340487626
           4.8e+09      -0.532388205        0.477257968       0.0197256832      0.00780215246       0.0197256832      0.00780215246       -0.532388205        0.477257969
           5.1e+09       -0.40143782        0.585933666       0.0233154453      0.00624574278       0.0233154453      0.00624574278       -0.401437819        0.585933667
           5.4e+09      -0.248921718        0.660710343       0.0260037243      0.00308308493       0.0260037243      0.00308308493       -0.248921716        0.660710343
           5.7e+09     -0.0831896949        0.697483105       0.0271277207     -0.00114039243       0.0271277207     -0.00114039243      -0.0831896942        0.697483104
             6e+09      0.0866160079        0.694081419       0.0263335639     -0.00562970799       0.0263335639     -0.00562970799        0.086616009        0.694081419
           6.3e+09       0.250971147        0.650455696       0.0236608425     -0.00950258593       0.0236608425     -0.00950258593        0.250971148        0.650455696
           6.6e+09       0.400445027        0.568789571       0.0195469568      -0.0119769009       0.0195469568      -0.0119769009        0.400445027        0.568789572
           6.9e+09        0.52623512        0.453504672       0.0147447928      -0.0125447161       0.0147447928      -0.0125447161         0.52623512        0.453504673
           7.2e+09       0.620733526        0.311114656       0.0101671238      -0.0110917743       0.0101671238      -0.0110917743        0.620733526        0.311114657
           7.5e+09       0.678073831        0.149898212      0.00669856948     -0.00792762263      0.00669856948     -0.00792762263        0.678073832        0.149898212
           7.8e+09       0.694628422      -0.0202992733      0.00508713061     -0.00368282815      0.00508713061     -0.00368282815        0.694628422      -0.0202992729
           8.1e+09       0.669512622       -0.188927725      0.00561304496      0.00066001886      0.00561304496      0.00066001886        0.669512622       -0.188927725
           8.4e+09       0.604655586        -0.34631604      0.00705514298      0.00387717927      0.00705514298      0.00387717927        0.604655586       -0.346316041
           8.7e+09       0.503847766       -0.482751663      0.00965885191      0.00637869753      0.00965885191      0.00637869753        0.503847766       -0.482751663
             9e+09       0.373625872       -0.590200484       0.0128654806      0.00707004702       0.0128654806      0.00707004702        0.373625871       -0.590200483
           9.3e+09       0.222235322       -0.662645048       0.0156637482      0.00621389451       0.0156637482      0.00621389451        0.222235321       -0.662645047
           9.6e+09      0.0589935505       -0.696394305        0.017395728      0.00431356432        0.017395728      0.00431356432       0.0589935485       -0.696394305
           9.9e+09      -0.106359332       -0.690209405       0.0177524645      0.00207428444       0.0177524645      0.00207428444       -0.106359334       -0.690209404
          1.02e+10      -0.264286909       -0.645240113       0.0168064814     0.000232858801       0.0168064814     0.000232858801       -0.264286912       -0.645240112
          1.05e+10        -0.4060057         -0.5648122       0.0149684852    -0.000618709539       0.0149684852    -0.000618709539       -0.406005702       -0.564812197
          1.08e+10      -0.523933515       -0.454106465       0.0128722707    -0.000166284207       0.0128722707    -0.000166284207       -0.523933516       -0.454106461
          1.11e+10       -0.61202003       -0.319771779       0.0112176998      0.00156357496       0.0112176998      0.00156357496       -0.612020031       -0.319771775
          1.14e+10        -0.6659662       -0.169509277       0.0106084916      0.00421832203       0.0106084916      0.00421832203         -0.6659662       -0.169509273
          1.17e+10      -0.683346945      -0.0116489972       0.0114181692      0.00720226906       0.0114181692      0.00720226906       -0.683346945      -0.0116489923
           1.2e+10        -0.6636474        0.145261502       0.0137083359      0.00980650147       0.0137083359      0.00980650147       -0.663647399        0.145261506
          1.23e+10      -0.608228438         0.29284584       0.0172117334       0.0113585206       0.0172117334       0.0113585206       -0.608228437        0.292845844
          1.26e+10      -0.520232856        0.423265377       0.0213806419       0.0113631037       0.0213806419       0.0113631037       -0.520232854        0.423265381
          1.29e+10      -0.404437384        0.529560589       0.0254904609      0.00960883229       0.0254904609      0.00960883229       -0.404437382        0.529560592
          1.32e+10      -0.267054327        0.605966179       0.0287794648      0.00622083098       0.0287794648      0.00622083098       -0.267054325         0.60596618
          1.35e+10      -0.115478099        0.648200849        0.030599856       0.0016487496        0.030599856       0.0016487496       -0.115478096         0.64820085
          1.38e+10      0.0420297696        0.653722244       0.0305514865     -0.00341038535       0.0305514865     -0.00341038535        0.042029772        0.653722245
          1.41e+10        0.19672051        0.621930977       0.0285710742     -0.00814276275       0.0285710742     -0.00814276275        0.196720512        0.621930978
          1.44e+10       0.339805534        0.554300959        0.024955661      -0.0117786127        0.024955661      -0.0117786127        0.339805535         0.55430096
          1.47e+10       0.462960186          0.4544031       0.0203102293      -0.0137506193       0.0203102293      -0.0137506193        0.462960186        0.454403101
           1.5e+10       0.558852705        0.327791013       0.0154267123      -0.0138137278       0.0154267123      -0.0138137278        0.558852705        0.327791014
          1.53e+10       0.621664751        0.181746762       0.0111204698      -0.0120953839       0.0111204698      -0.0120953839        0.621664752        0.181746762
          1.56e+10       0.647599434       0.0250993536      0.00807026766     -0.00905880551      0.00807026766     -0.00905880551        0.647599434        0.025099354
          1.59e+10       0.635266561       -0.132751486      0.00671413032      -0.0053792697      0.00671413032      -0.0053792697        0.635266562       -0.132751486
          1.62e+10       0.585701476       -0.282908072       0.0068634148     -0.00199685236       0.0068634148     -0.00199685236        0.585701476       -0.282908072
          1.65e+10       0.501864339       -0.416284115      0.00780572792     0.000475172292      0.00780572792     0.000475172292        0.501864338       -0.416284115
          1.68e+10       0.389072546       -0.525169494      0.00942735978      0.00234336216      0.00942735978      0.00234336216        0.389072545       -0.525169494
          1.71e+10       0.254354204       -0.603572324       0.0111807461      0.00293793789       0.0111807461      0.00293793789        0.254354202       -0.603572324
          1.74e+10       0.105845287       -0.647488836       0.0124470539      0.00259335533       0.0124470539      0.00259335533        0.105845285       -0.647488836
          1.77e+10     -0.0477744299       -0.655053265       0.0128665042      0.00182592144       0.0128665042      0.00182592144      -0.0477744328       -0.655053264
           1.8e+10       -0.19782315       -0.626523502       0.0123919832      0.00120762119       0.0123919832      0.00120762119       -0.197823154         -0.6265235
          1.83e+10      -0.336101773       -0.564139639       0.0112670462      0.00123655721       0.0112670462      0.00123655721       -0.336101777       -0.564139636
          1.86e+10      -0.455305993       -0.471885429      0.00994990243      0.00221927927      0.00994990243      0.00221927927       -0.455305997       -0.471885425
          1.89e+10      -0.549342357       -0.355188857      0.00899703509      0.00419867198      0.00899703509      0.00419867198        -0.54934236       -0.355188851
          1.92e+10       -0.61356015       -0.220588457       0.0089309387      0.00694098974       0.0089309387      0.00694098974       -0.613560151       -0.220588451
          1.95e+10      -0.644903989      -0.0753841998       0.0101186127      0.00998156568       0.0101186127      0.00998156568        -0.64490399       -0.075384193
          1.98e+10      -0.641996096       0.0727096305       0.0126836379       0.0127178562       0.0126836379       0.0127178562       -0.641996096       0.0727096368
          2.01e+10      -0.605161419        0.215909079       0.0164665988       0.0145288554       0.0164665988       0.0145288554       -0.605161418        0.215909085
          2.04e+10       -0.53639873        0.346695645       0.0210400872         0.01490116       0.0210400872         0.01490116       -0.536398728        0.346695651
          2.07e+10        -0.4393024        0.458143215       0.0257759361       0.0135378421       0.0257759361       0.0135378421       -0.439302397         0.45814322
           2.1e+10      -0.318925613        0.544241432       0.0299537157       0.0104299491       0.0299537157       0.0104299491       -0.318925611        0.544241437
          2.13e+10      -0.181589494        0.600194687       0.0328920914      0.00587633873       0.0328920914      0.00587633873       -0.181589491        0.600194691
          2.16e+10     -0.0346253389        0.622701634       0.0340811155     0.000444961747       0.0340811155     0.000444961747      -0.0346253361        0.622701636
          2.19e+10        0.11395242        0.610193876       0.0332850221     -0.00512176576       0.0332850221     -0.00512176576        0.113952423        0.610193877
          2.22e+10       0.255845331        0.563011845       0.0305987517      -0.0100409448       0.0305987517      -0.0100409448        0.255845334        0.563011847
          2.25e+10       0.382939167        0.483485328       0.0264373772      -0.0136387948       0.0264373772      -0.0136387948         0.38293917         0.48348533
          2.28e+10       0.487801797        0.375893164       0.0214578307      -0.0154823926       0.0214578307      -0.0154823926        0.487801799        0.375893165
          2.31e+10       0.564180836        0.246302425       0.0164269801      -0.0154622853       0.0164269801      -0.0154622853        0.564180836        0.246302427
          2.34e+10       0.607527129        0.102267998       0.0120647811      -0.0138064841       0.0120647811      -0.0138064841         0.60752713        0.102267999
          2.37e+10       0.615360647      -0.0476109505      0.00890104825       -0.011014317      0.00890104825       -0.011014317        0.615360648      -0.0476109498
           2.4e+10       0.587415924       -0.194844696      0.00717830958     -0.00773111387      0.00717830958     -0.00773111387        0.587415925       -0.194844696
          2.43e+10       0.525497397       -0.330805904      0.00674510598     -0.00463644717      0.00674510598     -0.00463644717        0.525497398       -0.330805905
          2.46e+10       0.433491509       -0.447649193      0.00711606765     -0.00224319866      0.00711606765     -0.00224319866        0.433491508       -0.447649193
          2.49e+10       0.317103978       -0.538936928      0.00798595846    -0.000515816387      0.00798595846    -0.000515816387        0.317103977       -0.538936929
          2.52e+10       0.183323917       -0.599914144      0.00884392641     0.000406388373      0.00884392641     0.000406388373        0.183323915       -0.599914145
          2.55e+10      0.0399195041       -0.627711056      0.00929817174     0.000771185946      0.00929817174     0.000771185946       0.0399195008       -0.627711056
          2.58e+10      -0.105060309       -0.621401759      0.00916293787      0.00101633454      0.00916293787      0.00101633454       -0.105060314       -0.621401758
          2.61e+10       -0.24374815       -0.581936209      0.00850450304      0.00158609084      0.00850450304      0.00158609084       -0.243748156       -0.581936208
          2.64e+10      -0.368856921       -0.511976028      0.00761106916      0.00281961265      0.00761106916      0.00281961265       -0.368856926       -0.511976024
          2.67e+10      -0.474005414       -0.415664392      0.00691470488      0.00486522203      0.00691470488      0.00486522203        -0.47400542       -0.415664387
           2.7e+10      -0.553967089       -0.298360681      0.00688643828      0.00763575955      0.00688643828      0.00763575955       -0.553967094       -0.298360673
          2.73e+10      -0.604851569       -0.166370008      0.00792337426       0.0108162673      0.00792337426       0.0108162673       -0.604851573       -0.166369999
          2.76e+10      -0.624260268      -0.0265387971        0.010253845       0.0139190521        0.010253845       0.0139190521        -0.62426027      -0.0265387876
          2.79e+10      -0.611293341        0.113876548       0.0138711305       0.0163699984       0.0138711305       0.0163699984       -0.611293341        0.113876557
          2.82e+10      -0.566632678        0.247628366       0.0185128055       0.0176191057       0.0185128055       0.0176191057       -0.566632677        0.247628376
          2.85e+10      -0.492506399         0.36775877       0.0236893429       0.0172525239       0.0236893429       0.0172525239       -0.492506397        0.367758779
          2.88e+10      -0.392623313        0.467905261       0.0287533152       0.0150790055       0.0287533152       0.0150790055        -0.39262331        0.467905269
          2.91e+10      -0.272054903        0.542605434       0.0330029095        0.011185559       0.0330029095        0.011185559       -0.272054899        0.542605441
          2.94e+10      -0.137045306        0.587598334       0.0358104182      0.00594640228       0.0358104182      0.00594640228       -0.137045302        0.587598339
          2.97e+10     0.00524025793         0.60009547       0.0367364435    -2.83901782e-05       0.0367364435    -2.83901782e-05      0.00524026201        0.600095474
             3e+10       0.147046187        0.579012939       0.0356199346      -0.0059895403       0.0356199346      -0.0059895403        0.147046191        0.579012943
