! Created Tue Apr 13 08:52:46 2021
# hz S ri R 50
! 2 Port Network Data from SP1.SP block
! freq  reS11  imS11  reS21  imS21  reS12  imS12  reS22  imS22  
!     
                 0       0.303381804    -4.17956172e-06     3.84194322e-17    -9.25933521e-23     3.84194322e-17    -9.25933521e-23        0.303381804    -4.17956172e-06
         300000000       0.297786394       -0.073876005     0.000646440833      0.00399747442     0.000646440833      0.00399747442        0.297786394       -0.073876005
         600000000       0.270965991       -0.145885858      0.00226059371      0.00762718081      0.00226059371      0.00762718081        0.270965991       -0.145885858
         900000000       0.226924949       -0.208278473      0.00481057065       0.0105494191      0.00481057065       0.0105494191        0.226924949       -0.208278473
           1.2e+09       0.169172588       -0.257475869      0.00794028108       0.0125819072      0.00794028108       0.0125819072        0.169172588       -0.257475869
           1.5e+09        0.10158148        -0.29072234       0.0113273532       0.0136528088       0.0113273532       0.0136528088         0.10158148       -0.290722339
           1.8e+09      0.0284736591       -0.306289315       0.0146723981       0.0138080197       0.0146723981       0.0138080197       0.0284736589       -0.306289315
           2.1e+09     -0.0456654802       -0.303585606       0.0177418156        0.013182307       0.0177418156        0.013182307      -0.0456654805       -0.303585606
           2.4e+09      -0.116267667       -0.283084014       0.0203833919       0.0119609744       0.0203833919       0.0119609744       -0.116267668       -0.283084013
           2.7e+09      -0.179232502       -0.246373265       0.0225382414       0.0103334384       0.0225382414       0.0103334384       -0.179232503       -0.246373264
             3e+09      -0.230943279       -0.195942244       0.0242155743      0.00846003383       0.0242155743      0.00846003383        -0.23094328       -0.195942243
           3.3e+09      -0.268658117        -0.13498991       0.0254667004      0.00644575014       0.0254667004      0.00644575014       -0.268658117       -0.134989909
           3.6e+09      -0.290376098      -0.0672503133       0.0263472661      0.00434448092       0.0263472661      0.00434448092       -0.290376098      -0.0672503127
           3.9e+09      -0.295078454      0.00323639104       0.0268920722      0.00216743206       0.0268920722      0.00216743206       -0.295078454       0.0032363922
           4.2e+09      -0.282724971       0.0723526671       0.0270975581     -9.2115212e-05       0.0270975581     -9.2115212e-05       -0.282724971       0.0723526684
           4.5e+09      -0.254226199         0.13611991       0.0269197946     -0.00243030889       0.0269197946     -0.00243030889       -0.254226199        0.136119911
           4.8e+09      -0.211379316        0.190903185       0.0262872839     -0.00480768851       0.0262872839     -0.00480768851       -0.211379316        0.190903186
           5.1e+09      -0.156764899        0.233595213       0.0251251126     -0.00713375509       0.0251251126     -0.00713375509       -0.156764898        0.233595214
           5.4e+09      -0.093609644         0.26177678        0.023384624     -0.00926548506        0.023384624     -0.00926548506      -0.0936096431        0.261776781
           5.7e+09     -0.0256180258        0.273846133       0.0210715719      -0.0110208613       0.0210715719      -0.0110208613      -0.0256180251        0.273846134
             6e+09      0.0432221664        0.269112539       0.0182658466       -0.012205442       0.0182658466       -0.012205442       0.0432221673        0.269112539
           6.3e+09       0.108855622        0.247847653       0.0151272736      -0.0126469456       0.0151272736      -0.0126469456        0.108855623        0.247847654
           6.6e+09       0.167387583        0.211286814       0.0118849415       -0.012230609       0.0118849415       -0.012230609        0.167387583        0.211286815
           6.9e+09       0.215313099        0.161574697      0.00881111177      -0.0109274354      0.00881111177      -0.0109274354          0.2153131        0.161574698
           7.2e+09        0.24973244        0.101647885      0.00618523483     -0.00880805941      0.00618523483     -0.00880805941        0.249732441        0.101647885
           7.5e+09       0.268537247        0.035050945      0.00426152647     -0.00603604784      0.00426152647     -0.00603604784        0.268537248       0.0350509453
           7.8e+09       0.270561648       -0.034083132      0.00329223119     -0.00281316769      0.00329223119     -0.00281316769        0.270561648      -0.0340831318
           8.1e+09       0.255747109       -0.101423781      0.00338441317     0.000533370415      0.00338441317     0.000533370415        0.255747109       -0.101423781
           8.4e+09       0.225243085       -0.163273666      0.00384196534      0.00335018292      0.00384196534      0.00335018292        0.225243085       -0.163273666
           8.7e+09        0.18062415       -0.215802525      0.00495901022      0.00620119771      0.00495901022      0.00620119771        0.180624149       -0.215802525
             9e+09       0.124668972       -0.255890173      0.00682349394      0.00841487701      0.00682349394      0.00841487701        0.124668971       -0.255890172
           9.3e+09       0.060809712       -0.281217144      0.00906227434      0.00999265228      0.00906227434      0.00999265228        0.060809711       -0.281217144
           9.6e+09    -0.00710510216       -0.290386205       0.0114505944       0.0109508916       0.0114505944       0.0109508916     -0.00710510353       -0.290386204
           9.9e+09     -0.0750463909       -0.282985082       0.0138271864       0.0113563945       0.0138271864       0.0113563945      -0.0750463924       -0.282985081
          1.02e+10      -0.139047844       -0.259583217       0.0160918704       0.0113031013       0.0160918704       0.0113031013       -0.139047846       -0.259583216
          1.05e+10      -0.195434726       -0.221669794       0.0182004048       0.0108829232       0.0182004048       0.0108829232       -0.195434727       -0.221669791
          1.08e+10      -0.241025848       -0.171541502        0.020148278       0.0101623732        0.020148278       0.0101623732       -0.241025849       -0.171541499
          1.11e+10      -0.273296257       -0.112151526       0.0219467667      0.00917074386       0.0219467667      0.00917074386       -0.273296257       -0.112151523
          1.14e+10      -0.290496761      -0.0469325995       0.0235976265      0.00790194571       0.0235976265      0.00790194571       -0.290496761      -0.0469325963
          1.17e+10      -0.291730231       0.0203965568       0.0250729632      0.00632862157       0.0250729632      0.00632862157       -0.291730231       0.0203965602
           1.2e+10      -0.276983435       0.0860309006       0.0263051686      0.00442454221       0.0263051686      0.00442454221       -0.276983435        0.086030904
          1.23e+10      -0.247116997        0.146276243       0.0271895526      0.00218960247       0.0271895526      0.00218960247       -0.247116996        0.146276247
          1.26e+10      -0.203816291        0.197738966       0.0275994858    -0.000328877688       0.0275994858    -0.000328877688        -0.20381629         0.19773897
          1.29e+10      -0.149504886        0.237501338       0.0274111319     -0.00302396321       0.0274111319     -0.00302396321       -0.149504884        0.237501341
          1.32e+10     -0.0872238915        0.263276166       0.0265326042     -0.00572961148       0.0265326042     -0.00572961148      -0.0872238901        0.263276169
          1.35e+10     -0.0204792186        0.273535861        0.024931613     -0.00823515224        0.024931613     -0.00823515224      -0.0204792168        0.273535863
          1.38e+10      0.0469393573        0.267608474       0.0226548231      -0.0103117893       0.0226548231      -0.0103117893       0.0469393591        0.267608475
          1.41e+10       0.111161145        0.245732968        0.019834329      -0.0117466528        0.019834329      -0.0117466528        0.111161147        0.245732969
          1.44e+10       0.168452089        0.209066854       0.0166786576      -0.0123780194       0.0166786576      -0.0123780194        0.168452091        0.209066855
          1.47e+10       0.215435067        0.159638933       0.0134487047      -0.0121241928       0.0134487047      -0.0121241928        0.215435069        0.159638934
           1.5e+10       0.249297078        0.100243036       0.0104232582      -0.0109995066       0.0104232582      -0.0109995066         0.24929708        0.100243037
          1.53e+10        0.26797432       0.0342876261      0.00786207838     -0.00911292418      0.00786207838     -0.00911292418        0.267974321       0.0342876266
          1.56e+10       0.270316175      -0.0342295473      0.00597972393     -0.00664635841      0.00597972393     -0.00664635841        0.270316176       -0.034229547
          1.59e+10       0.256207159       -0.101233287      0.00494686399     -0.00380731749      0.00494686399     -0.00380731749        0.256207159       -0.101233287
          1.62e+10       0.226615361       -0.163126958      0.00468329456    -0.000993893009      0.00468329456    -0.000993893009        0.226615361       -0.163126958
          1.65e+10       0.183072155        -0.21615106      0.00486749474       0.0014841457      0.00486749474       0.0014841457        0.183072154        -0.21615106
          1.68e+10       0.128127073       -0.257220963      0.00553899739      0.00403928861      0.00553899739      0.00403928861        0.128127072       -0.257220963
          1.71e+10      0.0650269041        -0.28400466      0.00674830202      0.00614299788      0.00674830202      0.00614299788       0.0650269025       -0.284004659
          1.74e+10    -0.00255261083       -0.295028399      0.00829202173      0.00780918023      0.00829202173      0.00780918023      -0.0025526127       -0.295028398
          1.77e+10     -0.0707298037       -0.289744803       0.0100228894      0.00907776805       0.0100228894      0.00907776805      -0.0707298058       -0.289744801
           1.8e+10      -0.135641255       -0.268539929       0.0118593571      0.00999885525       0.0118593571      0.00999885525       -0.135641258       -0.268539927
          1.83e+10      -0.193655546       -0.232687863       0.0137691496       0.0106157522       0.0137691496       0.0106157522       -0.193655549       -0.232687861
          1.86e+10      -0.241567248       -0.184257078        0.015751267       0.0109467094        0.015751267       0.0109467094        -0.24156725       -0.184257074
          1.89e+10      -0.276756524       -0.125981197       0.0178129813       0.0109744808       0.0178129813       0.0109744808       -0.276756526       -0.125981193
          1.92e+10      -0.297313876      -0.0611025616       0.0199453378       0.0106479987       0.0199453378       0.0106479987       -0.297313877      -0.0611025573
          1.95e+10      -0.302125978      0.00680295297       0.0221030127      0.00989623935       0.0221030127      0.00989623935       -0.302125979      0.00680295797
          1.98e+10      -0.290921709       0.0740093785       0.0241936461      0.00865108562       0.0241936461      0.00865108562       -0.290921709       0.0740093834
          2.01e+10      -0.264282041         0.13682799       0.0260784135      0.00687274134       0.0260784135      0.00687274134       -0.264282041        0.136827996
          2.04e+10      -0.223611841        0.191791474       0.0275858739      0.00457390526       0.0275858739      0.00457390526        -0.22361184        0.191791479
          2.07e+10       -0.17107629        0.235829898       0.0285364304      0.00183596106       0.0285364304      0.00183596106       -0.171076289        0.235829903
           2.1e+10      -0.109499477         0.26643518       0.0287729307     -0.00118708517       0.0287729307     -0.00118708517       -0.109499475        0.266435185
          2.13e+10     -0.0422305236        0.281800527       0.0281920389     -0.00427858271       0.0281920389     -0.00427858271      -0.0422305217        0.281800531
          2.16e+10      0.0270232656        0.280933089       0.0267707931     -0.00718316882       0.0267707931     -0.00718316882       0.0270232679        0.280933093
          2.19e+10      0.0943879792        0.263730242       0.0245783921      -0.0096402282       0.0245783921      -0.0096402282       0.0943879817        0.263730245
          2.22e+10        0.15603647        0.231010324       0.0217759244      -0.0114219588       0.0217759244      -0.0114219588        0.156036473        0.231010327
          2.25e+10       0.208412224        0.184489179        0.018597998      -0.0123682437        0.018597998      -0.0123682437        0.208412227        0.184489181
          2.28e+10       0.248443406         0.12670102       0.0153210818      -0.0124108793       0.0153210818      -0.0124108793        0.248443408        0.126701022
          2.31e+10        0.27373589       0.0608750665       0.0122243689      -0.0115818348       0.0122243689      -0.0115818348        0.273735892       0.0608750679
          2.34e+10       0.282761319     -0.00921499666      0.00955153856      -0.0100049652      0.00955153856      -0.0100049652        0.282761321     -0.00921499588
          2.37e+10       0.274961247      -0.0794438427      0.00748190666     -0.00786878117      0.00748190666     -0.00786878117        0.274961248      -0.0794438422
           2.4e+10         0.2508247       -0.146007472      0.00611606233     -0.00539092241      0.00611606233     -0.00539092241        0.250824701       -0.146007472
          2.43e+10       0.211667942       -0.205072841      0.00541967911     -0.00283173751      0.00541967911     -0.00283173751        0.211667943       -0.205072841
          2.46e+10       0.159671445       -0.253243538      0.00523342487    -0.000443372755      0.00523342487    -0.000443372755        0.159671444       -0.253243538
          2.49e+10      0.0978150246       -0.287828496      0.00551851944      0.00191083451      0.00551851944      0.00191083451       0.0978150233       -0.287828496
          2.52e+10      0.0296105957       -0.306938219       0.0061995492      0.00403407624       0.0061995492      0.00403407624       0.0296105936       -0.306938219
          2.55e+10     -0.0411190022       -0.309573559      0.00719236776      0.00589133879      0.00719236776      0.00589133879       -0.041119005       -0.309573558
          2.58e+10      -0.110459982       -0.295659877      0.00842381115      0.00751502525      0.00842381115      0.00751502525       -0.110459985       -0.295659876
          2.61e+10       -0.17462263       -0.266025955       0.0098687531      0.00893266761       0.0098687531      0.00893266761       -0.174622634       -0.266025953
          2.64e+10      -0.230138284       -0.222336231       0.0115381718       0.0101478054       0.0115381718       0.0101478054       -0.230138288       -0.222336227
          2.67e+10      -0.274030337       -0.166984262       0.0134573077       0.0111268533       0.0134573077       0.0111268533       -0.274030341       -0.166984257
           2.7e+10      -0.303953505       -0.102959929       0.0156397803       0.0117946346       0.0156397803       0.0117946346       -0.303953508       -0.102959923
          2.73e+10      -0.318299252      -0.0337013736       0.0180631361       0.0120452434       0.0180631361       0.0120452434       -0.318299255      -0.0337013668
          2.76e+10      -0.316276494       0.0371282235       0.0206535167       0.0117613749       0.0206535167       0.0117613749       -0.316276496       0.0371282308
          2.79e+10      -0.297924391        0.105733432       0.0232758995       0.0108417959       0.0232758995       0.0108417959       -0.297924393        0.105733439
          2.82e+10      -0.264134936        0.168427254       0.0257426056      0.00922971885       0.0257426056      0.00922971885       -0.264134936        0.168427263
          2.85e+10      -0.216609939        0.221798738       0.0278353652      0.00693848411       0.0278353652      0.00693848411       -0.216609939        0.221798746
          2.88e+10      -0.157793721        0.262885084       0.0293317106      0.00406340187       0.0293317106      0.00406340187        -0.15779372        0.262885091
          2.91e+10     -0.0907685193        0.289332029       0.0300389076     0.000783541986       0.0300389076     0.000783541986       -0.090768517        0.289332036
          2.94e+10     -0.0191065959         0.29953457       0.0298334551     -0.00265231677       0.0298334551     -0.00265231677       -0.019106593        0.299534576
          2.97e+10      0.0533010004        0.292745392       0.0286827571     -0.00595565172       0.0286827571     -0.00595565172       0.0533010037        0.292745398
             3e+10       0.122447488        0.269146245        0.026657897     -0.00883613633        0.026657897     -0.00883613633        0.122447491         0.26914625
