! Created Tue Apr 13 08:53:21 2021
# hz S ri R 50
! 2 Port Network Data from SP1.SP block
! freq  reS11  imS11  reS21  imS21  reS12  imS12  reS22  imS22  
!     
                 0       0.551256862    -6.06145645e-06     4.60904104e-17    -2.40882684e-22     4.60904104e-17    -2.40882684e-22        0.551256862    -6.06145645e-06
         300000000       0.535058212       -0.135471627     0.000986797181      0.00478564713     0.000986797181      0.00478564713        0.535058212       -0.135471627
         600000000       0.484862813       -0.262695034      0.00342023312      0.00884820632      0.00342023312      0.00884820632        0.484862813       -0.262695033
         900000000       0.405080875       -0.372741415      0.00704699245       0.0116088314      0.00704699245       0.0116088314        0.405080875       -0.372741415
           1.2e+09       0.301348221       -0.459106309       0.0111486985       0.0128188675       0.0111486985       0.0128188675        0.301348221       -0.459106309
           1.5e+09       0.180575139       -0.516902623       0.0150586998       0.0125235777       0.0150586998       0.0125235777        0.180575139       -0.516902623
           1.8e+09      0.0505137555       -0.543211668       0.0182344128       0.0110442901       0.0182344128       0.0110442901       0.0505137552       -0.543211668
           2.1e+09     -0.0808508078       -0.537179785       0.0203621078      0.00887680744       0.0203621078      0.00887680744      -0.0808508083       -0.537179785
           2.4e+09      -0.205536679       -0.499914093        0.021390944      0.00656719562        0.021390944      0.00656719562       -0.205536679       -0.499914092
           2.7e+09      -0.316454746       -0.434383054       0.0215189388      0.00457620364       0.0215189388      0.00457620364       -0.316454746       -0.434383054
             3e+09      -0.407473864       -0.345086193       0.0211076034      0.00319066248       0.0211076034      0.00319066248       -0.407473864       -0.345086192
           3.3e+09      -0.473962406       -0.237618272       0.0205760765      0.00247317961       0.0205760765      0.00247317961       -0.473962407        -0.23761827
           3.6e+09      -0.512633485       -0.118449584       0.0202923435      0.00228114093       0.0202923435      0.00228114093       -0.512633485       -0.118449584
           3.9e+09      -0.521846095      0.00552011427       0.0204861242      0.00231779391       0.0204861242      0.00231779391       -0.521846095      0.00552011556
           4.2e+09       -0.50157334        0.127315839       0.0211988757      0.00222022965       0.0211988757      0.00222022965        -0.50157334        0.127315841
           4.5e+09      -0.453338589        0.240219083       0.0222792465      0.00165634172       0.0222792465      0.00165634172       -0.453338589        0.240219084
           4.8e+09      -0.380103636        0.338076654       0.0234217918     0.000411209476       0.0234217918     0.000411209476       -0.380103636        0.338076655
           5.1e+09      -0.286109409        0.415576852       0.0242394419     -0.00155375352       0.0242394419     -0.00155375352       -0.286109408        0.415576853
           5.4e+09        -0.1766735        0.468495355       0.0243545401     -0.00408031442       0.0243545401     -0.00408031442       -0.176673499        0.468495356
           5.7e+09      -0.057946033        0.493904572       0.0234901919     -0.00683572158       0.0234901919     -0.00683572158      -0.0579460324        0.493904572
             6e+09      0.0633760955         0.49034206       0.0215433143      -0.0093742988       0.0215433143      -0.0093742988       0.0633760965         0.49034206
           6.3e+09        0.18037799         0.45792723       0.0186233506      -0.0112271314       0.0186233506      -0.0112271314        0.180377991        0.457927231
           6.6e+09       0.286291411        0.398409572       0.0150466682       -0.012002073       0.0150466682       -0.012002073        0.286291412        0.398409573
           6.9e+09       0.374883948        0.315130946       0.0112853661      -0.0114726912       0.0112853661      -0.0114726912        0.374883948        0.315130947
           7.2e+09       0.440850015        0.212880069      0.00788039396     -0.00963483253      0.00788039396     -0.00963483253        0.440850016        0.212880069
           7.5e+09       0.480170702       0.0976265737      0.00534457372     -0.00671353797      0.00534457372     -0.00671353797        0.480170702       0.0976265743
           7.8e+09       0.490425944      -0.0236003809      0.00413231292     -0.00308733089      0.00413231292     -0.00308733089        0.490425945      -0.0236003806
           8.1e+09       0.471109693        -0.14332746      0.00442065672     0.000648013055      0.00442065672     0.000648013055        0.471109693        -0.14332746
           8.4e+09       0.423722642        -0.25480812      0.00529786839      0.00360569692      0.00529786839      0.00360569692        0.423722642        -0.25480812
           8.7e+09       0.350917968       -0.351225575      0.00703815719      0.00628581069      0.00703815719      0.00628581069        0.350917967       -0.351225575
             9e+09       0.257313908       -0.426926592      0.00946337308       0.0078418696      0.00946337308       0.0078418696        0.257313907       -0.426926592
           9.3e+09       0.148727751       -0.477642529       0.0119358977      0.00838086422       0.0119358977      0.00838086422         0.14872775       -0.477642528
           9.6e+09      0.0317516408       -0.500712817       0.0140484027      0.00811901248       0.0140484027      0.00811901248       0.0317516392       -0.500712816
           9.9e+09     -0.0866823075       -0.495192286       0.0155734271      0.00738851748       0.0155734271      0.00738851748      -0.0866823094       -0.495192285
          1.02e+10      -0.199735807       -0.461833376       0.0164777763      0.00655438314       0.0164777763      0.00655438314       -0.199735809       -0.461833374
          1.05e+10      -0.301059188       -0.402963441       0.0169041679      0.00592351471       0.0169041679      0.00592351471       -0.301059189       -0.402963438
          1.08e+10      -0.385127614       -0.322278991       0.0171157153      0.00567359509       0.0171157153      0.00567359509       -0.385127616       -0.322278988
          1.11e+10      -0.447501592       -0.224582319       0.0174167842      0.00581718862       0.0174167842      0.00581718862       -0.447501592       -0.224582316
          1.14e+10      -0.485010799       -0.115485416        0.018069154      0.00620651063        0.018069154      0.00620651063       -0.485010799       -0.115485413
          1.17e+10      -0.495866724     -0.00109712101       0.0192218031      0.00657505656       0.0192218031      0.00657505656       -0.495866724     -0.00109711699
           1.2e+10      -0.479707298        0.112290499       0.0208682235      0.00660535975       0.0208682235      0.00660535975       -0.479707297        0.112290502
          1.23e+10      -0.437581908        0.218505706        0.022838966      0.00600790391        0.022838966      0.00600790391       -0.437581907         0.21850571
          1.26e+10      -0.371883489        0.311787323        0.024830155      0.00459488243        0.024830155      0.00459488243       -0.371883487        0.311787327
          1.29e+10      -0.286230793        0.387055428       0.0264621051      0.00233406827       0.0264621051      0.00233406827       -0.286230791        0.387055431
          1.32e+10      -0.185304492        0.440157511       0.0273566493    -0.000628186029       0.0273566493    -0.000628186029        -0.18530449        0.440157513
          1.35e+10     -0.0746362698        0.468086795       0.0272185248     -0.00398050459       0.0272185248     -0.00398050459      -0.0746362676        0.468086797
          1.38e+10      0.0396493457        0.469163018       0.0259040942     -0.00729541749       0.0259040942     -0.00729541749       0.0396493477        0.469163019
          1.41e+10        0.15113726        0.443162886       0.0234628359      -0.0101055521       0.0234628359      -0.0101055521        0.151137262        0.443162888
          1.44e+10       0.253463731        0.391385509        0.020141191      -0.0119928479        0.020141191      -0.0119928479        0.253463733         0.39138551
          1.47e+10       0.340684432        0.316633927       0.0163453158      -0.0126721609       0.0163453158      -0.0126721609        0.340684432        0.316633928
           1.5e+10       0.407643968        0.223097293       0.0125692436      -0.0120502208       0.0125692436      -0.0120502208        0.407643969        0.223097294
          1.53e+10       0.450325746        0.116142502      0.00930459259      -0.0102448179      0.00930459259      -0.0102448179        0.450325748        0.116142502
          1.56e+10       0.466179921      0.00220397841      0.00695877873      -0.0075559764      0.00695877873      -0.0075559764        0.466179922      0.00220397875
          1.59e+10       0.454369798       -0.111945394        0.005813342     -0.00438659405        0.005813342     -0.00438659405        0.454369799       -0.111945394
          1.62e+10       0.415817071       -0.219991632      0.00574219489     -0.00136121716      0.00574219489     -0.00136121716        0.415817071       -0.219991632
          1.65e+10       0.352694231       -0.315443435      0.00625953083      0.00108318039      0.00625953083      0.00108318039         0.35269423       -0.315443435
          1.68e+10       0.268867759        -0.39280208      0.00734029228      0.00331393071      0.00734029228      0.00331393071        0.268867758        -0.39280208
          1.71e+10       0.169433034       -0.447776151      0.00878163062      0.00474200776      0.00878163062      0.00474200776        0.169433032       -0.447776151
          1.74e+10      0.0602911031       -0.477480629        0.010201837      0.00551612359        0.010201837      0.00551612359        0.060291101       -0.477480628
          1.77e+10     -0.0522381992        -0.48055958       0.0113597044      0.00587920547       0.0113597044      0.00587920547      -0.0522382016       -0.480559578
           1.8e+10      -0.161798966       -0.457198137       0.0121846513      0.00610675343       0.0121846513      0.00610675343       -0.161798969       -0.457198135
          1.83e+10      -0.262354323       -0.409043618       0.0127601448      0.00644170256       0.0127601448      0.00644170256       -0.262354327       -0.409043616
          1.86e+10        -0.3485003       -0.339050487       0.0132825817      0.00703220537       0.0132825817      0.00703220537       -0.348500303       -0.339050483
          1.89e+10      -0.415717059       -0.251272188       0.0139988946      0.00789261256       0.0139988946      0.00789261256       -0.415717061       -0.251272184
          1.92e+10      -0.460561252        -0.15061732       0.0151350862      0.00889675271       0.0151350862      0.00889675271       -0.460561253       -0.150617315
          1.95e+10      -0.480798186      -0.0425843068       0.0168307663      0.00980417379       0.0168307663      0.00980417379       -0.480798187      -0.0425843011
          1.98e+10      -0.475476638       0.0670104124       0.0190931258       0.0103131126       0.0190931258       0.0103131126       -0.475476638       0.0670104178
          2.01e+10      -0.444954317        0.172307272       0.0217784966       0.0101273954       0.0217784966       0.0101273954       -0.444954316        0.172307278
          2.04e+10      -0.390874094        0.267673489         0.02460585      0.00902626174         0.02460585      0.00902626174       -0.390874093        0.267673494
          2.07e+10      -0.316094715        0.347965215       0.0271999582      0.00692230776       0.0271999582      0.00692230776       -0.316094713         0.34796522
           2.1e+10      -0.224570159        0.408781922        0.029156742      0.00389580597        0.029156742      0.00389580597       -0.224570157        0.408781927
          2.13e+10      -0.121182777        0.446694458       0.0301192989     0.000197895701       0.0301192989     0.000197895701       -0.121182775        0.446694462
          2.16e+10     -0.0115243387        0.459447728       0.0298513351       -0.003780329       0.0298513351       -0.003780329      -0.0115243364        0.459447731
          2.19e+10      0.0983712193        0.446121888       0.0282888174     -0.00756879231       0.0282888174     -0.00756879231       0.0983712218        0.446121891
          2.22e+10       0.202341676        0.407235995       0.0255639066      -0.0106989769       0.0255639066      -0.0106989769        0.202341679        0.407235998
          2.25e+10       0.294448697        0.344774332       0.0219891292      -0.0127888081       0.0219891292      -0.0127888081          0.2944487        0.344774334
          2.28e+10       0.369337039        0.262123062       0.0180047974      -0.0136130483       0.0180047974      -0.0136130483        0.369337041        0.262123063
          2.31e+10       0.422579967        0.163925077       0.0140995343      -0.0131429536       0.0140995343      -0.0131429536        0.422579968        0.163925078
          2.34e+10       0.451033205       0.0558526289       0.0107211683      -0.0115469235       0.0107211683      -0.0115469235        0.451033207       0.0558526298
          2.37e+10       0.453066262       -0.055707417      0.00819937609     -0.00914646215      0.00819937609     -0.00914646215        0.453066263      -0.0557074163
           2.4e+10       0.428682072       -0.164551742      0.00669626154     -0.00634273768      0.00669626154     -0.00634273768        0.428682073       -0.164551741
          2.43e+10       0.379338137       -0.264374151      0.00612751917     -0.00357687824      0.00612751917     -0.00357687824        0.379338137       -0.264374151
          2.46e+10       0.307977132       -0.349448531      0.00619316657     -0.00121454135      0.00619316657     -0.00121454135        0.307977131       -0.349448531
          2.49e+10       0.218876084       -0.415074447      0.00673865693     0.000835732725      0.00673865693     0.000835732725        0.218876083       -0.415074447
          2.52e+10       0.117257009       -0.457772841      0.00749742921      0.00240057861      0.00749742921      0.00240057861        0.117257007       -0.457772842
          2.55e+10      0.0089313672       -0.475444342      0.00824773979      0.00356786544      0.00824773979      0.00356786544      0.00893136428       -0.475444341
          2.58e+10      -0.100057183       -0.467430656      0.00886311688      0.00454910342      0.00886311688      0.00454910342       -0.100057187       -0.467430655
          2.61e+10        -0.2037754       -0.434484579       0.0093553238      0.00555888289       0.0093553238      0.00555888289       -0.203775404       -0.434484577
          2.64e+10      -0.296707051       -0.378665926      0.00985632254      0.00675437411      0.00985632254      0.00675437411       -0.296707056       -0.378665923
          2.67e+10      -0.374013087       -0.303181081        0.010572806      0.00818853942        0.010572806      0.00818853942       -0.374013092       -0.303181076
           2.7e+10      -0.431738663       -0.212187329       0.0117255373      0.00978589624       0.0117255373      0.00978589624       -0.431738667       -0.212187322
          2.73e+10       -0.46696892       -0.110583079       0.0134846849       0.0113502956       0.0134846849       0.0113502956       -0.466968923       -0.110583071
          2.76e+10       -0.47796043     -0.00368883258       0.0159175418       0.0125992373       0.0159175418       0.0125992373       -0.477960432     -0.00368882435
          2.79e+10       -0.46415637        0.102870065        0.018951932       0.0132176649        0.018951932       0.0132176649       -0.464156371        0.102870073
          2.82e+10      -0.426248391        0.203502181       0.0223703872       0.0129238644       0.0223703872       0.0129238644       -0.426248391         0.20350219
          2.85e+10      -0.366140555        0.292883258       0.0258345715       0.0115350847       0.0258345715       0.0115350847       -0.366140554        0.292883266
          2.88e+10      -0.286884256        0.366204512       0.0289310816      0.00901392957       0.0289310816      0.00901392957       -0.286884254         0.36620452
          2.91e+10       -0.19256565         0.41941407        0.031237306      0.00549506265        0.031237306      0.00549506265       -0.192565646        0.419414077
          2.94e+10     -0.0881333447        0.449445652       0.0324016553      0.00128157762       0.0324016553      0.00128157762      -0.0881333412        0.449445658
          2.97e+10      0.0208180814        0.454414361       0.0322073299     -0.00319497254       0.0322073299     -0.00319497254       0.0208180849        0.454414366
             3e+10       0.128320975        0.433772193       0.0306198541     -0.00743938779       0.0306198541     -0.00743938779        0.128320978        0.433772197
