! Created Tue Apr 13 09:52:22 2021
# hz S ri R 50
! 4 Port Network Data from SP1.SP block
! freq  reS11  imS11  reS12  imS12  reS13  imS13  reS14  imS14  
!       reS21  imS21  reS22  imS22  reS23  imS23  reS24  imS24  
!       reS31  imS31  reS32  imS32  reS33  imS33  reS34  imS34  
!       reS41  imS41  reS42  imS42  reS43  imS43  reS44  imS44  
!     
                 0     0.00713268898                  0        0.992867311                  0      3.4969697e-17                  0     5.63713402e-19                  0
                      0.992867311                  0      0.00713268898                  0     5.63765623e-19                  0     3.49697241e-17                  0
                    3.4969697e-17                  0     5.63765623e-19                  0      0.00713268898                  0        0.992867311                  0
                   5.63713402e-19                  0     3.49697241e-17                  0        0.992867311                  0      0.00713268898                  0

         300000000      0.0161421576      0.00142276399        0.976059844       -0.121421326     0.000463505709      0.00360453325     7.35838926e-05     0.000179146366
                      0.976059844       -0.121421326        0.016142238      0.00142273223     7.35839005e-05     0.000179146363     0.000463503753      0.00360453453
                   0.000463505709      0.00360453325     7.35839005e-05     0.000179146363       0.0161421576      0.00142276399        0.976059844       -0.121421326
                   7.35838926e-05     0.000179146366     0.000463503753      0.00360453453        0.976059844       -0.121421326        0.016142238      0.00142273223

         600000000      0.0182788011      -0.0044505551        0.951765129        -0.23323214      0.00167567385      0.00702524936     0.000166755912     0.000311129334
                      0.951765129        -0.23323214       0.0182790909     -0.00445067784     0.000166755943     0.000311129321      0.00167566683      0.00702525322
                    0.00167567385      0.00702524936     0.000166755943     0.000311129321        0.018278801     -0.00445055508        0.951765129        -0.23323214
                   0.000166755912     0.000311129334      0.00167566683      0.00702525322        0.951765129        -0.23323214       0.0182790909     -0.00445067786

         900000000      0.0178424256     -0.00979309936        0.916116174       -0.341701902      0.00369595775       0.0100226336     0.000309306393     0.000416029052
                      0.916116174       -0.341701902       0.0178430303     -0.00979341123     0.000309306455      0.00041602902      0.00369594286       0.0100226423
                    0.00369595775       0.0100226336     0.000309306455      0.00041602902       0.0178424256     -0.00979309931        0.916116174       -0.341701902
                   0.000309306393     0.000416029052      0.00369594286       0.0100226423        0.916116174       -0.341701902       0.0178430304     -0.00979341128

           1.2e+09      0.0160673115        -0.01457748        0.868502839       -0.445250559      0.00633821975       0.0124541077     0.000496463784     0.000473067181
                      0.868502839       -0.445250559       0.0160682995      -0.0145781121     0.000496463886     0.000473067114      0.00633819507       0.0124541246
                    0.00633821975       0.0124541077     0.000496463886     0.000473067114       0.0160673114      -0.0145774799        0.868502839       -0.445250559
                   0.000496463784     0.000473067181      0.00633819507       0.0124541246        0.868502839       -0.445250559       0.0160682997      -0.0145781123

           1.5e+09      0.0132919252      -0.0187119301        0.809428408       -0.542393258      0.00945032949       0.0141993778     0.000710318932     0.000465063776
                      0.809428408       -0.542393258       0.0132933189       -0.018713035     0.000710319079     0.000465063655      0.00945029438       0.0141994069
                    0.00945032949       0.0141993778     0.000710319079     0.000465063655        0.013291925        -0.01871193        0.809428408       -0.542393258
                   0.000710318932     0.000465063776      0.00945029438       0.0141994069        0.809428408       -0.542393258       0.0132933191      -0.0187130352

           1.8e+09     0.00974878113      -0.0220672718        0.739688171       -0.631825931       0.0128595049       0.0151750442     0.000927530293     0.000384421017
                      0.739688171       -0.631825931      0.00975055175       -0.022069008     0.000927530482     0.000384420823       0.0128594602       0.0151750897
                     0.0128595049       0.0151750442     0.000927530482     0.000384420823      0.00974878088      -0.0220672716        0.739688171       -0.631825931
                   0.000927530293     0.000384421017       0.0128594602       0.0151750897        0.739688171       -0.631825931      0.00975055202      -0.0220690083

           2.1e+09     0.00563535357      -0.0245630182        0.660221645       -0.712401674        0.016381273       0.0153390198      0.00112527157     0.000232769824
                      0.660221645       -0.712401674      0.00563741942      -0.0245655338       0.0011252718     0.000232769532       0.0163812209       0.0153390853
                      0.016381273       0.0153390198       0.0011252718     0.000232769532      0.00563535329      -0.0245630179        0.660221645       -0.712401674
                    0.00112527157     0.000232769824       0.0163812209       0.0153390853        0.660221645       -0.712401674      0.00563741973      -0.0245655343

           2.4e+09     0.00122509786      -0.0260854567        0.572192388       -0.783024692       0.0198233678       0.0146922701      0.00127905485     1.92499384e-05
                      0.572192388       -0.783024692      0.00122733157      -0.0260888776       0.0012790551     1.92495307e-05       0.0198233117       0.0146923586
                     0.0198233678       0.0146922701       0.0012790551     1.92495307e-05      0.00122509754      -0.0260854562        0.572192388       -0.783024692
                    0.00127905485     1.92499384e-05       0.0198233117       0.0146923586        0.572192388       -0.783024692      0.00122733189      -0.0260888782

           2.7e+09    -0.00327635768      -0.0266399788        0.476806385        -0.84282232       0.0230039426       0.0132797594       0.0013728296    -0.000239751033
                      0.476806385        -0.84282232     -0.00327412447      -0.0266443914      0.00137282985    -0.000239751576       0.0230038869        0.013279873
                     0.0230039426       0.0132797594      0.00137282985    -0.000239751576       -0.003276358      -0.0266399782        0.476806385        -0.84282232
                     0.0013728296    -0.000239751033       0.0230038869        0.013279873        0.476806385        -0.84282232     -0.00327412416      -0.0266443921

             3e+09    -0.00762546937      -0.0262434111        0.375420705       -0.891039073       0.0257553518       0.0111872697      0.00139489369    -0.000523286152
                      0.375420705       -0.891039073     -0.00762343229      -0.0262488542      0.00139489392    -0.000523286843       0.0257553012       0.0111874087
                     0.0257553518       0.0111872697      0.00139489392    -0.000523286843     -0.00762546964      -0.0262434103        0.375420705       -0.891039073
                    0.00139489369    -0.000523286152       0.0257553012       0.0111874087        0.375420705       -0.891039073     -0.00762343203       -0.026248855

           3.3e+09     -0.0116850183      -0.0249952196        0.269351036        -0.92712991       0.0279383142      0.00853344877      0.00134381389    -0.000810337913
                      0.269351036        -0.92712991      -0.0116833889        -0.02500167      0.00134381407    -0.000810338767       0.0279382738      0.00853361238
                     0.0279383142      0.00853344877      0.00134381407    -0.000810338767      -0.0116850185      -0.0249952187        0.269351036        -0.92712991
                    0.00134381389    -0.000810337913       0.0279382738      0.00853361238        0.269351036        -0.92712991      -0.0116833888       -0.025001671

           3.6e+09     -0.0152577669      -0.0229888563        0.160066901       -0.950664709       0.0294421692      0.00546701923      0.00122203085      -0.0010790577
                      0.160066901       -0.950664709      -0.0152567528      -0.0229962317      0.00122203094     -0.00107905873       0.0294421438      0.00546720511
                     0.0294421692      0.00546701923      0.00122203094     -0.00107905873       -0.015257767      -0.0229888552        0.160066902       -0.950664709
                    0.00122203085      -0.0010790577       0.0294421438      0.00546720511        0.160066902       -0.950664709      -0.0152567527      -0.0229962328

           3.9e+09     -0.0181967731      -0.0203638571       0.0490439294       -0.961397956       0.0301945693      0.00215641884      0.00103920349     -0.00131055675
                     0.0490439294       -0.961397956      -0.0181965616      -0.0203720148      0.00103920347     -0.00131055795       0.0301945628      0.00215662334
                     0.0301945693      0.00215641884      0.00103920347     -0.00131055795      -0.0181967731      -0.0203638559       0.0490439297       -0.961397956
                    0.00103920349     -0.00131055675       0.0301945628      0.00215662334       0.0490439297       -0.961397956      -0.0181965616       -0.020372016

           4.2e+09     -0.0203956054       -0.017286213        -0.06223652       -0.959255365       0.0301639504     -0.00121915917      0.00081007177     -0.00149058461
                      -0.06223652       -0.959255365      -0.0203963468      -0.0172949564      0.00081007159     -0.00149058599       0.0301639662     -0.00121894078
                     0.0301639504     -0.00121915917      0.00081007159     -0.00149058599      -0.0203956052      -0.0172862117      -0.0622365199       -0.959255365
                    0.00081007177     -0.00149058461       0.0301639662     -0.00121894078      -0.0622365199       -0.959255365      -0.0203963469      -0.0172949577

           4.5e+09     -0.0217879546      -0.0139385411       -0.172300606       -0.944330367       0.0293604428     -0.00447917683     0.000552438731     -0.00161062804
                     -0.172300606       -0.944330367      -0.0217897474      -0.0139476295     0.000552438352     -0.00161062958       0.0293604827     -0.00447895019
                     0.0293604428     -0.00447917683     0.000552438352     -0.00161062958      -0.0217879543      -0.0139385398       -0.172300605       -0.944330367
                   0.000552438731     -0.00161062804       0.0293604827     -0.00447895019       -0.172300605       -0.944330367      -0.0217897476      -0.0139476309

           4.8e+09     -0.0223505046      -0.0105108906       -0.279700902       -0.916880728       0.0278347876     -0.00745120381       0.0002850795     -0.00166842423
                     -0.279700902       -0.916880728      -0.0223533834      -0.0105200535     0.000285078881     -0.00166842591        0.027834852     -0.00745097512
                     0.0278347876     -0.00745120381     0.000285078881     -0.00166842591      -0.0223505041      -0.0105108893       -0.279700901       -0.916880728
                     0.0002850795     -0.00166842423        0.027834852     -0.00745097512       -0.279700901       -0.916880728      -0.0223533839      -0.0105200548

           5.1e+09     -0.0221025475     -0.00719137234       -0.383032446       -0.877323935       0.0256752029     -0.00997974062     2.56202648e-05     -0.00166770259
                     -0.383032446       -0.877323935      -0.0221064752     -0.00720032643     2.56193632e-05      -0.0016677044       0.0256752909     -0.00997951632
                     0.0256752029     -0.00997974062     2.56193632e-05      -0.0016677044      -0.0221025468     -0.00719137113       -0.383032446       -0.877323935
                   2.56202648e-05     -0.00166770259       0.0256752909     -0.00997951632       -0.383032446       -0.877323935      -0.0221064758     -0.00720032769

           5.4e+09     -0.0211047788     -0.00415669999       -0.480950282       -0.826230741        0.023002406      -0.0119341301    -0.000211292615     -0.00161730578
                     -0.480950282       -0.826230741      -0.0211096433     -0.00416516867    -0.000211293839     -0.00161730767       0.0230025146      -0.0119339164
                      0.023002406      -0.0119341301    -0.000211293839     -0.00161730767       -0.021104778     -0.00415669887       -0.480950282       -0.826230741
                  -0.000211292615     -0.00161730578       0.0230025146      -0.0119339164       -0.480950282       -0.826230741       -0.021109644     -0.00416516985

           5.7e+09     -0.0194552586     -0.00156351736       -0.572184803       -0.764317631       0.0199630367      -0.0132150629    -0.000415420804      -0.0015297295
                     -0.572184803       -0.764317631      -0.0194608741     -0.00157125057     -0.00041542239     -0.00152973143       0.0199631616      -0.0132148655
                     0.0199630367      -0.0132150629     -0.00041542239     -0.00152973143      -0.0194552577     -0.00156351637       -0.572184802       -0.764317631
                  -0.000415420804      -0.0015297295       0.0199631616      -0.0132148655       -0.572184802       -0.764317631      -0.0194608748     -0.00157125165

             6e+09     -0.0172836581      0.00045904803       -0.655556339       -0.692438355       0.0167218797      -0.0137594393    -0.000581752435     -0.00141930318
                     -0.655556339       -0.692438355       -0.017289772      0.00045225457    -0.000581754416      -0.0014193051       0.0167220151      -0.0137592628
                     0.0167218797      -0.0137594393    -0.000581754416      -0.0014193051      -0.0172836571     0.000459048857       -0.655556339       -0.692438355
                  -0.000581752435     -0.00141930318       0.0167220151      -0.0137592628       -0.655556339       -0.692438355      -0.0172897727     0.000452253617

           6.3e+09     -0.0147445134      0.00181568249       -0.729990455       -0.611572982       0.0134532305      -0.0135433739    -0.000710627276     -0.00130027778
                     -0.729990455       -0.611572982      -0.0147508183      0.00180996966     -0.00071062968     -0.00130027964       0.0134533689      -0.0135432214
                     0.0134532305      -0.0135433739     -0.00071062968     -0.00130027964      -0.0147445124      0.00181568313       -0.729990455       -0.611572982
                  -0.000710627276     -0.00130027778       0.0134533689      -0.0135432214       -0.729990455       -0.611572982      -0.0147508191      0.00180996885

           6.6e+09     -0.0120089131      0.00244866985       -0.794530941       -0.522816431       0.0103319642      -0.0125831071    -0.000807221177     -0.00118497615
                     -0.794530941       -0.522816431      -0.0120150624      0.00244410079    -0.000807224024     -0.00118497788       0.0103320976      -0.0125829799
                     0.0103319642      -0.0125831071    -0.000807224024     -0.00118497788      -0.0120089121       0.0024486703       -0.794530941       -0.522816432
                  -0.000807221177     -0.00118497615       0.0103320976      -0.0125829799       -0.794530941       -0.522816432      -0.0120150632      0.00244410012

           6.9e+09    -0.00925623055      0.00233854083       -0.848352196       -0.427365557      0.00752498776      -0.0109337608    -0.000880426838     -0.00108227756
                     -0.848352196       -0.427365557     -0.00926185645      0.00233509114     -0.00088043014     -0.00108227908      0.00752510746      -0.0109336583
                    0.00752498776      -0.0109337608     -0.00088043014     -0.00108227908     -0.00925622967       0.0023385411       -0.848352196       -0.427365558
                  -0.000880426838     -0.00108227756      0.00752510746      -0.0109336583       -0.848352196       -0.427365558     -0.00926185711       0.0023350906

           7.2e+09    -0.00666747907      0.00149826758       -0.890771242       -0.326503074      0.00518448145     -0.00868561838    -0.000941281825    -0.000996656924
                     -0.890771242       -0.326503074     -0.00667220772      0.00149582447    -0.000941285581     -0.00099665816      0.00518457895     -0.00868553717
                    0.00518448145     -0.00868561838    -0.000941285581     -0.00099665816     -0.00666747835       0.0014982677       -0.890771242       -0.326503075
                  -0.000941281825    -0.000996656924      0.00518457895     -0.00868553717       -0.890771242       -0.326503075      -0.0066722082      0.00149582403

           7.5e+09    -0.00441746217    -4.60175903e-05       -0.921256616       -0.221582868      0.00344884635     -0.00595591435     -0.00100119738    -0.000927796979
                     -0.921256616       -0.221582868      -0.0044209176    -4.76215932e-05     -0.00100120158    -0.000927797851      0.00344891398     -0.00595584889
                    0.00344884635     -0.00595591435     -0.00100120158    -0.000927797851     -0.00441746166    -4.60176151e-05       -0.921256616       -0.221582868
                   -0.00100119738    -0.000927796979      0.00344891398     -0.00595584889       -0.921256616       -0.221582868     -0.00442091789    -4.76219627e-05

           7.8e+09    -0.00266473723     -0.00207770117       -0.939437087       -0.114010824      0.00249121331     -0.00284864424     -0.00107019379    -0.000870869329
                     -0.939437087       -0.114010824     -0.00266659451     -0.00207891457     -0.00107019841    -0.000870869749      0.00249124537     -0.00284858483
                    0.00249121331     -0.00284864424     -0.00107019841    -0.000870869749     -0.00266473698     -0.00207770122       -0.939437087       -0.114010825
                   -0.00107019379    -0.000870869329      0.00249124537     -0.00284858483       -0.939437087       -0.114010825     -0.00266659457     -0.00207891492

           8.1e+09    -0.00147576998     -0.00431532134       -0.945107247      -0.0052248469      0.00240997354     0.000439105396     -0.00115538108    -0.000817442193
                     -0.945107247      -0.0052248469     -0.00147615463     -0.00431641158     -0.00115538607    -0.000817442074      0.00240996424     0.000439164007
                    0.00240997354     0.000439105396     -0.00115538607    -0.000817442074     -0.00147576995     -0.00431532142       -0.945107247      -0.0052248471
                   -0.00115538108    -0.000817442193      0.00240996424     0.000439164007       -0.945107247      -0.0052248471     -0.00147615447     -0.00431641197

           8.4e+09   -0.000693930339     -0.00693668596       -0.938230392        0.103323564      0.00262832262      0.00334268158     -0.00125987573    -0.000756742062
                     -0.938230392        0.103323564    -0.000692558814      -0.0069379465     -0.00125988104    -0.000756741319      0.00262826812      0.00334275368
                    0.00262832262      0.00334268158     -0.00125988104    -0.000756741319      -0.0006939306       -0.006936686       -0.938230392        0.103323564
                   -0.00125987573    -0.000756742062      0.00262826812      0.00334275368       -0.938230392        0.103323564    -0.000692558409     -0.00693794696

